 v-sweep         v(vinp)         v(voutp)        v(voutn)       
 7.48000000e-01  7.48000000e-01  3.26417357e-02  1.47353045e+00 
 7.48010000e-01  7.48010000e-01  3.28156628e-02  1.47332276e+00 
 7.48020000e-01  7.48020000e-01  3.29933924e-02  1.47311219e+00 
 7.48030000e-01  7.48030000e-01  3.31713961e-02  1.47290089e+00 
 7.48040000e-01  7.48040000e-01  3.33503634e-02  1.47268695e+00 
 7.48050000e-01  7.48050000e-01  3.35312588e-02  1.47247145e+00 
 7.48060000e-01  7.48060000e-01  3.37139967e-02  1.47225456e+00 
 7.48070000e-01  7.48070000e-01  3.38977166e-02  1.47203485e+00 
 7.48080000e-01  7.48080000e-01  3.40832099e-02  1.47181375e+00 
 7.48090000e-01  7.48090000e-01  3.42703012e-02  1.47159066e+00 
 7.48100000e-01  7.48100000e-01  3.44569444e-02  1.47136717e+00 
 7.48110000e-01  7.48110000e-01  3.46499642e-02  1.47113899e+00 
 7.48120000e-01  7.48120000e-01  3.48406520e-02  1.47091057e+00 
 7.48130000e-01  7.48130000e-01  3.50350870e-02  1.47067921e+00 
 7.48140000e-01  7.48140000e-01  3.52298035e-02  1.47044578e+00 
 7.48150000e-01  7.48150000e-01  3.54270006e-02  1.47021123e+00 
 7.48160000e-01  7.48160000e-01  3.56247144e-02  1.46997450e+00 
 7.48170000e-01  7.48170000e-01  3.58260854e-02  1.46973411e+00 
 7.48180000e-01  7.48180000e-01  3.60291990e-02  1.46949301e+00 
 7.48190000e-01  7.48190000e-01  3.62317140e-02  1.46925009e+00 
 7.48200000e-01  7.48200000e-01  3.64400966e-02  1.46900256e+00 
 7.48210000e-01  7.48210000e-01  3.66467618e-02  1.46875571e+00 
 7.48220000e-01  7.48220000e-01  3.68568898e-02  1.46850456e+00 
 7.48230000e-01  7.48230000e-01  3.70681244e-02  1.46825215e+00 
 7.48240000e-01  7.48240000e-01  3.72820363e-02  1.46799793e+00 
 7.48250000e-01  7.48250000e-01  3.74968111e-02  1.46774110e+00 
 7.48260000e-01  7.48260000e-01  3.77157943e-02  1.46748027e+00 
 7.48270000e-01  7.48270000e-01  3.79349356e-02  1.46721856e+00 
 7.48280000e-01  7.48280000e-01  3.81547738e-02  1.46695578e+00 
 7.48290000e-01  7.48290000e-01  3.83771767e-02  1.46668954e+00 
 7.48300000e-01  7.48300000e-01  3.86038210e-02  1.46641923e+00 
 7.48310000e-01  7.48310000e-01  3.88306179e-02  1.46614882e+00 
 7.48320000e-01  7.48320000e-01  3.90596192e-02  1.46587417e+00 
 7.48330000e-01  7.48330000e-01  3.92917222e-02  1.46559747e+00 
 7.48340000e-01  7.48340000e-01  3.95245678e-02  1.46531967e+00 
 7.48350000e-01  7.48350000e-01  3.97607486e-02  1.46503795e+00 
 7.48360000e-01  7.48360000e-01  3.99982862e-02  1.46475396e+00 
 7.48370000e-01  7.48370000e-01  4.02371507e-02  1.46446663e+00 
 7.48380000e-01  7.48380000e-01  4.04806177e-02  1.46417770e+00 
 7.48390000e-01  7.48390000e-01  4.07255411e-02  1.46388545e+00 
 7.48400000e-01  7.48400000e-01  4.09721467e-02  1.46359061e+00 
 7.48410000e-01  7.48410000e-01  4.12217534e-02  1.46329179e+00 
 7.48420000e-01  7.48420000e-01  4.14732509e-02  1.46299233e+00 
 7.48430000e-01  7.48430000e-01  4.17276637e-02  1.46268786e+00 
 7.48440000e-01  7.48440000e-01  4.19830461e-02  1.46238298e+00 
 7.48450000e-01  7.48450000e-01  4.22398895e-02  1.46207446e+00 
 7.48460000e-01  7.48460000e-01  4.25030179e-02  1.46176177e+00 
 7.48470000e-01  7.48470000e-01  4.27670410e-02  1.46144666e+00 
 7.48480000e-01  7.48480000e-01  4.30335584e-02  1.46112731e+00 
 7.48490000e-01  7.48490000e-01  4.33012930e-02  1.46080765e+00 
 7.48500000e-01  7.48500000e-01  4.35717117e-02  1.46048371e+00 
 7.48510000e-01  7.48510000e-01  4.38472927e-02  1.46015586e+00 
 7.48520000e-01  7.48520000e-01  4.41237297e-02  1.45982537e+00 
 7.48530000e-01  7.48530000e-01  4.44041327e-02  1.45949124e+00 
 7.48540000e-01  7.48540000e-01  4.46842763e-02  1.45915474e+00 
 7.48550000e-01  7.48550000e-01  4.49694023e-02  1.45881423e+00 
 7.48560000e-01  7.48560000e-01  4.52573849e-02  1.45847040e+00 
 7.48570000e-01  7.48570000e-01  4.55524156e-02  1.45812073e+00 
 7.48580000e-01  7.48580000e-01  4.58445728e-02  1.45777041e+00 
 7.48590000e-01  7.48590000e-01  4.61420301e-02  1.45741601e+00 
 7.48600000e-01  7.48600000e-01  4.64417609e-02  1.45705819e+00 
 7.48610000e-01  7.48610000e-01  4.67435549e-02  1.45669700e+00 
 7.48620000e-01  7.48620000e-01  4.70486583e-02  1.45633205e+00 
 7.48630000e-01  7.48630000e-01  4.73602458e-02  1.45596267e+00 
 7.48640000e-01  7.48640000e-01  4.76704839e-02  1.45559051e+00 
 7.48650000e-01  7.48650000e-01  4.79848187e-02  1.45521433e+00 
 7.48660000e-01  7.48660000e-01  4.83018295e-02  1.45483593e+00 
 7.48670000e-01  7.48670000e-01  4.86236842e-02  1.45445174e+00 
 7.48680000e-01  7.48680000e-01  4.89516186e-02  1.45406132e+00 
 7.48690000e-01  7.48690000e-01  4.92794384e-02  1.45366919e+00 
 7.48700000e-01  7.48700000e-01  4.96135420e-02  1.45327246e+00 
 7.48710000e-01  7.48710000e-01  4.99487301e-02  1.45287187e+00 
 7.48720000e-01  7.48720000e-01  5.02880359e-02  1.45246700e+00 
 7.48730000e-01  7.48730000e-01  5.06330032e-02  1.45205742e+00 
 7.48740000e-01  7.48740000e-01  5.09770301e-02  1.45164617e+00 
 7.48750000e-01  7.48750000e-01  5.13297902e-02  1.45122583e+00 
 7.48760000e-01  7.48760000e-01  5.16807857e-02  1.45080570e+00 
 7.48770000e-01  7.48770000e-01  5.20407484e-02  1.45037620e+00 
 7.48780000e-01  7.48780000e-01  5.24035544e-02  1.44994409e+00 
 7.48790000e-01  7.48790000e-01  5.27703217e-02  1.44950733e+00 
 7.48800000e-01  7.48800000e-01  5.31389733e-02  1.44906816e+00 
 7.48810000e-01  7.48810000e-01  5.35139259e-02  1.44862164e+00 
 7.48820000e-01  7.48820000e-01  5.38938839e-02  1.44817000e+00 
 7.48830000e-01  7.48830000e-01  5.42763442e-02  1.44771354e+00 
 7.48840000e-01  7.48840000e-01  5.46678066e-02  1.44724892e+00 
 7.48850000e-01  7.48850000e-01  5.50593618e-02  1.44678183e+00 
 7.48860000e-01  7.48860000e-01  5.54541306e-02  1.44631199e+00 
 7.48870000e-01  7.48870000e-01  5.58556124e-02  1.44583401e+00 
 7.48880000e-01  7.48880000e-01  5.62621548e-02  1.44534772e+00 
 7.48890000e-01  7.48890000e-01  5.66740268e-02  1.44485837e+00 
 7.48900000e-01  7.48900000e-01  5.70915021e-02  1.44436319e+00 
 7.48910000e-01  7.48910000e-01  5.75104739e-02  1.44386515e+00 
 7.48920000e-01  7.48920000e-01  5.79387824e-02  1.44335521e+00 
 7.48930000e-01  7.48930000e-01  5.83703342e-02  1.44284201e+00 
 7.48940000e-01  7.48940000e-01  5.88070650e-02  1.44232260e+00 
 7.48950000e-01  7.48950000e-01  5.92494552e-02  1.44179686e+00 
 7.48960000e-01  7.48960000e-01  5.96955667e-02  1.44126456e+00 
 7.48970000e-01  7.48970000e-01  6.01469004e-02  1.44072894e+00 
 7.48980000e-01  7.48980000e-01  6.06066799e-02  1.44018346e+00 
 7.48990000e-01  7.48990000e-01  6.10755854e-02  1.43962740e+00 
 7.49000000e-01  7.49000000e-01  6.15450824e-02  1.43907133e+00 
 7.49010000e-01  7.49010000e-01  6.20205442e-02  1.43850458e+00 
 7.49020000e-01  7.49020000e-01  6.25068737e-02  1.43792665e+00 
 7.49030000e-01  7.49030000e-01  6.29931524e-02  1.43734876e+00 
 7.49040000e-01  7.49040000e-01  6.34916179e-02  1.43675953e+00 
 7.49050000e-01  7.49050000e-01  6.39965681e-02  1.43615833e+00 
 7.49060000e-01  7.49060000e-01  6.45068360e-02  1.43555307e+00 
 7.49070000e-01  7.49070000e-01  6.50237640e-02  1.43493962e+00 
 7.49080000e-01  7.49080000e-01  6.55453666e-02  1.43432202e+00 
 7.49090000e-01  7.49090000e-01  6.60771124e-02  1.43369168e+00 
 7.49100000e-01  7.49100000e-01  6.66230284e-02  1.43304836e+00 
 7.49110000e-01  7.49110000e-01  6.71666123e-02  1.43239973e+00 
 7.49120000e-01  7.49120000e-01  6.77219175e-02  1.43174739e+00 
 7.49130000e-01  7.49130000e-01  6.82879187e-02  1.43107569e+00 
 7.49140000e-01  7.49140000e-01  6.88565690e-02  1.43040416e+00 
 7.49150000e-01  7.49150000e-01  6.94402764e-02  1.42971272e+00 
 7.49160000e-01  7.49160000e-01  7.00271737e-02  1.42901574e+00 
 7.49170000e-01  7.49170000e-01  7.06285389e-02  1.42830915e+00 
 7.49180000e-01  7.49180000e-01  7.12351785e-02  1.42759120e+00 
 7.49190000e-01  7.49190000e-01  7.18531835e-02  1.42686259e+00 
 7.49200000e-01  7.49200000e-01  7.24750548e-02  1.42612823e+00 
 7.49210000e-01  7.49210000e-01  7.31163117e-02  1.42537082e+00 
 7.49220000e-01  7.49220000e-01  7.37595501e-02  1.42461343e+00 
 7.49230000e-01  7.49230000e-01  7.44214286e-02  1.42383128e+00 
 7.49240000e-01  7.49240000e-01  7.50908383e-02  1.42304284e+00 
 7.49250000e-01  7.49250000e-01  7.57632553e-02  1.42224746e+00 
 7.49260000e-01  7.49260000e-01  7.64562316e-02  1.42143317e+00 
 7.49270000e-01  7.49270000e-01  7.71659212e-02  1.42059766e+00 
 7.49280000e-01  7.49280000e-01  7.78857690e-02  1.41975560e+00 
 7.49290000e-01  7.49290000e-01  7.86151366e-02  1.41889821e+00 
 7.49300000e-01  7.49300000e-01  7.93558319e-02  1.41802508e+00 
 7.49310000e-01  7.49310000e-01  8.01143908e-02  1.41713750e+00 
 7.49320000e-01  7.49320000e-01  8.08777034e-02  1.41624138e+00 
 7.49330000e-01  7.49330000e-01  8.16614934e-02  1.41532055e+00 
 7.49340000e-01  7.49340000e-01  8.24704226e-02  1.41437407e+00 
 7.49350000e-01  7.49350000e-01  8.32858276e-02  1.41341783e+00 
 7.49360000e-01  7.49360000e-01  8.41204649e-02  1.41244399e+00 
 7.49370000e-01  7.49370000e-01  8.49690320e-02  1.41145004e+00 
 7.49380000e-01  7.49380000e-01  8.58266589e-02  1.41044640e+00 
 7.49390000e-01  7.49390000e-01  8.67228270e-02  1.40940277e+00 
 7.49400000e-01  7.49400000e-01  8.76311890e-02  1.40834848e+00 
 7.49410000e-01  7.49410000e-01  8.85572332e-02  1.40727130e+00 
 7.49420000e-01  7.49420000e-01  8.94923575e-02  1.40618227e+00 
 7.49430000e-01  7.49430000e-01  9.04609034e-02  1.40505872e+00 
 7.49440000e-01  7.49440000e-01  9.14500157e-02  1.40390919e+00 
 7.49450000e-01  7.49450000e-01  9.24659739e-02  1.40273451e+00 
 7.49460000e-01  7.49460000e-01  9.35153257e-02  1.40151695e+00 
 7.49470000e-01  7.49470000e-01  9.45834402e-02  1.40028596e+00 
 7.49480000e-01  7.49480000e-01  9.56800344e-02  1.39902539e+00 
 7.49490000e-01  7.49490000e-01  9.68034293e-02  1.39773274e+00 
 7.49500000e-01  7.49500000e-01  9.79426507e-02  1.39642420e+00 
 7.49510000e-01  7.49510000e-01  9.91389800e-02  1.39504556e+00 
 7.49520000e-01  7.49520000e-01  1.00360967e-01  1.39364967e+00 
 7.49530000e-01  7.49530000e-01  1.01620243e-01  1.39221590e+00 
 7.49540000e-01  7.49540000e-01  1.02918204e-01  1.39074211e+00 
 7.49550000e-01  7.49550000e-01  1.04253408e-01  1.38922389e+00 
 7.49560000e-01  7.49560000e-01  1.05635218e-01  1.38766173e+00 
 7.49570000e-01  7.49570000e-01  1.07055130e-01  1.38604822e+00 
 7.49580000e-01  7.49580000e-01  1.08509124e-01  1.38441323e+00 
 7.49590000e-01  7.49590000e-01  1.10037988e-01  1.38269959e+00 
 7.49600000e-01  7.49600000e-01  1.11655464e-01  1.38089662e+00 
 7.49610000e-01  7.49610000e-01  1.13294830e-01  1.37905517e+00 
 7.49620000e-01  7.49620000e-01  1.14985588e-01  1.37718780e+00 
 7.49630000e-01  7.49630000e-01  1.16812494e-01  1.37517654e+00 
 7.49640000e-01  7.49640000e-01  1.18679329e-01  1.37311918e+00 
 7.49650000e-01  7.49650000e-01  1.20637981e-01  1.37097794e+00 
 7.49660000e-01  7.49660000e-01  1.22687728e-01  1.36874158e+00 
 7.49670000e-01  7.49670000e-01  1.24802225e-01  1.36645989e+00 
 7.49680000e-01  7.49680000e-01  1.27140905e-01  1.36395775e+00 
 7.49690000e-01  7.49690000e-01  1.29490444e-01  1.36144899e+00 
 7.49700000e-01  7.49700000e-01  1.32048664e-01  1.35874660e+00 
 7.49710000e-01  7.49710000e-01  1.34865091e-01  1.35579818e+00 
 7.49720000e-01  7.49720000e-01  1.37818248e-01  1.35275342e+00 
 7.49730000e-01  7.49730000e-01  1.40983529e-01  1.34949981e+00 
 7.49740000e-01  7.49740000e-01  1.44439822e-01  1.34601534e+00 
 7.49750000e-01  7.49750000e-01  1.48208634e-01  1.34225225e+00 
 7.49760000e-01  7.49760000e-01  1.52373420e-01  1.33815924e+00 
 7.49770000e-01  7.49770000e-01  1.57036706e-01  1.33366981e+00 
 7.49780000e-01  7.49780000e-01  1.61983912e-01  1.32895062e+00 
 7.49790000e-01  7.49790000e-01  1.68433023e-01  1.32306522e+00 
 7.49800000e-01  7.49800000e-01  1.75013459e-01  1.31706443e+00 
 7.49810000e-01  7.49810000e-01  1.83369192e-01  1.30969205e+00 
 7.49820000e-01  7.49820000e-01  1.93845490e-01  1.30070619e+00 
 7.49830000e-01  7.49830000e-01  2.10374537e-01  1.28723589e+00 
 7.49840000e-01  7.49840000e-01  2.31450435e-01  1.26974273e+00 
 7.49850000e-01  7.49850000e-01  2.55540858e-01  1.24867324e+00 
 7.49860000e-01  7.49860000e-01  2.86620402e-01  1.21423921e+00 
 7.49870000e-01  7.49870000e-01  3.16581113e-01  1.18132988e+00 
 7.49880000e-01  7.49880000e-01  3.46967109e-01  1.14769469e+00 
 7.49890000e-01  7.49890000e-01  3.77884650e-01  1.11373169e+00 
 7.49900000e-01  7.49900000e-01  4.09132514e-01  1.07960089e+00 
 7.49910000e-01  7.49910000e-01  4.40674596e-01  1.04540440e+00 
 7.49920000e-01  7.49920000e-01  4.72776610e-01  1.01106132e+00 
 7.49930000e-01  7.49930000e-01  5.05083253e-01  9.76740616e-01 
 7.49940000e-01  7.49940000e-01  5.37482658e-01  9.42402218e-01 
 7.49950000e-01  7.49950000e-01  5.70351205e-01  9.08070059e-01 
 7.49960000e-01  7.49960000e-01  6.03425459e-01  8.73808761e-01 
 7.49970000e-01  7.49970000e-01  6.36653812e-01  8.39584632e-01 
 7.49980000e-01  7.49980000e-01  6.70115682e-01  8.05459971e-01 
 7.49990000e-01  7.49990000e-01  7.03751818e-01  7.71440725e-01 
 7.50000000e-01  7.50000000e-01  7.37404508e-01  7.37424005e-01 
 7.50010000e-01  7.50010000e-01  7.71440894e-01  7.03754000e-01 
 7.50020000e-01  7.50020000e-01  8.05403874e-01  6.70037707e-01 
 7.50030000e-01  7.50030000e-01  8.39582321e-01  6.36645512e-01 
 7.50040000e-01  7.50040000e-01  8.73766416e-01  6.03301528e-01 
 7.50050000e-01  7.50050000e-01  9.08086250e-01  5.70394305e-01 
 7.50060000e-01  7.50060000e-01  9.42397055e-01  5.37586392e-01 
 7.50070000e-01  7.50070000e-01  9.76732342e-01  5.04933714e-01 
 7.50080000e-01  7.50080000e-01  1.01106190e+00  4.72765323e-01 
 7.50090000e-01  7.50090000e-01  1.04538642e+00  4.40680034e-01 
 7.50100000e-01  7.50100000e-01  1.07959807e+00  4.09218377e-01 
 7.50110000e-01  7.50110000e-01  1.11372961e+00  3.77933652e-01 
 7.50120000e-01  7.50120000e-01  1.14769494e+00  3.46973160e-01 
 7.50130000e-01  7.50130000e-01  1.18153030e+00  3.16328679e-01 
 7.50140000e-01  7.50140000e-01  1.21422315e+00  2.86650941e-01 
 7.50150000e-01  7.50150000e-01  1.24481520e+00  2.57781801e-01 
 7.50160000e-01  7.50160000e-01  1.26976482e+00  2.31437136e-01 
 7.50170000e-01  7.50170000e-01  1.28731151e+00  2.10337188e-01 
 7.50180000e-01  7.50180000e-01  1.29953530e+00  1.95454235e-01 
 7.50190000e-01  7.50190000e-01  1.30895368e+00  1.84328543e-01 
 7.50200000e-01  7.50200000e-01  1.31660118e+00  1.75632891e-01 
 7.50210000e-01  7.50210000e-01  1.32306130e+00  1.68395242e-01 
 7.50220000e-01  7.50220000e-01  1.32906190e+00  1.61826865e-01 
 7.50230000e-01  7.50230000e-01  1.33367199e+00  1.57051365e-01 
 7.50240000e-01  7.50240000e-01  1.33816209e+00  1.52383420e-01 
 7.50250000e-01  7.50250000e-01  1.34225256e+00  1.48213620e-01 
 7.50260000e-01  7.50260000e-01  1.34601743e+00  1.44446962e-01 
 7.50270000e-01  7.50270000e-01  1.34963254e+00  1.40838026e-01 
 7.50280000e-01  7.50280000e-01  1.35285627e+00  1.37696759e-01 
 7.50290000e-01  7.50290000e-01  1.35589292e+00  1.34775537e-01 
 7.50300000e-01  7.50300000e-01  1.35867297e+00  1.32138333e-01 
 7.50310000e-01  7.50310000e-01  1.36138431e+00  1.29560056e-01 
 7.50320000e-01  7.50320000e-01  1.36395799e+00  1.27141723e-01 
 7.50330000e-01  7.50330000e-01  1.36647054e+00  1.24803788e-01 
 7.50340000e-01  7.50340000e-01  1.36879682e+00  1.22642802e-01 
 7.50350000e-01  7.50350000e-01  1.37097908e+00  1.20640902e-01 
 7.50360000e-01  7.50360000e-01  1.37311817e+00  1.18675656e-01 
 7.50370000e-01  7.50370000e-01  1.37517403e+00  1.16804916e-01 
 7.50380000e-01  7.50380000e-01  1.37715380e+00  1.15021485e-01 
 7.50390000e-01  7.50390000e-01  1.37905790e+00  1.13301910e-01 
 7.50400000e-01  7.50400000e-01  1.38092640e+00  1.11614341e-01 
 7.50410000e-01  7.50410000e-01  1.38270158e+00  1.10039528e-01 
 7.50420000e-01  7.50420000e-01  1.38441511e+00  1.08507771e-01 
 7.50430000e-01  7.50430000e-01  1.38605034e+00  1.07060674e-01 
 7.50440000e-01  7.50440000e-01  1.38766107e+00  1.05633444e-01 
 7.50450000e-01  7.50450000e-01  1.38922434e+00  1.04254348e-01 
 7.50460000e-01  7.50460000e-01  1.39076439e+00  1.02897382e-01 
 7.50470000e-01  7.50470000e-01  1.39223747e+00  1.01603305e-01 
 7.50480000e-01  7.50480000e-01  1.39365062e+00  1.00363324e-01 
 7.50490000e-01  7.50490000e-01  1.39504638e+00  9.91415003e-02 
 7.50500000e-01  7.50500000e-01  1.39640715e+00  9.79569185e-02 
 7.50510000e-01  7.50510000e-01  1.39774953e+00  9.67868074e-02 
 7.50520000e-01  7.50520000e-01  1.39902581e+00  9.56808050e-02 
 7.50530000e-01  7.50530000e-01  1.40028683e+00  9.45859731e-02 
 7.50540000e-01  7.50540000e-01  1.40153336e+00  9.35064153e-02 
 7.50550000e-01  7.50550000e-01  1.40272097e+00  9.24778569e-02 
 7.50560000e-01  7.50560000e-01  1.40391060e+00  9.14518732e-02 
 7.50570000e-01  7.50570000e-01  1.40504564e+00  9.04697977e-02 
 7.50580000e-01  7.50580000e-01  1.40618342e+00  8.94929850e-02 
 7.50590000e-01  7.50590000e-01  1.40728279e+00  8.85459626e-02 
 7.50600000e-01  7.50600000e-01  1.40836016e+00  8.76220125e-02 
 7.50610000e-01  7.50610000e-01  1.40940389e+00  8.67259615e-02 
 7.50620000e-01  7.50620000e-01  1.41043659e+00  8.58359253e-02 
 7.50630000e-01  7.50630000e-01  1.41146121e+00  8.49630920e-02 
 7.50640000e-01  7.50640000e-01  1.41244399e+00  8.41203681e-02 
 7.50650000e-01  7.50650000e-01  1.41341889e+00  8.32889380e-02 
 7.50660000e-01  7.50660000e-01  1.41437366e+00  8.24687622e-02 
 7.50670000e-01  7.50670000e-01  1.41532085e+00  8.16612575e-02 
 7.50680000e-01  7.50680000e-01  1.41624149e+00  8.08767034e-02 
 7.50690000e-01  7.50690000e-01  1.41713675e+00  8.01112744e-02 
 7.50700000e-01  7.50700000e-01  1.41803319e+00  7.93488955e-02 
 7.50710000e-01  7.50710000e-01  1.41889755e+00  7.86123706e-02 
 7.50720000e-01  7.50720000e-01  1.41976295e+00  7.78780672e-02 
 7.50730000e-01  7.50730000e-01  1.42059819e+00  7.71679573e-02 
 7.50740000e-01  7.50740000e-01  1.42143359e+00  7.64567383e-02 
 7.50750000e-01  7.50750000e-01  1.42224155e+00  7.57714312e-02 
 7.50760000e-01  7.50760000e-01  1.42304985e+00  7.50861467e-02 
 7.50770000e-01  7.50770000e-01  1.42383132e+00  7.44211153e-02 
 7.50780000e-01  7.50780000e-01  1.42461311e+00  7.37559843e-02 
 7.50790000e-01  7.50790000e-01  1.42537107e+00  7.31172006e-02 
 7.50800000e-01  7.50800000e-01  1.42612241e+00  7.24788040e-02 
 7.50810000e-01  7.50810000e-01  1.42686258e+00  7.18527271e-02 
 7.50820000e-01  7.50820000e-01  1.42759671e+00  7.12290256e-02 
 7.50830000e-01  7.50830000e-01  1.42830899e+00  7.06265599e-02 
 7.50840000e-01  7.50840000e-01  1.42902127e+00  7.00233133e-02 
 7.50850000e-01  7.50850000e-01  1.42971791e+00  6.94353468e-02 
 7.50860000e-01  7.50860000e-01  1.43040435e+00  6.88560852e-02 
 7.50870000e-01  7.50870000e-01  1.43108071e+00  6.82838425e-02 
 7.50880000e-01  7.50880000e-01  1.43174308e+00  6.77272321e-02 
 7.50890000e-01  7.50890000e-01  1.43240474e+00  6.71645988e-02 
 7.50900000e-01  7.50900000e-01  1.43305294e+00  6.66183410e-02 
 7.50910000e-01  7.50910000e-01  1.43368749e+00  6.60819356e-02 
 7.50920000e-01  7.50920000e-01  1.43431769e+00  6.55473760e-02 
 7.50930000e-01  7.50930000e-01  1.43493974e+00  6.50246854e-02 
 7.50940000e-01  7.50940000e-01  1.43555299e+00  6.45048109e-02 
 7.50950000e-01  7.50950000e-01  1.43615854e+00  6.39980356e-02 
 7.50960000e-01  7.50960000e-01  1.43675578e+00  6.34945298e-02 
 7.50970000e-01  7.50970000e-01  1.43734524e+00  6.29997169e-02 
 7.50980000e-01  7.50980000e-01  1.43792674e+00  6.25061202e-02 
 7.50990000e-01  7.50990000e-01  1.43850474e+00  6.20202738e-02 
 7.51000000e-01  7.51000000e-01  1.43906783e+00  6.15458135e-02 
 7.51010000e-01  7.51010000e-01  1.43963109e+00  6.10725438e-02 
 7.51020000e-01  7.51020000e-01  1.44018009e+00  6.06103491e-02 
 7.51030000e-01  7.51030000e-01  1.44072575e+00  6.01505139e-02 
 7.51040000e-01  7.51040000e-01  1.44126804e+00  5.96950136e-02 
 7.51050000e-01  7.51050000e-01  1.44179696e+00  5.92481334e-02 
