 frequency       v(Zin_dm)       v(Zin_dm)       v(Zin_cm)       v(Zin_cm)      
 1.00000000e-02  3.62703349e+06 -8.14551586e+00  0.00000000e+00 -3.93091189e+16 
 1.02305973e-02  3.62703349e+06 -8.33334925e+00  0.00000000e+00 -3.84230928e+16 
 1.04665121e-02  3.62703349e+06 -8.52551404e+00  0.00000000e+00 -3.75570377e+16 
 1.07078670e-02  3.62703349e+06 -8.72211009e+00  0.00000000e+00 -3.67105034e+16 
 1.09547876e-02  3.62703349e+06 -8.92323959e+00  0.00000000e+00 -3.58830499e+16 
 1.12074020e-02  3.62703349e+06 -9.12900708e+00  0.00000000e+00 -3.50742473e+16 
 1.14658417e-02  3.62703349e+06 -9.33951952e+00  0.00000000e+00 -3.42836750e+16 
 1.17302409e-02  3.62703349e+06 -9.55488632e+00  0.00000000e+00 -3.35109222e+16 
 1.20007371e-02  3.62703349e+06 -9.77521941e+00  0.00000000e+00 -3.27555872e+16 
 1.22774708e-02  3.62703349e+06 -1.00006333e+01  0.00000000e+00 -3.20172774e+16 
 1.25605860e-02  3.62703349e+06 -1.02312452e+01  0.00000000e+00 -3.12956091e+16 
 1.28502297e-02  3.62703349e+06 -1.04671750e+01  0.00000000e+00 -3.05902072e+16 
 1.31465525e-02  3.62703349e+06 -1.07085452e+01  0.00000000e+00 -2.99007050e+16 
 1.34497085e-02  3.62703349e+06 -1.09554814e+01  0.00000000e+00 -2.92267442e+16 
 1.37598551e-02  3.62703349e+06 -1.12081118e+01  0.00000000e+00 -2.85679744e+16 
 1.40771537e-02  3.62703349e+06 -1.14665678e+01  0.00000000e+00 -2.79240533e+16 
 1.44017690e-02  3.62703349e+06 -1.17309838e+01  0.00000000e+00 -2.72946462e+16 
 1.47338699e-02  3.62703349e+06 -1.20014971e+01  0.00000000e+00 -2.66794258e+16 
 1.50736290e-02  3.62703349e+06 -1.22782484e+01  0.00000000e+00 -2.60780725e+16 
 1.54212228e-02  3.62703349e+06 -1.25613815e+01  0.00000000e+00 -2.54902737e+16 
 1.57768320e-02  3.62703349e+06 -1.28510436e+01  0.00000000e+00 -2.49157238e+16 
 1.61406415e-02  3.62703349e+06 -1.31473852e+01  0.00000000e+00 -2.43541243e+16 
 1.65128404e-02  3.62703349e+06 -1.34505603e+01  0.00000000e+00 -2.38051832e+16 
 1.68936220e-02  3.62703349e+06 -1.37607266e+01  0.00000000e+00 -2.32686152e+16 
 1.72831844e-02  3.62703349e+06 -1.40780452e+01  0.00000000e+00 -2.27441415e+16 
 1.76817299e-02  3.62703349e+06 -1.44026811e+01  0.00000000e+00 -2.22314893e+16 
 1.80894658e-02  3.62703349e+06 -1.47348031e+01  0.00000000e+00 -2.17303924e+16 
 1.85066040e-02  3.62703349e+06 -1.50745837e+01  0.00000000e+00 -2.12405901e+16 
 1.89333613e-02  3.62703349e+06 -1.54221995e+01  0.00000000e+00 -2.07618279e+16 
 1.93699595e-02  3.62703349e+06 -1.57778312e+01  0.00000000e+00 -2.02938571e+16 
 1.98166255e-02  3.62703349e+06 -1.61416638e+01  0.00000000e+00 -1.98364343e+16 
 2.02735916e-02  3.62703349e+06 -1.65138862e+01  0.00000000e+00 -1.93893218e+16 
 2.07410951e-02  3.62703349e+06 -1.68946919e+01  0.00000000e+00 -1.89522871e+16 
 2.12193792e-02  3.62703349e+06 -1.72842790e+01  0.00000000e+00 -1.85251033e+16 
 2.17086923e-02  3.62703349e+06 -1.76828498e+01  0.00000000e+00 -1.81075481e+16 
 2.22092889e-02  3.62703349e+06 -1.80906115e+01  0.00000000e+00 -1.76994046e+16 
 2.27214291e-02  3.62703349e+06 -1.85077761e+01  0.00000000e+00 -1.73004607e+16 
 2.32453791e-02  3.62703349e+06 -1.89345604e+01  0.00000000e+00 -1.69105089e+16 
 2.37814113e-02  3.62703349e+06 -1.93711863e+01  0.00000000e+00 -1.65293466e+16 
 2.43298042e-02  3.62703349e+06 -1.98178806e+01  0.00000000e+00 -1.61567757e+16 
 2.48908429e-02  3.62703349e+06 -2.02748756e+01  0.00000000e+00 -1.57926026e+16 
 2.54648190e-02  3.62703349e+06 -2.07424087e+01  0.00000000e+00 -1.54366379e+16 
 2.60520309e-02  3.62703349e+06 -2.12207231e+01  0.00000000e+00 -1.50886966e+16 
 2.66527837e-02  3.62703349e+06 -2.17100672e+01  0.00000000e+00 -1.47485980e+16 
 2.72673897e-02  3.62703349e+06 -2.22106955e+01  0.00000000e+00 -1.44161651e+16 
 2.78961683e-02  3.62703349e+06 -2.27228681e+01  0.00000000e+00 -1.40912252e+16 
 2.85394464e-02  3.62703349e+06 -2.32468514e+01  0.00000000e+00 -1.37736095e+16 
 2.91975583e-02  3.62703349e+06 -2.37829175e+01  0.00000000e+00 -1.34631529e+16 
 2.98708461e-02  3.62703349e+06 -2.43313451e+01  0.00000000e+00 -1.31596939e+16 
 3.05596598e-02  3.62703349e+06 -2.48924194e+01  0.00000000e+00 -1.28630749e+16 
 3.12643573e-02  3.62703349e+06 -2.54664318e+01  0.00000000e+00 -1.25731416e+16 
 3.19853049e-02  3.62703349e+06 -2.60536809e+01  0.00000000e+00 -1.22897434e+16 
 3.27228774e-02  3.62703349e+06 -2.66544717e+01  0.00000000e+00 -1.20127331e+16 
 3.34774581e-02  3.62703349e+06 -2.72691166e+01  0.00000000e+00 -1.17419665e+16 
 3.42494392e-02  3.62703349e+06 -2.78979351e+01  0.00000000e+00 -1.14773030e+16 
 3.50392221e-02  3.62703349e+06 -2.85412539e+01  0.00000000e+00 -1.12186050e+16 
 3.58472171e-02  3.62703349e+06 -2.91994076e+01  0.00000000e+00 -1.09657380e+16 
 3.66738442e-02  3.62703349e+06 -2.98727380e+01  0.00000000e+00 -1.07185707e+16 
 3.75195331e-02  3.62703349e+06 -3.05615953e+01  0.00000000e+00 -1.04769745e+16 
 3.83847234e-02  3.62703349e+06 -3.12663374e+01  0.00000000e+00 -1.02408239e+16 
 3.92698648e-02  3.62703349e+06 -3.19873307e+01  0.00000000e+00 -1.00099961e+16 
 4.01754173e-02  3.62703349e+06 -3.27249499e+01  0.00000000e+00 -9.78437112e+15 
 4.11018515e-02  3.62703349e+06 -3.34795784e+01  0.00000000e+00 -9.56383175e+15 
 4.20496491e-02  3.62703349e+06 -3.42516085e+01  0.00000000e+00 -9.34826333e+15 
 4.30193027e-02  3.62703349e+06 -3.50414413e+01  0.00000000e+00 -9.13755381e+15 
 4.40113162e-02  3.62703349e+06 -3.58494875e+01  0.00000000e+00 -8.93159368e+15 
 4.50262052e-02  3.62703349e+06 -3.66761670e+01  0.00000000e+00 -8.73027588e+15 
 4.60644974e-02  3.62703349e+06 -3.75219095e+01  0.00000000e+00 -8.53349577e+15 
 4.71267322e-02  3.62703349e+06 -3.83871546e+01  0.00000000e+00 -8.34115109e+15 
 4.82134619e-02  3.62703349e+06 -3.92723520e+01  0.00000000e+00 -8.15314184e+15 
 4.93252513e-02  3.62703349e+06 -4.01779619e+01  0.00000000e+00 -7.96937032e+15 
 5.04626783e-02  3.62703349e+06 -4.11044548e+01  0.00000000e+00 -7.78974100e+15 
 5.16263340e-02  3.62703349e+06 -4.20523124e+01  0.00000000e+00 -7.61416052e+15 
 5.28168234e-02  3.62703349e+06 -4.30220274e+01  0.00000000e+00 -7.44253762e+15 
 5.40347650e-02  3.62703349e+06 -4.40141038e+01  0.00000000e+00 -7.27478309e+15 
 5.52807921e-02  3.62703349e+06 -4.50290571e+01  0.00000000e+00 -7.11080975e+15 
 5.65555523e-02  3.62703349e+06 -4.60674150e+01  0.00000000e+00 -6.95053235e+15 
 5.78597080e-02  3.62703349e+06 -4.71297172e+01  0.00000000e+00 -6.79386761e+15 
 5.91939372e-02  3.62703349e+06 -4.82165157e+01  0.00000000e+00 -6.64073408e+15 
 6.05589334e-02  3.62703349e+06 -4.93283756e+01  0.00000000e+00 -6.49105218e+15 
 6.19554061e-02  3.62703349e+06 -5.04658746e+01  0.00000000e+00 -6.34474410e+15 
 6.33840810e-02  3.62703349e+06 -5.16296040e+01  0.00000000e+00 -6.20173380e+15 
 6.48457008e-02  3.62703349e+06 -5.28201688e+01  0.00000000e+00 -6.06194694e+15 
 6.63410251e-02  3.62703349e+06 -5.40381876e+01  0.00000000e+00 -5.92531088e+15 
 6.78708313e-02  3.62703349e+06 -5.52842936e+01  0.00000000e+00 -5.79175459e+15 
 6.94359143e-02  3.62703349e+06 -5.65591345e+01  0.00000000e+00 -5.66120866e+15 
 7.10370877e-02  3.62703349e+06 -5.78633729e+01  0.00000000e+00 -5.53360522e+15 
 7.26751838e-02  3.62703349e+06 -5.91976867e+01  0.00000000e+00 -5.40887796e+15 
 7.43510539e-02  3.62703349e+06 -6.05627694e+01  0.00000000e+00 -5.28696205e+15 
 7.60655691e-02  3.62703349e+06 -6.19593305e+01  0.00000000e+00 -5.16779412e+15 
 7.78196206e-02  3.62703349e+06 -6.33880959e+01  0.00000000e+00 -5.05131224e+15 
 7.96141200e-02  3.62703349e+06 -6.48498083e+01  0.00000000e+00 -4.93745584e+15 
 8.14500001e-02  3.62703349e+06 -6.63452274e+01  0.00000000e+00 -4.82616577e+15 
 8.33282151e-02  3.62703349e+06 -6.78751305e+01  0.00000000e+00 -4.71738418e+15 
 8.52497412e-02  3.62703349e+06 -6.94403127e+01  0.00000000e+00 -4.61105451e+15 
 8.72155772e-02  3.62703349e+06 -7.10415876e+01  0.00000000e+00 -4.50712152e+15 
 8.92267449e-02  3.62703349e+06 -7.26797874e+01  0.00000000e+00 -4.40553117e+15 
 9.12842895e-02  3.62703349e+06 -7.43557637e+01  0.00000000e+00 -4.30623066e+15 
 9.33892805e-02  3.62703349e+06 -7.60703876e+01  0.00000000e+00 -4.20916838e+15 
 9.55428121e-02  3.62703349e+06 -7.78245503e+01  0.00000000e+00 -4.11429389e+15 
 9.77460036e-02  3.62703349e+06 -7.96191634e+01  0.00000000e+00 -4.02155786e+15 
 1.00000000e-01  3.62703349e+06 -8.14551599e+01  0.00000000e+00 -3.93091209e+15 
 1.02305973e-01  3.62703349e+06 -8.33334939e+01  0.00000000e+00 -3.84230949e+15 
 1.04665121e-01  3.62703349e+06 -8.52551418e+01  0.00000000e+00 -3.75570398e+15 
 1.07078670e-01  3.62703349e+06 -8.72211025e+01  0.00000000e+00 -3.67105055e+15 
 1.09547876e-01  3.62703349e+06 -8.92323976e+01  0.00000000e+00 -3.58830521e+15 
 1.12074020e-01  3.62703349e+06 -9.12900727e+01  0.00000000e+00 -3.50742495e+15 
 1.14658417e-01  3.62703349e+06 -9.33951972e+01  0.00000000e+00 -3.42836773e+15 
 1.17302409e-01  3.62703349e+06 -9.55488653e+01  0.00000000e+00 -3.35109245e+15 
 1.20007371e-01  3.62703349e+06 -9.77521964e+01  0.00000000e+00 -3.27555896e+15 
 1.22774708e-01  3.62703349e+06 -1.00006336e+02  0.00000000e+00 -3.20172799e+15 
 1.25605860e-01  3.62703349e+06 -1.02312455e+02  0.00000000e+00 -3.12956116e+15 
 1.28502297e-01  3.62703349e+06 -1.04671753e+02  0.00000000e+00 -3.05902098e+15 
 1.31465525e-01  3.62703349e+06 -1.07085455e+02  0.00000000e+00 -2.99007077e+15 
 1.34497085e-01  3.62703349e+06 -1.09554817e+02  0.00000000e+00 -2.92267469e+15 
 1.37598551e-01  3.62703349e+06 -1.12081122e+02  0.00000000e+00 -2.85679772e+15 
 1.40771537e-01  3.62703349e+06 -1.14665682e+02  0.00000000e+00 -2.79240561e+15 
 1.44017690e-01  3.62703349e+06 -1.17309842e+02  0.00000000e+00 -2.72946490e+15 
 1.47338699e-01  3.62703349e+06 -1.20014975e+02  0.00000000e+00 -2.66794288e+15 
 1.50736290e-01  3.62703349e+06 -1.22782489e+02  0.00000000e+00 -2.60780755e+15 
 1.54212228e-01  3.62703349e+06 -1.25613820e+02  0.00000000e+00 -2.54902768e+15 
 1.57768320e-01  3.62703349e+06 -1.28510441e+02  0.00000000e+00 -2.49157270e+15 
 1.61406415e-01  3.62703349e+06 -1.31473857e+02  0.00000000e+00 -2.43541275e+15 
 1.65128404e-01  3.62703349e+06 -1.34505609e+02  0.00000000e+00 -2.38051865e+15 
 1.68936220e-01  3.62703349e+06 -1.37607272e+02  0.00000000e+00 -2.32686186e+15 
 1.72831844e-01  3.62703349e+06 -1.40780459e+02  0.00000000e+00 -2.27441449e+15 
 1.76817299e-01  3.62703349e+06 -1.44026819e+02  0.00000000e+00 -2.22314929e+15 
 1.80894658e-01  3.62703349e+06 -1.47348039e+02  0.00000000e+00 -2.17303960e+15 
 1.85066040e-01  3.62703349e+06 -1.50745845e+02  0.00000000e+00 -2.12405938e+15 
 1.89333613e-01  3.62703349e+06 -1.54222004e+02  0.00000000e+00 -2.07618317e+15 
 1.93699595e-01  3.62703349e+06 -1.57778322e+02  0.00000000e+00 -2.02938610e+15 
 1.98166255e-01  3.62703349e+06 -1.61416648e+02  0.00000000e+00 -1.98364382e+15 
 2.02735916e-01  3.62703349e+06 -1.65138873e+02  0.00000000e+00 -1.93893258e+15 
 2.07410951e-01  3.62703349e+06 -1.68946931e+02  0.00000000e+00 -1.89522913e+15 
 2.12193792e-01  3.62703349e+06 -1.72842802e+02  0.00000000e+00 -1.85251075e+15 
 2.17086923e-01  3.62703348e+06 -1.76828511e+02  0.00000000e+00 -1.81075524e+15 
 2.22092889e-01  3.62703348e+06 -1.80906129e+02  0.00000000e+00 -1.76994090e+15 
 2.27214291e-01  3.62703348e+06 -1.85077777e+02  0.00000000e+00 -1.73004652e+15 
 2.32453791e-01  3.62703348e+06 -1.89345621e+02  0.00000000e+00 -1.69105135e+15 
 2.37814113e-01  3.62703348e+06 -1.93711880e+02  0.00000000e+00 -1.65293514e+15 
 2.43298042e-01  3.62703348e+06 -1.98178825e+02  0.00000000e+00 -1.61567806e+15 
 2.48908429e-01  3.62703348e+06 -2.02748776e+02  0.00000000e+00 -1.57926076e+15 
 2.54648190e-01  3.62703348e+06 -2.07424109e+02  0.00000000e+00 -1.54366430e+15 
 2.60520309e-01  3.62703348e+06 -2.12207254e+02  0.00000000e+00 -1.50887018e+15 
 2.66527837e-01  3.62703348e+06 -2.17100697e+02  0.00000000e+00 -1.47486033e+15 
 2.72673897e-01  3.62703348e+06 -2.22106982e+02  0.00000000e+00 -1.44161705e+15 
 2.78961683e-01  3.62703348e+06 -2.27228710e+02  0.00000000e+00 -1.40912308e+15 
 2.85394464e-01  3.62703348e+06 -2.32468544e+02  0.00000000e+00 -1.37736152e+15 
 2.91975583e-01  3.62703348e+06 -2.37829207e+02  0.00000000e+00 -1.34631587e+15 
 2.98708461e-01  3.62703348e+06 -2.43313486e+02  0.00000000e+00 -1.31596999e+15 
 3.05596598e-01  3.62703348e+06 -2.48924231e+02  0.00000000e+00 -1.28630810e+15 
 3.12643573e-01  3.62703348e+06 -2.54664359e+02  0.00000000e+00 -1.25731479e+15 
 3.19853049e-01  3.62703347e+06 -2.60536852e+02  0.00000000e+00 -1.22897498e+15 
 3.27228774e-01  3.62703347e+06 -2.66544770e+02  0.00000000e+00 -1.20127396e+15 
 3.34774581e-01  3.62703347e+06 -2.72691222e+02  0.00000000e+00 -1.17419732e+15 
 3.42494392e-01  3.62703347e+06 -2.78979411e+02  0.00000000e+00 -1.14773098e+15 
 3.50392221e-01  3.62703347e+06 -2.85412603e+02  0.00000000e+00 -1.12186120e+15 
 3.58472171e-01  3.62703347e+06 -2.91994143e+02  0.00000000e+00 -1.09657452e+15 
 3.66738442e-01  3.62703347e+06 -2.98727452e+02  0.00000000e+00 -1.07185780e+15 
 3.75195331e-01  3.62703347e+06 -3.05616030e+02  0.00000000e+00 -1.04769820e+15 
 3.83847234e-01  3.62703347e+06 -3.12663453e+02  0.00000000e+00 -1.02408316e+15 
 3.92698648e-01  3.62703347e+06 -3.19873392e+02  0.00000000e+00 -1.00100039e+15 
 4.01754173e-01  3.62703346e+06 -3.27249589e+02  0.00000000e+00 -9.78437916e+14 
 4.11018515e-01  3.62703346e+06 -3.34795881e+02  0.00000000e+00 -9.56383997e+14 
 4.20496491e-01  3.62703346e+06 -3.42516188e+02  0.00000000e+00 -9.34827174e+14 
 4.30193027e-01  3.62703346e+06 -3.50414523e+02  0.00000000e+00 -9.13756242e+14 
 4.40113162e-01  3.62703346e+06 -3.58494993e+02  0.00000000e+00 -8.93160248e+14 
 4.50262052e-01  3.62703346e+06 -3.66761796e+02  0.00000000e+00 -8.73028488e+14 
 4.60644974e-01  3.62703345e+06 -3.75219229e+02  0.00000000e+00 -8.53350499e+14 
 4.71267322e-01  3.62703345e+06 -3.83871690e+02  0.00000000e+00 -8.34116052e+14 
 4.82134619e-01  3.62703345e+06 -3.92723674e+02  0.00000000e+00 -8.15315149e+14 
 4.93252513e-01  3.62703345e+06 -4.01779783e+02  0.00000000e+00 -7.96938019e+14 
 5.04626783e-01  3.62703345e+06 -4.11044714e+02  0.00000000e+00 -7.78975110e+14 
 5.16263340e-01  3.62703344e+06 -4.20523302e+02  0.00000000e+00 -7.61417085e+14 
 5.28168234e-01  3.62703344e+06 -4.30220475e+02  0.00000000e+00 -7.44254819e+14 
 5.40347650e-01  3.62703344e+06 -4.40141252e+02  0.00000000e+00 -7.27479390e+14 
 5.52807921e-01  3.62703344e+06 -4.50290811e+02  0.00000000e+00 -7.11082081e+14 
 5.65555523e-01  3.62703343e+06 -4.60674406e+02  0.00000000e+00 -6.95054367e+14 
 5.78597080e-01  3.62703343e+06 -4.71297441e+02  0.00000000e+00 -6.79387918e+14 
 5.91939372e-01  3.62703343e+06 -4.82165445e+02  0.00000000e+00 -6.64074592e+14 
 6.05589334e-01  3.62703343e+06 -4.93284063e+02  0.00000000e+00 -6.49106429e+14 
 6.19554061e-01  3.62703342e+06 -5.04659075e+02  0.00000000e+00 -6.34475649e+14 
 6.33840810e-01  3.62703342e+06 -5.16296392e+02  0.00000000e+00 -6.20174648e+14 
 6.48457008e-01  3.62703342e+06 -5.28202063e+02  0.00000000e+00 -6.06195992e+14 
 6.63410251e-01  3.62703341e+06 -5.40382277e+02  0.00000000e+00 -5.92532415e+14 
 6.78708313e-01  3.62703341e+06 -5.52843365e+02  0.00000000e+00 -5.79176817e+14 
 6.94359143e-01  3.62703341e+06 -5.65591804e+02  0.00000000e+00 -5.66122255e+14 
 7.10370877e-01  3.62703340e+06 -5.78634233e+02  0.00000000e+00 -5.53361943e+14 
 7.26751838e-01  3.62703340e+06 -5.91977399e+02  0.00000000e+00 -5.40889250e+14 
 7.43510539e-01  3.62703339e+06 -6.05628263e+02  0.00000000e+00 -5.28697693e+14 
 7.60655691e-01  3.62703339e+06 -6.19593913e+02  0.00000000e+00 -5.16780934e+14 
 7.78196206e-01  3.62703338e+06 -6.33881609e+02  0.00000000e+00 -5.05132780e+14 
 7.96141200e-01  3.62703338e+06 -6.48498778e+02  0.00000000e+00 -4.93747177e+14 
 8.14500001e-01  3.62703337e+06 -6.63453017e+02  0.00000000e+00 -4.82618207e+14 
 8.33282151e-01  3.62703337e+06 -6.78752082e+02  0.00000000e+00 -4.71740085e+14 
 8.52497412e-01  3.62703336e+06 -6.94403969e+02  0.00000000e+00 -4.61107157e+14 
 8.72155772e-01  3.62703335e+06 -7.10416776e+02  0.00000000e+00 -4.50713897e+14 
 8.92267449e-01  3.62703335e+06 -7.26798855e+02  0.00000000e+00 -4.40554902e+14 
 9.12842895e-01  3.62703334e+06 -7.43558685e+02  0.00000000e+00 -4.30624892e+14 
 9.33892805e-01  3.62703333e+06 -7.60704996e+02  0.00000000e+00 -4.20918707e+14 
 9.55428121e-01  3.62703333e+06 -7.78246711e+02  0.00000000e+00 -4.11431300e+14 
 9.77460036e-01  3.62703332e+06 -7.96192925e+02  0.00000000e+00 -4.02157741e+14 
 1.00000000e+00  3.62703331e+06 -8.14552979e+02  0.00000000e+00 -3.93093210e+14 
 1.02305973e+00  3.62703330e+06 -8.33336414e+02  0.00000000e+00 -3.84232995e+14 
 1.04665121e+00  3.62703329e+06 -8.52552987e+02  0.00000000e+00 -3.75572492e+14 
 1.07078670e+00  3.62703328e+06 -8.72212701e+02  0.00000000e+00 -3.67107197e+14 
 1.09547876e+00  3.62703327e+06 -8.92325769e+02  0.00000000e+00 -3.58832713e+14 
 1.12074020e+00  3.62703326e+06 -9.12902665e+02  0.00000000e+00 -3.50744737e+14 
 1.14658417e+00  3.62703325e+06 -9.33954057e+02  0.00000000e+00 -3.42839067e+14 
 1.17302409e+00  3.62703324e+06 -9.55490881e+02  0.00000000e+00 -3.35111592e+14 
 1.20007371e+00  3.62703323e+06 -9.77524346e+02  0.00000000e+00 -3.27558297e+14 
 1.22774708e+00  3.62703322e+06 -1.00006592e+03  0.00000000e+00 -3.20175255e+14 
 1.25605860e+00  3.62703320e+06 -1.02312726e+03  0.00000000e+00 -3.12958629e+14 
 1.28502297e+00  3.62703319e+06 -1.04672042e+03  0.00000000e+00 -3.05904669e+14 
 1.31465525e+00  3.62703318e+06 -1.07085767e+03  0.00000000e+00 -2.99009707e+14 
 1.34497085e+00  3.62703316e+06 -1.09555153e+03  0.00000000e+00 -2.92268495e+14 
 1.37598551e+00  3.62703315e+06 -1.12081479e+03  0.00000000e+00 -2.85680898e+14 
 1.40771537e+00  3.62703313e+06 -1.14666064e+03  0.00000000e+00 -2.79243378e+14 
 1.44017690e+00  3.62703311e+06 -1.17310250e+03  0.00000000e+00 -2.72949372e+14 
 1.47338699e+00  3.62703310e+06 -1.20015414e+03  0.00000000e+00 -2.66797235e+14 
 1.50736290e+00  3.62703308e+06 -1.22782959e+03  0.00000000e+00 -2.60783771e+14 
 1.54212228e+00  3.62703306e+06 -1.25614325e+03  0.00000000e+00 -2.54905853e+14 
 1.57768320e+00  3.62703304e+06 -1.28510978e+03  0.00000000e+00 -2.49160426e+14 
 1.61406415e+00  3.62703302e+06 -1.31474433e+03  0.00000000e+00 -2.43544504e+14 
 1.65128404e+00  3.62703299e+06 -1.34506231e+03  0.00000000e+00 -2.38055169e+14 
 1.68936220e+00  3.62703297e+06 -1.37607932e+03  0.00000000e+00 -2.32689566e+14 
 1.72831844e+00  3.62703295e+06 -1.40781167e+03  0.00000000e+00 -2.27444907e+14 
 1.76817299e+00  3.62703292e+06 -1.44027577e+03  0.00000000e+00 -2.22318466e+14 
 1.80894658e+00  3.62703289e+06 -1.47348850e+03  0.00000000e+00 -2.17307579e+14 
 1.85066040e+00  3.62703287e+06 -1.50746714e+03  0.00000000e+00 -2.12409640e+14 
 1.89333613e+00  3.62703284e+06 -1.54222935e+03  0.00000000e+00 -2.07622105e+14 
 1.93699595e+00  3.62703281e+06 -1.57779320e+03  0.00000000e+00 -2.02942485e+14 
 1.98166255e+00  3.62703277e+06 -1.61417717e+03  0.00000000e+00 -1.98368347e+14 
 2.02735916e+00  3.62703274e+06 -1.65140014e+03  0.00000000e+00 -1.93897314e+14 
 2.07410951e+00  3.62703271e+06 -1.68948158e+03  0.00000000e+00 -1.89527062e+14 
 2.12193792e+00  3.62703267e+06 -1.72844116e+03  0.00000000e+00 -1.85255320e+14 
 2.17086923e+00  3.62703263e+06 -1.76829918e+03  0.00000000e+00 -1.81079868e+14 
 2.22092889e+00  3.62703259e+06 -1.80907636e+03  0.00000000e+00 -1.76997526e+14 
 2.27214291e+00  3.62703255e+06 -1.85079388e+03  0.00000000e+00 -1.73008212e+14 
 2.32453791e+00  3.62703250e+06 -1.89347341e+03  0.00000000e+00 -1.69108823e+14 
 2.37814113e+00  3.62703246e+06 -1.93713727e+03  0.00000000e+00 -1.65297330e+14 
 2.43298042e+00  3.62703241e+06 -1.98180800e+03  0.00000000e+00 -1.61571754e+14 
 2.48908429e+00  3.62703236e+06 -2.02750895e+03  0.00000000e+00 -1.57930156e+14 
 2.54648190e+00  3.62703231e+06 -2.07426370e+03  0.00000000e+00 -1.54370645e+14 
 2.60520309e+00  3.62703225e+06 -2.12209679e+03  0.00000000e+00 -1.50891371e+14 
