 frequency       v(Adm_dB)       v(Adm_arg)      v(Acm_dB)       v(Acm_arg)      v(CMRR_dB)      v(CMRR_arg)    
 1.00000000e-02  7.66113746e+01 -8.44480197e-03 -8.88413761e+01  1.02891992e+00  1.65452751e+02 -1.03736473e+00 
 1.02305973e-02  7.66113746e+01 -8.63953682e-03 -8.88413108e+01  1.05264126e+00  1.65452685e+02 -1.06128080e+00 
 1.04665121e-02  7.66113746e+01 -8.83876220e-03 -8.88412423e+01  1.07690922e+00  1.65452617e+02 -1.08574798e+00 
 1.07078670e-02  7.66113746e+01 -9.04258166e-03 -8.88411707e+01  1.10173640e+00  1.65452545e+02 -1.11077898e+00 
 1.09547876e-02  7.66113746e+01 -9.25110115e-03 -8.88410958e+01  1.12713567e+00  1.65452470e+02 -1.13638677e+00 
 1.12074020e-02  7.66113746e+01 -9.46442904e-03 -8.88410174e+01  1.15312016e+00  1.65452392e+02 -1.16258459e+00 
 1.14658417e-02  7.66113746e+01 -9.68267621e-03 -8.88409353e+01  1.17970337e+00  1.65452310e+02 -1.18938604e+00 
 1.17302409e-02  7.66113746e+01 -9.90595611e-03 -8.88408494e+01  1.20689905e+00  1.65452224e+02 -1.21680501e+00 
 1.20007371e-02  7.66113745e+01 -1.01343848e-02 -8.88407594e+01  1.23472129e+00  1.65452134e+02 -1.24485567e+00 
 1.22774708e-02  7.66113745e+01 -1.03680809e-02 -8.88406653e+01  1.26318450e+00  1.65452040e+02 -1.27355258e+00 
 1.25605860e-02  7.66113745e+01 -1.06071661e-02 -8.88405669e+01  1.29230343e+00  1.65451941e+02 -1.30291059e+00 
 1.28502297e-02  7.66113745e+01 -1.08517645e-02 -8.88404637e+01  1.32209312e+00  1.65451838e+02 -1.33294489e+00 
 1.31465525e-02  7.66113745e+01 -1.11020032e-02 -8.88403558e+01  1.35256903e+00  1.65451730e+02 -1.36367103e+00 
 1.34497085e-02  7.66113745e+01 -1.13580124e-02 -8.88402429e+01  1.38374690e+00  1.65451617e+02 -1.39510491e+00 
 1.37598551e-02  7.66113745e+01 -1.16199251e-02 -8.88401247e+01  1.41564289e+00  1.65451499e+02 -1.42726281e+00 
 1.40771537e-02  7.66113745e+01 -1.18878774e-02 -8.88400009e+01  1.44827347e+00  1.65451375e+02 -1.46016135e+00 
 1.44017690e-02  7.66113745e+01 -1.21620086e-02 -8.88398715e+01  1.48165554e+00  1.65451246e+02 -1.49381755e+00 
 1.47338699e-02  7.66113745e+01 -1.24424613e-02 -8.88397359e+01  1.51580633e+00  1.65451110e+02 -1.52824879e+00 
 1.50736290e-02  7.66113745e+01 -1.27293811e-02 -8.88395941e+01  1.55074354e+00  1.65450969e+02 -1.56347292e+00 
 1.54212228e-02  7.66113745e+01 -1.30229171e-02 -8.88394457e+01  1.58648518e+00  1.65450820e+02 -1.59950810e+00 
 1.57768320e-02  7.66113744e+01 -1.33232221e-02 -8.88392904e+01  1.62304975e+00  1.65450665e+02 -1.63637297e+00 
 1.61406415e-02  7.66113744e+01 -1.36304520e-02 -8.88391277e+01  1.66045610e+00  1.65450502e+02 -1.67408656e+00 
 1.65128404e-02  7.66113744e+01 -1.39447665e-02 -8.88389575e+01  1.69872356e+00  1.65450332e+02 -1.71266832e+00 
 1.68936220e-02  7.66113744e+01 -1.42663290e-02 -8.88387793e+01  1.73787189e+00  1.65450154e+02 -1.75213822e+00 
 1.72831844e-02  7.66113744e+01 -1.45953067e-02 -8.88385929e+01  1.77792131e+00  1.65449967e+02 -1.79251662e+00 
 1.76817299e-02  7.66113744e+01 -1.49318705e-02 -8.88383978e+01  1.81889245e+00  1.65449772e+02 -1.83382432e+00 
 1.80894658e-02  7.66113744e+01 -1.52761954e-02 -8.88381936e+01  1.86080643e+00  1.65449568e+02 -1.87608263e+00 
 1.85066040e-02  7.66113744e+01 -1.56284603e-02 -8.88379799e+01  1.90368488e+00  1.65449354e+02 -1.91931334e+00 
 1.89333613e-02  7.66113743e+01 -1.59888484e-02 -8.88377562e+01  1.94754990e+00  1.65449131e+02 -1.96353875e+00 
 1.93699595e-02  7.66113743e+01 -1.63575469e-02 -8.88375221e+01  1.99242406e+00  1.65448896e+02 -2.00878161e+00 
 1.98166255e-02  7.66113743e+01 -1.67347475e-02 -8.88372771e+01  2.03833048e+00  1.65448651e+02 -2.05506523e+00 
 2.02735916e-02  7.66113743e+01 -1.71206462e-02 -8.88370207e+01  2.08529277e+00  1.65448395e+02 -2.10241341e+00 
 2.07410951e-02  7.66113743e+01 -1.75154437e-02 -8.88367523e+01  2.13333509e+00  1.65448127e+02 -2.15085053e+00 
 2.12193792e-02  7.66113743e+01 -1.79193450e-02 -8.88364714e+01  2.18248215e+00  1.65447846e+02 -2.20040149e+00 
 2.17086923e-02  7.66113742e+01 -1.83325603e-02 -8.88361775e+01  2.23275922e+00  1.65447552e+02 -2.25109178e+00 
 2.22092889e-02  7.66113742e+01 -1.87553041e-02 -8.88358698e+01  2.28419205e+00  1.65447244e+02 -2.30294736e+00 
 2.27214291e-02  7.66113742e+01 -1.91877963e-02 -8.88355478e+01  2.33680713e+00  1.65446922e+02 -2.35599493e+00 
 2.32453791e-02  7.66113742e+01 -1.96302617e-02 -8.88352108e+01  2.39063141e+00  1.65446585e+02 -2.41026167e+00 
 2.37814113e-02  7.66113741e+01 -2.00829302e-02 -8.88348581e+01  2.44569248e+00  1.65446232e+02 -2.46577541e+00 
 2.43298042e-02  7.66113741e+01 -2.05460371e-02 -8.88344890e+01  2.50201858e+00  1.65445863e+02 -2.52256462e+00 
 2.48908429e-02  7.66113741e+01 -2.10198231e-02 -8.88341027e+01  2.55963853e+00  1.65445477e+02 -2.58065835e+00 
 2.54648190e-02  7.66113741e+01 -2.15045345e-02 -8.88336986e+01  2.61858183e+00  1.65445073e+02 -2.64008637e+00 
 2.60520309e-02  7.66113740e+01 -2.20004232e-02 -8.88332754e+01  2.67887856e+00  1.65444649e+02 -2.70087898e+00 
 2.66527837e-02  7.66113740e+01 -2.25077470e-02 -8.88328326e+01  2.74055959e+00  1.65444207e+02 -2.76306734e+00 
 2.72673897e-02  7.66113740e+01 -2.30267695e-02 -8.88323693e+01  2.80365640e+00  1.65443743e+02 -2.82668317e+00 
 2.78961683e-02  7.66113739e+01 -2.35577605e-02 -8.88318843e+01  2.86820113e+00  1.65443258e+02 -2.89175889e+00 
 2.85394464e-02  7.66113739e+01 -2.41009961e-02 -8.88313768e+01  2.93422669e+00  1.65442751e+02 -2.95832768e+00 
 2.91975583e-02  7.66113739e+01 -2.46567585e-02 -8.88308457e+01  3.00176674e+00  1.65442220e+02 -3.02642350e+00 
 2.98708461e-02  7.66113738e+01 -2.52253366e-02 -8.88302899e+01  3.07085558e+00  1.65441664e+02 -3.09608092e+00 
 3.05596598e-02  7.66113738e+01 -2.58070259e-02 -8.88297082e+01  3.14152832e+00  1.65441082e+02 -3.16733535e+00 
 3.12643573e-02  7.66113738e+01 -2.64021289e-02 -8.88290995e+01  3.21382088e+00  1.65440473e+02 -3.24022301e+00 
 3.19853049e-02  7.66113737e+01 -2.70109548e-02 -8.88284624e+01  3.28776983e+00  1.65439836e+02 -3.31478078e+00 
 3.27228774e-02  7.66113737e+01 -2.76338200e-02 -8.88277957e+01  3.36341269e+00  1.65439169e+02 -3.39104651e+00 
 3.34774581e-02  7.66113736e+01 -2.82710483e-02 -8.88270980e+01  3.44078768e+00  1.65438472e+02 -3.46905873e+00 
 3.42494392e-02  7.66113736e+01 -2.89229710e-02 -8.88263680e+01  3.51993392e+00  1.65437742e+02 -3.54885690e+00 
 3.50392221e-02  7.66113735e+01 -2.95899267e-02 -8.88256040e+01  3.60089133e+00  1.65436977e+02 -3.63048125e+00 
 3.58472171e-02  7.66113735e+01 -3.02722623e-02 -8.88248044e+01  3.68370066e+00  1.65436178e+02 -3.71397292e+00 
 3.66738442e-02  7.66113734e+01 -3.09703324e-02 -8.88239679e+01  3.76840365e+00  1.65435341e+02 -3.79937398e+00 
 3.75195331e-02  7.66113734e+01 -3.16844997e-02 -8.88230924e+01  3.85504275e+00  1.65434466e+02 -3.88672725e+00 
 3.83847234e-02  7.66113733e+01 -3.24151356e-02 -8.88221762e+01  3.94366144e+00  1.65433549e+02 -3.97607657e+00 
 3.92698648e-02  7.66113732e+01 -3.31626197e-02 -8.88212175e+01  4.03430405e+00  1.65432591e+02 -4.06746667e+00 
 4.01754173e-02  7.66113732e+01 -3.39273406e-02 -8.88202142e+01  4.12701592e+00  1.65431587e+02 -4.16094326e+00 
 4.11018515e-02  7.66113731e+01 -3.47096957e-02 -8.88191645e+01  4.22184331e+00  1.65430538e+02 -4.25655301e+00 
 4.20496491e-02  7.66113730e+01 -3.55100917e-02 -8.88180660e+01  4.31883336e+00  1.65429439e+02 -4.35434346e+00 
 4.30193027e-02  7.66113729e+01 -3.63289446e-02 -8.88169167e+01  4.41803435e+00  1.65428290e+02 -4.45436330e+00 
 4.40113162e-02  7.66113729e+01 -3.71666800e-02 -8.88157140e+01  4.51949536e+00  1.65427087e+02 -4.55666204e+00 
 4.50262052e-02  7.66113728e+01 -3.80237334e-02 -8.88144555e+01  4.62326661e+00  1.65425828e+02 -4.66129035e+00 
 4.60644974e-02  7.66113727e+01 -3.89005501e-02 -8.88131387e+01  4.72939934e+00  1.65424511e+02 -4.76829989e+00 
 4.71267322e-02  7.66113726e+01 -3.97975860e-02 -8.88117610e+01  4.83794579e+00  1.65423134e+02 -4.87774338e+00 
 4.82134619e-02  7.66113725e+01 -4.07153073e-02 -8.88103195e+01  4.94895928e+00  1.65421692e+02 -4.98967458e+00 
 4.93252513e-02  7.66113724e+01 -4.16541909e-02 -8.88088112e+01  5.06249409e+00  1.65420184e+02 -5.10414828e+00 
 5.04626783e-02  7.66113723e+01 -4.26147250e-02 -8.88070450e+01  5.17849324e+00  1.65418417e+02 -5.22110796e+00 
 5.16263340e-02  7.66113722e+01 -4.35974086e-02 -8.88053941e+01  5.29723573e+00  1.65416766e+02 -5.34083314e+00 
 5.28168234e-02  7.66113721e+01 -4.46027527e-02 -8.88036666e+01  5.41866904e+00  1.65415039e+02 -5.46327180e+00 
 5.40347650e-02  7.66113719e+01 -4.56312797e-02 -8.88018594e+01  5.54285202e+00  1.65413231e+02 -5.58848330e+00 
 5.52807921e-02  7.66113718e+01 -4.66835242e-02 -8.87999687e+01  5.66984461e+00  1.65411340e+02 -5.71652813e+00 
 5.65555523e-02  7.66113717e+01 -4.77600332e-02 -8.87979906e+01  5.79970773e+00  1.65409362e+02 -5.84746777e+00 
 5.78597080e-02  7.66113715e+01 -4.88613661e-02 -8.87959212e+01  5.93250351e+00  1.65407293e+02 -5.98136487e+00 
 5.91939372e-02  7.66113714e+01 -4.99880955e-02 -8.87937563e+01  6.06829524e+00  1.65405128e+02 -6.11828334e+00 
 6.05589334e-02  7.66113712e+01 -5.11408068e-02 -8.87914916e+01  6.20714755e+00  1.65402863e+02 -6.25828836e+00 
 6.19554061e-02  7.66113711e+01 -5.23200994e-02 -8.87891225e+01  6.34912598e+00  1.65400494e+02 -6.40144608e+00 
 6.33840810e-02  7.66113709e+01 -5.35265861e-02 -8.87866443e+01  6.49429736e+00  1.65398015e+02 -6.54782395e+00 
 6.48457008e-02  7.66113707e+01 -5.47608939e-02 -8.87840520e+01  6.64272963e+00  1.65395423e+02 -6.69749053e+00 
 6.63410251e-02  7.66113705e+01 -5.60236646e-02 -8.87813403e+01  6.79449196e+00  1.65392711e+02 -6.85051562e+00 
 6.78708313e-02  7.66113703e+01 -5.73155543e-02 -8.87785041e+01  6.94965479e+00  1.65389874e+02 -7.00697034e+00 
 6.94359143e-02  7.66113701e+01 -5.86372346e-02 -8.87755374e+01  7.10828958e+00  1.65386908e+02 -7.16692681e+00 
 7.10370877e-02  7.66113699e+01 -5.99893924e-02 -8.87724346e+01  7.27046906e+00  1.65383805e+02 -7.33045845e+00 
 7.26751838e-02  7.66113697e+01 -6.13727305e-02 -8.87691893e+01  7.43626706e+00  1.65380559e+02 -7.49763980e+00 
 7.43510539e-02  7.66113695e+01 -6.27879680e-02 -8.87657953e+01  7.60575877e+00  1.65377165e+02 -7.66854674e+00 
 7.60655691e-02  7.66113692e+01 -6.42358404e-02 -8.87622457e+01  7.77902023e+00  1.65373615e+02 -7.84325607e+00 
 7.78196206e-02  7.66113690e+01 -6.57171002e-02 -8.87585338e+01  7.95612904e+00  1.65369903e+02 -8.02184614e+00 
 7.96141200e-02  7.66113687e+01 -6.72325174e-02 -8.87546519e+01  8.13716344e+00  1.65366021e+02 -8.20439595e+00 
 8.14500001e-02  7.66113684e+01 -6.87828796e-02 -8.87505928e+01  8.32220324e+00  1.65361961e+02 -8.39098612e+00 
 8.33282151e-02  7.66113681e+01 -7.03689927e-02 -8.87463483e+01  8.51132907e+00  1.65357716e+02 -8.58169806e+00 
 8.52497412e-02  7.66113678e+01 -7.19916809e-02 -8.87419102e+01  8.70462271e+00  1.65353278e+02 -8.77661439e+00 
 8.72155772e-02  7.66113675e+01 -7.36517879e-02 -8.87372701e+01  8.90216713e+00  1.65348638e+02 -8.97581892e+00 
 8.92267449e-02  7.66113672e+01 -7.53501763e-02 -8.87324186e+01  9.10404597e+00  1.65343786e+02 -9.17939615e+00 
 9.12842895e-02  7.66113668e+01 -7.70877289e-02 -8.87273468e+01  9.31034440e+00  1.65338714e+02 -9.38743212e+00 
 9.33892805e-02  7.66113665e+01 -7.88653489e-02 -8.87220446e+01  9.52114794e+00  1.65333411e+02 -9.60001329e+00 
 9.55428121e-02  7.66113661e+01 -8.06839602e-02 -8.87165019e+01  9.73654333e+00  1.65327868e+02 -9.81722729e+00 
 9.77460036e-02  7.66113657e+01 -8.25445079e-02 -8.87107083e+01  9.95661834e+00  1.65322074e+02 -1.00391629e+01 
 1.00000000e-01  7.66113653e+01 -8.44479593e-02 -8.87046527e+01  1.01814612e+01  1.65316018e+02 -1.02659091e+01 
 1.02305973e-01  7.66113648e+01 -8.63953035e-02 -8.86983235e+01  1.04111610e+01  1.65309688e+02 -1.04975563e+01 
 1.04665121e-01  7.66113644e+01 -8.83875527e-02 -8.86917090e+01  1.06458076e+01  1.65303073e+02 -1.07341951e+01 
 1.07078670e-01  7.66113639e+01 -9.04257425e-02 -8.86847967e+01  1.08854916e+01  1.65296161e+02 -1.09759174e+01 
 1.09547876e-01  7.66113634e+01 -9.25109321e-02 -8.86775736e+01  1.11303037e+01  1.65288937e+02 -1.12228146e+01 
 1.12074020e-01  7.66113628e+01 -9.46442054e-02 -8.86700266e+01  1.13803356e+01  1.65281389e+02 -1.14749798e+01 
 1.14658417e-01  7.66113623e+01 -9.68266711e-02 -8.86621413e+01  1.16356789e+01  1.65273504e+02 -1.17325056e+01 
 1.17302409e-01  7.66113617e+01 -9.90594636e-02 -8.86539036e+01  1.18964261e+01  1.65265265e+02 -1.19954855e+01 
 1.20007371e-01  7.66113611e+01 -1.01343743e-01 -8.86452982e+01  1.21626688e+01  1.65256659e+02 -1.22640125e+01 
 1.22774708e-01  7.66113605e+01 -1.03680698e-01 -8.86363097e+01  1.24345000e+01  1.65247670e+02 -1.25381807e+01 
 1.25605860e-01  7.66113598e+01 -1.06071541e-01 -8.86269217e+01  1.27120115e+01  1.65238281e+02 -1.28180830e+01 
 1.28502297e-01  7.66113591e+01 -1.08517516e-01 -8.86171174e+01  1.29952957e+01  1.65228476e+02 -1.31038132e+01 
 1.31465525e-01  7.66113584e+01 -1.11019895e-01 -8.86068793e+01  1.32844442e+01  1.65218238e+02 -1.33954641e+01 
 1.34497085e-01  7.66113576e+01 -1.13579977e-01 -8.85961896e+01  1.35795485e+01  1.65207547e+02 -1.36931285e+01 
 1.37598551e-01  7.66113568e+01 -1.16199094e-01 -8.85850291e+01  1.38806991e+01  1.65196386e+02 -1.39968981e+01 
 1.40771537e-01  7.66113560e+01 -1.18878606e-01 -8.85733786e+01  1.41879857e+01  1.65184735e+02 -1.43068643e+01 
 1.44017690e-01  7.66113551e+01 -1.21619906e-01 -8.85612180e+01  1.45014976e+01  1.65172573e+02 -1.46231175e+01 
 1.47338699e-01  7.66113542e+01 -1.24424420e-01 -8.85485266e+01  1.48213226e+01  1.65159881e+02 -1.49457471e+01 
 1.50736290e-01  7.66113533e+01 -1.27293604e-01 -8.85352826e+01  1.51475468e+01  1.65146636e+02 -1.52748404e+01 
 1.54212228e-01  7.66113523e+01 -1.30228950e-01 -8.85214639e+01  1.54802553e+01  1.65132816e+02 -1.56104843e+01 
 1.57768320e-01  7.66113512e+01 -1.33231984e-01 -8.85070474e+01  1.58195309e+01  1.65118399e+02 -1.59527629e+01 
 1.61406415e-01  7.66113501e+01 -1.36304266e-01 -8.84920095e+01  1.61654549e+01  1.65103360e+02 -1.63017592e+01 
 1.65128404e-01  7.66113490e+01 -1.39447393e-01 -8.84763257e+01  1.65181062e+01  1.65087675e+02 -1.66575536e+01 
 1.68936220e-01  7.66113478e+01 -1.42662999e-01 -8.84599707e+01  1.68775609e+01  1.65071318e+02 -1.70202239e+01 
 1.72831844e-01  7.66113465e+01 -1.45952755e-01 -8.84430912e+01  1.72442466e+01  1.65054438e+02 -1.73901993e+01 
 1.76817299e-01  7.66113452e+01 -1.49318371e-01 -8.84253140e+01  1.76175322e+01  1.65036659e+02 -1.77668505e+01 
 1.80894658e-01  7.66113439e+01 -1.52761597e-01 -8.84067852e+01  1.79978325e+01  1.65018129e+02 -1.81505941e+01 
 1.85066040e-01  7.66113424e+01 -1.56284220e-01 -8.83874762e+01  1.83852109e+01  1.64998819e+02 -1.85414951e+01 
 1.89333613e-01  7.66113409e+01 -1.59888074e-01 -8.83673581e+01  1.87797268e+01  1.64978699e+02 -1.89396149e+01 
 1.93699595e-01  7.66113393e+01 -1.63575030e-01 -8.83464006e+01  1.91814356e+01  1.64957740e+02 -1.93450106e+01 
 1.98166255e-01  7.66113377e+01 -1.67347005e-01 -8.83245733e+01  1.95903879e+01  1.64935911e+02 -1.97577349e+01 
 2.02735916e-01  7.66113360e+01 -1.71205959e-01 -8.83018447e+01  2.00066293e+01  1.64913181e+02 -2.01778353e+01 
 2.07410951e-01  7.66113342e+01 -1.75153898e-01 -8.82780159e+01  2.04297912e+01  1.64889350e+02 -2.06049451e+01 
 2.12193792e-01  7.66113323e+01 -1.79192873e-01 -8.82533880e+01  2.08607197e+01  1.64864720e+02 -2.10399125e+01 
 2.17086923e-01  7.66113303e+01 -1.83324985e-01 -8.82277599e+01  2.12990409e+01  1.64839090e+02 -2.14823659e+01 
 2.22092889e-01  7.66113282e+01 -1.87552380e-01 -8.82010972e+01  2.17447776e+01  1.64812425e+02 -2.19323300e+01 
 2.27214291e-01  7.66113260e+01 -1.91877255e-01 -8.81733649e+01  2.21979458e+01  1.64784691e+02 -2.23898230e+01 
 2.32453791e-01  7.66113238e+01 -1.96301858e-01 -8.81445272e+01  2.26585530e+01  1.64755851e+02 -2.28548548e+01 
 2.37814113e-01  7.66113214e+01 -2.00828490e-01 -8.81145481e+01  2.31266013e+01  1.64725869e+02 -2.33274297e+01 
 2.43298042e-01  7.66113189e+01 -2.05459501e-01 -8.80833903e+01  2.36020829e+01  1.64694709e+02 -2.38075424e+01 
 2.48908429e-01  7.66113163e+01 -2.10197300e-01 -8.80510167e+01  2.40849828e+01  1.64662333e+02 -2.42951801e+01 
 2.54648190e-01  7.66113136e+01 -2.15044348e-01 -8.80173893e+01  2.45752778e+01  1.64628703e+02 -2.47903222e+01 
 2.60520309e-01  7.66113107e+01 -2.20003164e-01 -8.79824698e+01  2.50729352e+01  1.64593781e+02 -2.52929383e+01 
 2.66527837e-01  7.66113078e+01 -2.25076326e-01 -8.79463738e+01  2.55783998e+01  1.64557682e+02 -2.58034762e+01 
 2.72673897e-01  7.66113046e+01 -2.30266470e-01 -8.79087525e+01  2.60906527e+01  1.64520057e+02 -2.63209192e+01 
 2.78961683e-01  7.66113014e+01 -2.35576294e-01 -8.78697221e+01  2.66101124e+01  1.64481023e+02 -2.68456887e+01 
 2.85394464e-01  7.66112979e+01 -2.41008557e-01 -8.78292430e+01  2.71367067e+01  1.64440541e+02 -2.73777153e+01 
 2.91975583e-01  7.66112944e+01 -2.46566081e-01 -8.77871271e+01  2.76698389e+01  1.64398422e+02 -2.79164050e+01 
 2.98708461e-01  7.66112906e+01 -2.52251756e-01 -8.77436336e+01  2.82104377e+01  1.64354924e+02 -2.84626895e+01 
 3.05596598e-01  7.66112867e+01 -2.58068535e-01 -8.76985730e+01  2.87578914e+01  1.64309860e+02 -2.90159599e+01 
 3.12643573e-01  7.66112826e+01 -2.64019443e-01 -8.76519056e+01  2.93120836e+01  1.64263188e+02 -2.95761031e+01 
 3.19853049e-01  7.66112783e+01 -2.70107571e-01 -8.76035923e+01  2.98728875e+01  1.64214871e+02 -3.01429951e+01 
 3.27228774e-01  7.66112738e+01 -2.76336083e-01 -8.75534535e+01  3.04396179e+01  1.64164727e+02 -3.07159540e+01 
 3.34774581e-01  7.66112691e+01 -2.82708217e-01 -8.75018732e+01  3.10137637e+01  1.64113142e+02 -3.12964719e+01 
 3.42494392e-01  7.66112642e+01 -2.89227283e-01 -8.74483910e+01  3.15935233e+01  1.64059655e+02 -3.18827506e+01 
 3.50392221e-01  7.66112590e+01 -2.95896669e-01 -8.73931103e+01  3.21792688e+01  1.64004369e+02 -3.24751655e+01 
 3.58472171e-01  7.66112536e+01 -3.02719841e-01 -8.73358606e+01  3.27702450e+01  1.63947114e+02 -3.30729648e+01 
 3.66738442e-01  7.66112480e+01 -3.09700344e-01 -8.72768759e+01  3.33673883e+01  1.63888124e+02 -3.36770886e+01 
 3.75195331e-01  7.66112421e+01 -3.16841807e-01 -8.72159858e+01  3.39699255e+01  1.63827228e+02 -3.42867673e+01 
 3.83847234e-01  7.66112359e+01 -3.24147940e-01 -8.71531565e+01  3.45776361e+01  1.63764392e+02 -3.49017840e+01 
 3.92698648e-01  7.66112294e+01 -3.31622539e-01 -8.70884819e+01  3.51908773e+01  1.63699711e+02 -3.55224999e+01 
 4.01754173e-01  7.66112226e+01 -3.39269489e-01 -8.70216757e+01  3.58082333e+01  1.63632898e+02 -3.61475028e+01 
 4.11018515e-01  7.66112155e+01 -3.47092763e-01 -8.69527137e+01  3.64294370e+01  1.63563929e+02 -3.67765297e+01 
 4.20496491e-01  7.66112081e+01 -3.55096426e-01 -8.68818150e+01  3.70554175e+01  1.63493023e+02 -3.74105139e+01 
 4.30193027e-01  7.66112003e+01 -3.63284637e-01 -8.68088278e+01  3.76853073e+01  1.63420028e+02 -3.80485920e+01 
 4.40113162e-01  7.66111922e+01 -3.71661651e-01 -8.67338439e+01  3.83194324e+01  1.63345036e+02 -3.86910940e+01 
 4.50262052e-01  7.66111837e+01 -3.80231820e-01 -8.66566043e+01  3.89562891e+01  1.63267788e+02 -3.93365209e+01 
 4.60644974e-01  7.66111748e+01 -3.88999597e-01 -8.65770938e+01  3.95955679e+01  1.63188269e+02 -3.99845675e+01 
 4.71267322e-01  7.66111655e+01 -3.97969538e-01 -8.64955199e+01  4.02381893e+01  1.63106685e+02 -4.06361588e+01 
 4.82134619e-01  7.66111557e+01 -4.07146303e-01 -8.64118586e+01  4.08838460e+01  1.63023014e+02 -4.12909923e+01 
 4.93252513e-01  7.66111455e+01 -4.16534660e-01 -8.63258761e+01  4.15309837e+01  1.62937022e+02 -4.19475183e+01 
 5.04626783e-01  7.66111348e+01 -4.26139488e-01 -8.62375650e+01  4.21792710e+01  1.62848700e+02 -4.26054105e+01 
 5.16263340e-01  7.66111236e+01 -4.35965775e-01 -8.61471248e+01  4.28296223e+01  1.62758248e+02 -4.32655880e+01 
 5.28168234e-01  7.66111119e+01 -4.46018627e-01 -8.60545401e+01  4.34817078e+01  1.62665652e+02 -4.39277264e+01 
