 frequency       v(Aol_dB)       v(Aol_arg)     
 1.00000000e-02  7.66086499e+01 -8.43529361e-03 
 1.02305973e-02  7.66086499e+01 -8.62980920e-03 
 1.04665121e-02  7.66086499e+01 -8.82881026e-03 
 1.07078670e-02  7.66086499e+01 -9.03240024e-03 
 1.09547876e-02  7.66086498e+01 -9.24068494e-03 
 1.12074020e-02  7.66086498e+01 -9.45377264e-03 
 1.14658417e-02  7.66086498e+01 -9.67177408e-03 
 1.17302409e-02  7.66086498e+01 -9.89480257e-03 
 1.20007371e-02  7.66086498e+01 -1.01229740e-02 
 1.22774708e-02  7.66086498e+01 -1.03564071e-02 
 1.25605860e-02  7.66086498e+01 -1.05952230e-02 
 1.28502297e-02  7.66086498e+01 -1.08395460e-02 
 1.31465525e-02  7.66086498e+01 -1.10895030e-02 
 1.34497085e-02  7.66086498e+01 -1.13452239e-02 
 1.37598551e-02  7.66086498e+01 -1.16068417e-02 
 1.40771537e-02  7.66086498e+01 -1.18744924e-02 
 1.44017690e-02  7.66086498e+01 -1.21483149e-02 
 1.47338699e-02  7.66086498e+01 -1.24284518e-02 
 1.50736290e-02  7.66086497e+01 -1.27150485e-02 
 1.54212228e-02  7.66086497e+01 -1.30082541e-02 
 1.57768320e-02  7.66086497e+01 -1.33082209e-02 
 1.61406415e-02  7.66086497e+01 -1.36151049e-02 
 1.65128404e-02  7.66086497e+01 -1.39290655e-02 
 1.68936220e-02  7.66086497e+01 -1.42502660e-02 
 1.72831844e-02  7.66086497e+01 -1.45788732e-02 
 1.76817299e-02  7.66086497e+01 -1.49150581e-02 
 1.80894658e-02  7.66086497e+01 -1.52589953e-02 
 1.85066040e-02  7.66086496e+01 -1.56108636e-02 
 1.89333613e-02  7.66086496e+01 -1.59708459e-02 
 1.93699595e-02  7.66086496e+01 -1.63391292e-02 
 1.98166255e-02  7.66086496e+01 -1.67159051e-02 
 2.02735916e-02  7.66086496e+01 -1.71013694e-02 
 2.07410951e-02  7.66086496e+01 -1.74957223e-02 
 2.12193792e-02  7.66086495e+01 -1.78991689e-02 
 2.17086923e-02  7.66086495e+01 -1.83119189e-02 
 2.22092889e-02  7.66086495e+01 -1.87341867e-02 
 2.27214291e-02  7.66086495e+01 -1.91661920e-02 
 2.32453791e-02  7.66086495e+01 -1.96081592e-02 
 2.37814113e-02  7.66086494e+01 -2.00603180e-02 
 2.43298042e-02  7.66086494e+01 -2.05229035e-02 
 2.48908429e-02  7.66086494e+01 -2.09961560e-02 
 2.54648190e-02  7.66086493e+01 -2.14803217e-02 
 2.60520309e-02  7.66086493e+01 -2.19756520e-02 
 2.66527837e-02  7.66086493e+01 -2.24824046e-02 
 2.72673897e-02  7.66086493e+01 -2.30008427e-02 
 2.78961683e-02  7.66086492e+01 -2.35312359e-02 
 2.85394464e-02  7.66086492e+01 -2.40738597e-02 
 2.91975583e-02  7.66086492e+01 -2.46289964e-02 
 2.98708461e-02  7.66086491e+01 -2.51969343e-02 
 3.05596598e-02  7.66086491e+01 -2.57779687e-02 
 3.12643573e-02  7.66086490e+01 -2.63724016e-02 
 3.19853049e-02  7.66086490e+01 -2.69805420e-02 
 3.27228774e-02  7.66086490e+01 -2.76027059e-02 
 3.34774581e-02  7.66086489e+01 -2.82392168e-02 
 3.42494392e-02  7.66086489e+01 -2.88904054e-02 
 3.50392221e-02  7.66086488e+01 -2.95566102e-02 
 3.58472171e-02  7.66086488e+01 -3.02381775e-02 
 3.66738442e-02  7.66086487e+01 -3.09354616e-02 
 3.75195331e-02  7.66086486e+01 -3.16488248e-02 
 3.83847234e-02  7.66086486e+01 -3.23786380e-02 
 3.92698648e-02  7.66086485e+01 -3.31252805e-02 
 4.01754173e-02  7.66086484e+01 -3.38891403e-02 
 4.11018515e-02  7.66086484e+01 -3.46706146e-02 
 4.20496491e-02  7.66086483e+01 -3.54701094e-02 
 4.30193027e-02  7.66086482e+01 -3.62880403e-02 
 4.40113162e-02  7.66086481e+01 -3.71248325e-02 
 4.50262052e-02  7.66086481e+01 -3.79809208e-02 
 4.60644974e-02  7.66086480e+01 -3.88567503e-02 
 4.71267322e-02  7.66086479e+01 -3.97527762e-02 
 4.82134619e-02  7.66086478e+01 -4.06694642e-02 
 4.93252513e-02  7.66086477e+01 -4.16072907e-02 
 5.04626783e-02  7.66086476e+01 -4.25667433e-02 
 5.16263340e-02  7.66086475e+01 -4.35483205e-02 
 5.28168234e-02  7.66086473e+01 -4.45525326e-02 
 5.40347650e-02  7.66086472e+01 -4.55799015e-02 
 5.52807921e-02  7.66086471e+01 -4.66309613e-02 
 5.65555523e-02  7.66086470e+01 -4.77062582e-02 
 5.78597080e-02  7.66086468e+01 -4.88063511e-02 
 5.91939372e-02  7.66086467e+01 -4.99318118e-02 
 6.05589334e-02  7.66086465e+01 -5.10832253e-02 
 6.19554061e-02  7.66086464e+01 -5.22611900e-02 
 6.33840810e-02  7.66086462e+01 -5.34663182e-02 
 6.48457008e-02  7.66086460e+01 -5.46992364e-02 
 6.63410251e-02  7.66086458e+01 -5.59605852e-02 
 6.78708313e-02  7.66086456e+01 -5.72510203e-02 
 6.94359143e-02  7.66086454e+01 -5.85712125e-02 
 7.10370877e-02  7.66086452e+01 -5.99218478e-02 
 7.26751838e-02  7.66086450e+01 -6.13036284e-02 
 7.43510539e-02  7.66086448e+01 -6.27172724e-02 
 7.60655691e-02  7.66086445e+01 -6.41635146e-02 
 7.78196206e-02  7.66086443e+01 -6.56431066e-02 
 7.96141200e-02  7.66086440e+01 -6.71568175e-02 
 8.14500001e-02  7.66086437e+01 -6.87054341e-02 
 8.33282151e-02  7.66086434e+01 -7.02897613e-02 
 8.52497412e-02  7.66086431e+01 -7.19106225e-02 
 8.72155772e-02  7.66086428e+01 -7.35688603e-02 
 8.92267449e-02  7.66086425e+01 -7.52653364e-02 
 9.12842895e-02  7.66086421e+01 -7.70009327e-02 
 9.33892805e-02  7.66086418e+01 -7.87765512e-02 
 9.55428121e-02  7.66086414e+01 -8.05931148e-02 
 9.77460036e-02  7.66086410e+01 -8.24515677e-02 
 1.00000000e-01  7.66086406e+01 -8.43528759e-02 
 1.02305973e-01  7.66086401e+01 -8.62980275e-02 
 1.04665121e-01  7.66086397e+01 -8.82880336e-02 
 1.07078670e-01  7.66086392e+01 -9.03239285e-02 
 1.09547876e-01  7.66086387e+01 -9.24067703e-02 
 1.12074020e-01  7.66086382e+01 -9.45376416e-02 
 1.14658417e-01  7.66086376e+01 -9.67176500e-02 
 1.17302409e-01  7.66086370e+01 -9.89479285e-02 
 1.20007371e-01  7.66086364e+01 -1.01229636e-01 
 1.22774708e-01  7.66086358e+01 -1.03563959e-01 
 1.25605860e-01  7.66086351e+01 -1.05952111e-01 
 1.28502297e-01  7.66086344e+01 -1.08395332e-01 
 1.31465525e-01  7.66086337e+01 -1.10894893e-01 
 1.34497085e-01  7.66086330e+01 -1.13452093e-01 
 1.37598551e-01  7.66086322e+01 -1.16068260e-01 
 1.40771537e-01  7.66086313e+01 -1.18744756e-01 
 1.44017690e-01  7.66086305e+01 -1.21482969e-01 
 1.47338699e-01  7.66086296e+01 -1.24284325e-01 
 1.50736290e-01  7.66086286e+01 -1.27150279e-01 
 1.54212228e-01  7.66086276e+01 -1.30082320e-01 
 1.57768320e-01  7.66086266e+01 -1.33081973e-01 
 1.61406415e-01  7.66086255e+01 -1.36150796e-01 
 1.65128404e-01  7.66086243e+01 -1.39290384e-01 
 1.68936220e-01  7.66086231e+01 -1.42502369e-01 
 1.72831844e-01  7.66086219e+01 -1.45788422e-01 
 1.76817299e-01  7.66086206e+01 -1.49150248e-01 
 1.80894658e-01  7.66086192e+01 -1.52589597e-01 
 1.85066040e-01  7.66086178e+01 -1.56108254e-01 
 1.89333613e-01  7.66086163e+01 -1.59708050e-01 
 1.93699595e-01  7.66086147e+01 -1.63390855e-01 
 1.98166255e-01  7.66086130e+01 -1.67158583e-01 
 2.02735916e-01  7.66086113e+01 -1.71013191e-01 
 2.07410951e-01  7.66086095e+01 -1.74956685e-01 
 2.12193792e-01  7.66086076e+01 -1.78991113e-01 
 2.17086923e-01  7.66086056e+01 -1.83118572e-01 
 2.22092889e-01  7.66086035e+01 -1.87341207e-01 
 2.27214291e-01  7.66086014e+01 -1.91661212e-01 
 2.32453791e-01  7.66085991e+01 -1.96080834e-01 
 2.37814113e-01  7.66085967e+01 -2.00602369e-01 
 2.43298042e-01  7.66085943e+01 -2.05228166e-01 
 2.48908429e-01  7.66085917e+01 -2.09960631e-01 
 2.54648190e-01  7.66085890e+01 -2.14802223e-01 
 2.60520309e-01  7.66085862e+01 -2.19755456e-01 
 2.66527837e-01  7.66085832e+01 -2.24822906e-01 
 2.72673897e-01  7.66085801e+01 -2.30007206e-01 
 2.78961683e-01  7.66085768e+01 -2.35311051e-01 
 2.85394464e-01  7.66085734e+01 -2.40737197e-01 
 2.91975583e-01  7.66085698e+01 -2.46288464e-01 
 2.98708461e-01  7.66085660e+01 -2.51967737e-01 
 3.05596598e-01  7.66085621e+01 -2.57777968e-01 
 3.12643573e-01  7.66085580e+01 -2.63722175e-01 
 3.19853049e-01  7.66085537e+01 -2.69803449e-01 
 3.27228774e-01  7.66085492e+01 -2.76024947e-01 
 3.34774581e-01  7.66085445e+01 -2.82389906e-01 
 3.42494392e-01  7.66085396e+01 -2.88901632e-01 
 3.50392221e-01  7.66085345e+01 -2.95563509e-01 
 3.58472171e-01  7.66085291e+01 -3.02378999e-01 
 3.66738442e-01  7.66085235e+01 -3.09351644e-01 
 3.75195331e-01  7.66085176e+01 -3.16485067e-01 
 3.83847234e-01  7.66085114e+01 -3.23782974e-01 
 3.92698648e-01  7.66085050e+01 -3.31249158e-01 
 4.01754173e-01  7.66084982e+01 -3.38887498e-01 
 4.11018515e-01  7.66084911e+01 -3.46701962e-01 
 4.20496491e-01  7.66084837e+01 -3.54696614e-01 
 4.30193027e-01  7.66084759e+01 -3.62875607e-01 
 4.40113162e-01  7.66084678e+01 -3.71243189e-01 
 4.50262052e-01  7.66084593e+01 -3.79803709e-01 
 4.60644974e-01  7.66084505e+01 -3.88561617e-01 
 4.71267322e-01  7.66084412e+01 -3.97521459e-01 
 4.82134619e-01  7.66084314e+01 -4.06687892e-01 
 4.93252513e-01  7.66084212e+01 -4.16065679e-01 
 5.04626783e-01  7.66084105e+01 -4.25659693e-01 
 5.16263340e-01  7.66083994e+01 -4.35474918e-01 
 5.28168234e-01  7.66083877e+01 -4.45516453e-01 
 5.40347650e-01  7.66083754e+01 -4.55789514e-01 
 5.52807921e-01  7.66083626e+01 -4.66299439e-01 
 5.65555523e-01  7.66083492e+01 -4.77051686e-01 
 5.78597080e-01  7.66083352e+01 -4.88051845e-01 
 5.91939372e-01  7.66083205e+01 -4.99305624e-01 
 6.05589334e-01  7.66083052e+01 -5.10818881e-01 
 6.19554061e-01  7.66082891e+01 -5.22597582e-01 
 6.33840810e-01  7.66082723e+01 -5.34647851e-01 
 6.48457008e-01  7.66082547e+01 -5.46975945e-01 
 6.63410251e-01  7.66082362e+01 -5.59588271e-01 
 6.78708313e-01  7.66082169e+01 -5.72491377e-01 
 6.94359143e-01  7.66081967e+01 -5.85691965e-01 
 7.10370877e-01  7.66081756e+01 -5.99196897e-01 
 7.26751838e-01  7.66081535e+01 -6.13013173e-01 
 7.43510539e-01  7.66081303e+01 -6.27147976e-01 
 7.60655691e-01  7.66081061e+01 -6.41608647e-01 
 7.78196206e-01  7.66080807e+01 -6.56402688e-01 
 7.96141200e-01  7.66080541e+01 -6.71537790e-01 
 8.14500001e-01  7.66080264e+01 -6.87021808e-01 
 8.33282151e-01  7.66079972e+01 -7.02862774e-01 
 8.52497412e-01  7.66079668e+01 -7.19068924e-01 
 8.72155772e-01  7.66079350e+01 -7.35648662e-01 
 8.92267449e-01  7.66079016e+01 -7.52610593e-01 
 9.12842895e-01  7.66078667e+01 -7.69963532e-01 
 9.33892805e-01  7.66078302e+01 -7.87716481e-01 
 9.55428121e-01  7.66077920e+01 -8.05878643e-01 
 9.77460036e-01  7.66077519e+01 -8.24459455e-01 
 1.00000000e+00  7.66077100e+01 -8.43468558e-01 
 1.02305973e+00  7.66076662e+01 -8.62915810e-01 
 1.04665121e+00  7.66076203e+01 -8.82811311e-01 
 1.07078670e+00  7.66075723e+01 -9.03165371e-01 
 1.09547876e+00  7.66075220e+01 -9.23988560e-01 
 1.12074020e+00  7.66074694e+01 -9.45291676e-01 
 1.14658417e+00  7.66074144e+01 -9.67085764e-01 
 1.17302409e+00  7.66073567e+01 -9.89382121e-01 
 1.20007371e+00  7.66072963e+01 -1.01219232e+00 
 1.22774708e+00  7.66072332e+01 -1.03552819e+00 
 1.25605860e+00  7.66071672e+01 -1.05940182e+00 
 1.28502297e+00  7.66070980e+01 -1.08382559e+00 
 1.31465525e+00  7.66070256e+01 -1.10881216e+00 
 1.34497085e+00  7.66069498e+01 -1.13437447e+00 
 1.37598551e+00  7.66068705e+01 -1.16052578e+00 
 1.40771537e+00  7.66067876e+01 -1.18727964e+00 
 1.44017690e+00  7.66067008e+01 -1.21464990e+00 
 1.47338699e+00  7.66066098e+01 -1.24265073e+00 
 1.50736290e+00  7.66065147e+01 -1.27129664e+00 
 1.54212228e+00  7.66064151e+01 -1.30060246e+00 
 1.57768320e+00  7.66063109e+01 -1.33058337e+00 
 1.61406415e+00  7.66062018e+01 -1.36125488e+00 
 1.65128404e+00  7.66060876e+01 -1.39263285e+00 
 1.68936220e+00  7.66059680e+01 -1.42473352e+00 
 1.72831844e+00  7.66058430e+01 -1.45757350e+00 
 1.76817299e+00  7.66057121e+01 -1.49116978e+00 
 1.80894658e+00  7.66055751e+01 -1.52553973e+00 
 1.85066040e+00  7.66054317e+01 -1.56070110e+00 
 1.89333613e+00  7.66052816e+01 -1.59667206e+00 
 1.93699595e+00  7.66051246e+01 -1.63347121e+00 
 1.98166255e+00  7.66049602e+01 -1.67111753e+00 
 2.02735916e+00  7.66047882e+01 -1.70963051e+00 
 2.07410951e+00  7.66046081e+01 -1.74902995e+00 
 2.12193792e+00  7.66044196e+01 -1.78933624e+00 
 2.17086923e+00  7.66042223e+01 -1.83057015e+00 
 2.22092889e+00  7.66040159e+01 -1.87275296e+00 
 2.27214291e+00  7.66037998e+01 -1.91590637e+00 
 2.32453791e+00  7.66035737e+01 -1.96005266e+00 
 2.37814113e+00  7.66033371e+01 -2.00521454e+00 
 2.43298042e+00  7.66030893e+01 -2.05141526e+00 
 2.48908429e+00  7.66028302e+01 -2.09867863e+00 
 2.54648190e+00  7.66025588e+01 -2.14702887e+00 
 2.60520309e+00  7.66022749e+01 -2.19649095e+00 
 2.66527837e+00  7.66019777e+01 -2.24709021e+00 
 2.72673897e+00  7.66016667e+01 -2.29885267e+00 
 2.78961683e+00  7.66013412e+01 -2.35180484e+00 
 2.85394464e+00  7.66010005e+01 -2.40597394e+00 
 2.91975583e+00  7.66006440e+01 -2.46138775e+00 
 2.98708461e+00  7.66002708e+01 -2.51807459e+00 
 3.05596598e+00  7.65998804e+01 -2.57606354e+00 
 3.12643573e+00  7.65994717e+01 -2.63538424e+00 
 3.19853049e+00  7.65990440e+01 -2.69606702e+00 
 3.27228774e+00  7.65985963e+01 -2.75814286e+00 
 3.34774581e+00  7.65981280e+01 -2.82164350e+00 
 3.42494392e+00  7.65976377e+01 -2.88660126e+00 
 3.50392221e+00  7.65971247e+01 -2.95304927e+00 
 3.58472171e+00  7.65965877e+01 -3.02102132e+00 
 3.66738442e+00  7.65960259e+01 -3.09055202e+00 
 3.75195331e+00  7.65954378e+01 -3.16167666e+00 
 3.83847234e+00  7.65948223e+01 -3.23443131e+00 
 3.92698648e+00  7.65941784e+01 -3.30885292e+00 
 4.01754173e+00  7.65935045e+01 -3.38497916e+00 
 4.11018515e+00  7.65927992e+01 -3.46284842e+00 
 4.20496491e+00  7.65920611e+01 -3.54250014e+00 
 4.30193027e+00  7.65912888e+01 -3.62397443e+00 
 4.40113162e+00  7.65904806e+01 -3.70731238e+00 
 4.50262052e+00  7.65896348e+01 -3.79255583e+00 
 4.60644974e+00  7.65887498e+01 -3.87974761e+00 
 4.71267322e+00  7.65878237e+01 -3.96893145e+00 
 4.82134619e+00  7.65868545e+01 -4.06015193e+00 
 4.93252513e+00  7.65858404e+01 -4.15345466e+00 
 5.04626783e+00  7.65847792e+01 -4.24888608e+00 
 5.16263340e+00  7.65836688e+01 -4.34649381e+00 
 5.28168234e+00  7.65825069e+01 -4.44632618e+00 
 5.40347650e+00  7.65812912e+01 -4.54843280e+00 
 5.52807921e+00  7.65800190e+01 -4.65286402e+00 
 5.65555523e+00  7.65786880e+01 -4.75967146e+00 
 5.78597080e+00  7.65772953e+01 -4.86890759e+00 
 5.91939372e+00  7.65758380e+01 -4.98062602e+00 
 6.05589334e+00  7.65743133e+01 -5.09488144e+00 
 6.19554061e+00  7.65727181e+01 -5.21172969e+00 
 6.33840810e+00  7.65710491e+01 -5.33122749e+00 
 6.48457008e+00  7.65693028e+01 -5.45343284e+00 
 6.63410251e+00  7.65674760e+01 -5.57840489e+00 
 6.78708313e+00  7.65655646e+01 -5.70620375e+00 
 6.94359143e+00  7.65635650e+01 -5.83689078e+00 
 7.10370877e+00  7.65614732e+01 -5.97052860e+00 
 7.26751838e+00  7.65592848e+01 -6.10718069e+00 
 7.43510539e+00  7.65569955e+01 -6.24691197e+00 
 7.60655691e+00  7.65546006e+01 -6.38978839e+00 
 7.78196206e+00  7.65520956e+01 -6.53587717e+00 
 7.96141200e+00  7.65494752e+01 -6.68524666e+00 
 8.14500001e+00  7.65467342e+01 -6.83796625e+00 
 8.33282151e+00  7.65438672e+01 -6.99410678e+00 
 8.52497412e+00  7.65408684e+01 -7.15374011e+00 
 8.72155772e+00  7.65377320e+01 -7.31693936e+00 
 8.92267449e+00  7.65344517e+01 -7.48377866e+00 
 9.12842895e+00  7.65310210e+01 -7.65433362e+00 
 9.33892805e+00  7.65274332e+01 -7.82868068e+00 
 9.55428121e+00  7.65236812e+01 -8.00689754e+00 
 9.77460036e+00  7.65197576e+01 -8.18906320e+00 
 1.00000000e+01  7.65156548e+01 -8.37525748e+00 
 1.02305973e+01  7.65113647e+01 -8.56556159e+00 
 1.04665121e+01  7.65068789e+01 -8.76005749e+00 
 1.07078670e+01  7.65021890e+01 -8.95882859e+00 
 1.09547876e+01  7.64972856e+01 -9.16195903e+00 
 1.12074020e+01  7.64921593e+01 -9.36953387e+00 
 1.14658417e+01  7.64868004e+01 -9.58163936e+00 
 1.17302409e+01  7.64811986e+01 -9.79836257e+00 
 1.20007371e+01  7.64753432e+01 -1.00197913e+01 
 1.22774708e+01  7.64692232e+01 -1.02460144e+01 
 1.25605860e+01  7.64628268e+01 -1.04771209e+01 
 1.28502297e+01  7.64561419e+01 -1.07132012e+01 
 1.31465525e+01  7.64491564e+01 -1.09543460e+01 
 1.34497085e+01  7.64418570e+01 -1.12006465e+01 
 1.37598551e+01  7.64342301e+01 -1.14521943e+01 
 1.40771537e+01  7.64262617e+01 -1.17090813e+01 
 1.44017690e+01  7.64179373e+01 -1.19714002e+01 
 1.47338699e+01  7.64092415e+01 -1.22392430e+01 
 1.50736290e+01  7.64001588e+01 -1.25127024e+01 
 1.54212228e+01  7.63906725e+01 -1.27918706e+01 
 1.57768320e+01  7.63807658e+01 -1.30768400e+01 
 1.61406415e+01  7.63704212e+01 -1.33677025e+01 
 1.65128404e+01  7.63596203e+01 -1.36645491e+01 
 1.68936220e+01  7.63483443e+01 -1.39674707e+01 
 1.72831844e+01  7.63365734e+01 -1.42765570e+01 
 1.76817299e+01  7.63242875e+01 -1.45918969e+01 
 1.80894658e+01  7.63114656e+01 -1.49135781e+01 
 1.85066040e+01  7.62980859e+01 -1.52416866e+01 
 1.89333613e+01  7.62841262e+01 -1.55763073e+01 
 1.93699595e+01  7.62695629e+01 -1.59175228e+01 
 1.98166255e+01  7.62543725e+01 -1.62654139e+01 
 2.02735916e+01  7.62385301e+01 -1.66200591e+01 
 2.07410951e+01  7.62220103e+01 -1.69815340e+01 
 2.12193792e+01  7.62047869e+01 -1.73499118e+01 
 2.17086923e+01  7.61868329e+01 -1.77252624e+01 
 2.22092889e+01  7.61681204e+01 -1.81076523e+01 
 2.27214291e+01  7.61486210e+01 -1.84971442e+01 
 2.32453791e+01  7.61283052e+01 -1.88937967e+01 
 2.37814113e+01  7.61071430e+01 -1.92976646e+01 
 2.43298042e+01  7.60851034e+01 -1.97087972e+01 
 2.48908429e+01  7.60621547e+01 -2.01272391e+01 
 2.54648190e+01  7.60382648e+01 -2.05530302e+01 
 2.60520309e+01  7.60134003e+01 -2.09862039e+01 
 2.66527837e+01  7.59875274e+01 -2.14267874e+01 
 2.72673897e+01  7.59606116e+01 -2.18748020e+01 
 2.78961683e+01  7.59326176e+01 -2.23302618e+01 
 2.85394464e+01  7.59035097e+01 -2.27931737e+01 
 2.91975583e+01  7.58732514e+01 -2.32635375e+01 
 2.98708461e+01  7.58418057e+01 -2.37413444e+01 
 3.05596598e+01  7.58091351e+01 -2.42265775e+01 
 3.12643573e+01  7.57752016e+01 -2.47192114e+01 
 3.19853049e+01  7.57399667e+01 -2.52192113e+01 
 3.27228774e+01  7.57033918e+01 -2.57265335e+01 
 3.34774581e+01  7.56654376e+01 -2.62411238e+01 
 3.42494392e+01  7.56260650e+01 -2.67629191e+01 
 3.50392221e+01  7.55852343e+01 -2.72918447e+01 
 3.58472171e+01  7.55429060e+01 -2.78278159e+01 
 3.66738442e+01  7.54990406e+01 -2.83707371e+01 
 3.75195331e+01  7.54535985e+01 -2.89205020e+01 
 3.83847234e+01  7.54065402e+01 -2.94769918e+01 
 3.92698648e+01  7.53578267e+01 -3.00400774e+01 
 4.01754173e+01  7.53074193e+01 -3.06096172e+01 
 4.11018515e+01  7.52552795e+01 -3.11854586e+01 
 4.20496491e+01  7.52013696e+01 -3.17674369e+01 
 4.30193027e+01  7.51456524e+01 -3.23553754e+01 
 4.40113162e+01  7.50880916e+01 -3.29490859e+01 
 4.50262052e+01  7.50286517e+01 -3.35483690e+01 
 4.60644974e+01  7.49672980e+01 -3.41530127e+01 
 4.71267322e+01  7.49039971e+01 -3.47627942e+01 
 4.82134619e+01  7.48387168e+01 -3.53774801e+01 
 4.93252513e+01  7.47714260e+01 -3.59968257e+01 
 5.04626783e+01  7.47020952e+01 -3.66205753e+01 
 5.16263340e+01  7.46306963e+01 -3.72484641e+01 
 5.28168234e+01  7.45572029e+01 -3.78802173e+01 
 5.40347650e+01  7.44815902e+01 -3.85155509e+01 
 5.52807921e+01  7.44038352e+01 -3.91541720e+01 
 5.65555523e+01  7.43239170e+01 -3.97957808e+01 
 5.78597080e+01  7.42418163e+01 -4.04400686e+01 
 5.91939372e+01  7.41575162e+01 -4.10867217e+01 
 6.05589334e+01  7.40710017e+01 -4.17354194e+01 
 6.19554061e+01  7.39822599e+01 -4.23858363e+01 
 6.33840810e+01  7.38912805e+01 -4.30376424e+01 
 6.48457008e+01  7.37980550e+01 -4.36905047e+01 
 6.63410251e+01  7.37025775e+01 -4.43440871e+01 
 6.78708313e+01  7.36048443e+01 -4.49980519e+01 
 6.94359143e+01  7.35048540e+01 -4.56520596e+01 
 7.10370877e+01  7.34026079e+01 -4.63057727e+01 
 7.26751838e+01  7.32981090e+01 -4.69588525e+01 
 7.43510539e+01  7.31913632e+01 -4.76109627e+01 
 7.60655691e+01  7.30823785e+01 -4.82617699e+01 
 7.78196206e+01  7.29711650e+01 -4.89109439e+01 
 7.96141200e+01  7.28577354e+01 -4.95581587e+01 
 8.14500001e+01  7.27421042e+01 -5.02030930e+01 
 8.33282151e+01  7.26242882e+01 -5.08454325e+01 
 8.52497412e+01  7.25043064e+01 -5.14848680e+01 
 8.72155772e+01  7.23821793e+01 -5.21210983e+01 
 8.92267449e+01  7.22579300e+01 -5.27538304e+01 
 9.12842895e+01  7.21315827e+01 -5.33827789e+01 
 9.33892805e+01  7.20031637e+01 -5.40076683e+01 
 9.55428121e+01  7.18727010e+01 -5.46282322e+01 
 9.77460036e+01  7.17402239e+01 -5.52442149e+01 
 1.00000000e+02  7.16057632e+01 -5.58553703e+01 
 1.02305973e+02  7.14693510e+01 -5.64614633e+01 
 1.04665121e+02  7.13310207e+01 -5.70622706e+01 
