 time            v(VDD)          v(Vbias)        v(bias_en)      v(Vsu)         
 0.00000000e+00  0.00000000e+00  0.00000000e+00  0.00000000e+00  0.00000000e+00 
 2.50000000e-09  0.00000000e+00  0.00000000e+00  0.00000000e+00  0.00000000e+00 
 5.00000000e-09  0.00000000e+00  0.00000000e+00  0.00000000e+00  0.00000000e+00 
 1.00000000e-08  0.00000000e+00  0.00000000e+00  0.00000000e+00  0.00000000e+00 
 2.00000000e-08  0.00000000e+00  0.00000000e+00  0.00000000e+00  0.00000000e+00 
 4.00000000e-08  0.00000000e+00  0.00000000e+00  0.00000000e+00  0.00000000e+00 
 8.00000000e-08  0.00000000e+00  0.00000000e+00  0.00000000e+00  0.00000000e+00 
 1.60000000e-07  0.00000000e+00  0.00000000e+00  0.00000000e+00  0.00000000e+00 
 3.20000000e-07  0.00000000e+00  0.00000000e+00  0.00000000e+00  0.00000000e+00 
 5.70000000e-07  0.00000000e+00  0.00000000e+00  0.00000000e+00  0.00000000e+00 
 8.20000000e-07  0.00000000e+00  0.00000000e+00  0.00000000e+00  0.00000000e+00 
 1.00000000e-06  0.00000000e+00  0.00000000e+00  0.00000000e+00  0.00000000e+00 
 1.02500000e-06  3.75000000e-04  8.96153877e-07  3.75000000e-04  1.17974690e-05 
 1.07500000e-06  1.12500000e-03  2.70527785e-06  1.12500000e-03  3.55026767e-05 
 1.17500000e-06  2.62500000e-03  6.41099174e-06  2.62500000e-03  8.35920297e-05 
 1.37500000e-06  5.62500000e-03  1.40679677e-05  5.62500000e-03  1.82537582e-04 
 1.62500000e-06  9.37500000e-03  2.39249915e-05  9.37500000e-03  3.11352562e-04 
 1.87500000e-06  1.31250000e-02  3.39459075e-05  1.31250000e-02  4.45661457e-04 
 2.12500000e-06  1.68750000e-02  4.40356238e-05  1.68750000e-02  5.85213492e-04 
 2.37500000e-06  2.06250000e-02  5.41289136e-05  2.06250000e-02  7.29772744e-04 
 2.62500000e-06  2.43750000e-02  6.41899361e-05  2.43750000e-02  8.79194056e-04 
 2.87500000e-06  2.81250000e-02  7.42121451e-05  2.81250000e-02  1.03343884e-03 
 3.12500000e-06  3.18750000e-02  8.41816916e-05  3.18750000e-02  1.19244247e-03 
 3.37500000e-06  3.56250000e-02  9.40836566e-05  3.56250000e-02  1.35616280e-03 
 3.62500000e-06  3.93750000e-02  1.03914868e-04  3.93750000e-02  1.52463542e-03 
 3.87500000e-06  4.31250000e-02  1.13674724e-04  4.31250000e-02  1.69794244e-03 
 4.12500000e-06  4.68750000e-02  1.23364365e-04  4.68750000e-02  1.87621523e-03 
 4.37500000e-06  5.06250000e-02  1.32986095e-04  5.06250000e-02  2.05963899e-03 
 4.62500000e-06  5.43750000e-02  1.42543047e-04  5.43750000e-02  2.24845899e-03 
 4.87500000e-06  5.81250000e-02  1.52038978e-04  5.81250000e-02  2.44298892e-03 
 5.12500000e-06  6.18750000e-02  1.61478160e-04  6.18750000e-02  2.64362166e-03 
 5.37500000e-06  6.56250000e-02  1.70865342e-04  6.56250000e-02  2.85084281e-03 
 5.62500000e-06  6.93750000e-02  1.80205774e-04  6.93750000e-02  3.06524776e-03 
 5.87500000e-06  7.31250000e-02  1.89505265e-04  7.31250000e-02  3.28756300e-03 
 6.12500000e-06  7.68750000e-02  1.98770284e-04  7.68750000e-02  3.51867265e-03 
 6.37500000e-06  8.06250000e-02  2.08008110e-04  8.06250000e-02  3.75965157e-03 
 6.62500000e-06  8.43750000e-02  2.17227032e-04  8.43750000e-02  4.01180661e-03 
 6.87500000e-06  8.81250000e-02  2.26436595e-04  8.81250000e-02  4.27672805e-03 
 7.12500000e-06  9.18750000e-02  2.35647919e-04  9.18750000e-02  4.55635378e-03 
 7.37500000e-06  9.56250000e-02  2.44874100e-04  9.56250000e-02  4.85304935e-03 
 7.62500000e-06  9.93750000e-02  2.54130704e-04  9.93750000e-02  5.16970783e-03 
 7.87500000e-06  1.03125000e-01  2.63436383e-04  1.03125000e-01  5.50987408e-03 
 8.12500000e-06  1.06875000e-01  2.72813642e-04  1.06875000e-01  5.87789885e-03 
 8.37500000e-06  1.10625000e-01  2.82289766e-04  1.10625000e-01  6.27912871e-03 
 8.62500000e-06  1.14375000e-01  2.91897959e-04  1.14375000e-01  6.72013739e-03 
 8.87500000e-06  1.18125000e-01  3.01678687e-04  1.18125000e-01  7.20900324e-03 
 9.12500000e-06  1.21875000e-01  3.11681234e-04  1.21875000e-01  7.75563331e-03 
 9.37500000e-06  1.25625000e-01  3.21965431e-04  1.25625000e-01  8.37212707e-03 
 9.62500000e-06  1.29375000e-01  3.32603409e-04  1.29375000e-01  9.07315866e-03 
 9.87500000e-06  1.33125000e-01  3.43681195e-04  1.33125000e-01  9.87633463e-03 
 1.01250000e-05  1.36875000e-01  3.55299723e-04  1.36875000e-01  1.08024530e-02 
 1.03750000e-05  1.40625000e-01  3.67574726e-04  1.40625000e-01  1.18755545e-02 
 1.06250000e-05  1.44375000e-01  3.80634849e-04  1.44375000e-01  1.31226294e-02 
 1.08750000e-05  1.48125000e-01  3.94617389e-04  1.48125000e-01  1.45728548e-02 
 1.11250000e-05  1.51875000e-01  4.09676586e-04  1.51875000e-01  1.62658626e-02 
 1.13750000e-05  1.55625000e-01  4.25942974e-04  1.55625000e-01  1.82301667e-02 
 1.16250000e-05  1.59375000e-01  4.43513546e-04  1.59375000e-01  2.04818620e-02 
 1.18750000e-05  1.63125000e-01  4.62479452e-04  1.63125000e-01  2.30432413e-02 
 1.21250000e-05  1.66875000e-01  4.82913793e-04  1.66875000e-01  2.59320750e-02 
 1.23750000e-05  1.70625000e-01  5.04875452e-04  1.70625000e-01  2.91612814e-02 
 1.26250000e-05  1.74375000e-01  5.28416725e-04  1.74375000e-01  3.27384898e-02 
 1.28750000e-05  1.78125000e-01  5.53591566e-04  1.78125000e-01  3.66645898e-02 
 1.31250000e-05  1.81875000e-01  5.80460847e-04  1.81875000e-01  4.09300622e-02 
 1.33750000e-05  1.85625000e-01  6.09090143e-04  1.85625000e-01  4.55076241e-02 
 1.36250000e-05  1.89375000e-01  6.39533795e-04  1.89375000e-01  5.03396347e-02 
 1.38750000e-05  1.93125000e-01  6.71795413e-04  1.93125000e-01  5.53198809e-02 
 1.41250000e-05  1.96875000e-01  7.05751896e-04  1.96875000e-01  6.02749304e-02 
 1.43750000e-05  2.00625000e-01  7.41038902e-04  2.00625000e-01  6.49635408e-02 
 1.46250000e-05  2.04375000e-01  7.76926947e-04  2.04375000e-01  6.91242891e-02 
 1.48750000e-05  2.08125000e-01  8.12271740e-04  2.08125000e-01  7.25764472e-02 
 1.51250000e-05  2.11875000e-01  8.45722523e-04  2.11875000e-01  7.53077207e-02 
 1.53750000e-05  2.15625000e-01  8.76273333e-04  2.15625000e-01  7.74635529e-02 
 1.56250000e-05  2.19375000e-01  9.03793652e-04  2.19375000e-01  7.92493499e-02 
 1.58750000e-05  2.23125000e-01  9.28984558e-04  2.23125000e-01  8.08373798e-02 
 1.61250000e-05  2.26875000e-01  9.52871243e-04  2.26875000e-01  8.23392685e-02 
 1.63750000e-05  2.30625000e-01  9.76136877e-04  2.30625000e-01  8.38005762e-02 
 1.66250000e-05  2.34375000e-01  9.99161345e-04  2.34375000e-01  8.52354479e-02 
 1.68750000e-05  2.38125000e-01  1.02224927e-03  2.38125000e-01  8.66572473e-02 
 1.71250000e-05  2.41875000e-01  1.04551726e-03  2.41875000e-01  8.80691046e-02 
 1.73750000e-05  2.45625000e-01  1.06901756e-03  2.45625000e-01  8.94715890e-02 
 1.76250000e-05  2.49375000e-01  1.09279229e-03  2.49375000e-01  9.08653304e-02 
 1.78750000e-05  2.53125000e-01  1.11688179e-03  2.53125000e-01  9.22510279e-02 
 1.81250000e-05  2.56875000e-01  1.14132373e-03  2.56875000e-01  9.36292948e-02 
 1.83750000e-05  2.60625000e-01  1.16615335e-03  2.60625000e-01  9.50006519e-02 
 1.86250000e-05  2.64375000e-01  1.19140430e-03  2.64375000e-01  9.63655433e-02 
 1.88750000e-05  2.68125000e-01  1.21710903e-03  2.68125000e-01  9.77243433e-02 
 1.91250000e-05  2.71875000e-01  1.24329918e-03  2.71875000e-01  9.90773648e-02 
 1.93750000e-05  2.75625000e-01  1.27000578e-03  2.75625000e-01  1.00424868e-01 
 1.96250000e-05  2.79375000e-01  1.29725948e-03  2.79375000e-01  1.01767069e-01 
 1.98750000e-05  2.83125000e-01  1.32509066e-03  2.83125000e-01  1.03104144e-01 
 2.01250000e-05  2.86875000e-01  1.35352961e-03  2.86875000e-01  1.04436236e-01 
 2.03750000e-05  2.90625000e-01  1.38260661e-03  2.90625000e-01  1.05763459e-01 
 2.06250000e-05  2.94375000e-01  1.41235199e-03  2.94375000e-01  1.07085906e-01 
 2.08750000e-05  2.98125000e-01  1.44279627e-03  2.98125000e-01  1.08403644e-01 
 2.11250000e-05  3.01875000e-01  1.47397017e-03  3.01875000e-01  1.09716724e-01 
 2.13750000e-05  3.05625000e-01  1.50590472e-03  3.05625000e-01  1.11025183e-01 
 2.16250000e-05  3.09375000e-01  1.53863128e-03  3.09375000e-01  1.12329040e-01 
 2.18750000e-05  3.13125000e-01  1.57218156e-03  3.13125000e-01  1.13628305e-01 
 2.21250000e-05  3.16875000e-01  1.60658768e-03  3.16875000e-01  1.14922978e-01 
 2.23750000e-05  3.20625000e-01  1.64188222e-03  3.20625000e-01  1.16213049e-01 
 2.26250000e-05  3.24375000e-01  1.67809818e-03  3.24375000e-01  1.17498500e-01 
 2.28750000e-05  3.28125000e-01  1.71526907e-03  3.28125000e-01  1.18779308e-01 
 2.31250000e-05  3.31875000e-01  1.75342890e-03  3.31875000e-01  1.20055445e-01 
 2.33750000e-05  3.35625000e-01  1.79261216e-03  3.35625000e-01  1.21326878e-01 
 2.36250000e-05  3.39375000e-01  1.83285383e-03  3.39375000e-01  1.22593571e-01 
 2.38750000e-05  3.43125000e-01  1.87418948e-03  3.43125000e-01  1.23855484e-01 
 2.41250000e-05  3.46875000e-01  1.91665512e-03  3.46875000e-01  1.25112579e-01 
 2.43750000e-05  3.50625000e-01  1.96028735e-03  3.50625000e-01  1.26364812e-01 
 2.46250000e-05  3.54375000e-01  2.00512322e-03  3.54375000e-01  1.27612141e-01 
 2.48750000e-05  3.58125000e-01  2.05120035e-03  3.58125000e-01  1.28854525e-01 
 2.51250000e-05  3.61875000e-01  2.09855683e-03  3.61875000e-01  1.30091922e-01 
 2.53750000e-05  3.65625000e-01  2.14723124e-03  3.65625000e-01  1.31324290e-01 
 2.56250000e-05  3.69375000e-01  2.19726263e-03  3.69375000e-01  1.32551591e-01 
 2.58750000e-05  3.73125000e-01  2.24869055e-03  3.73125000e-01  1.33773787e-01 
 2.61250000e-05  3.76875000e-01  2.30155496e-03  3.76875000e-01  1.34990842e-01 
 2.63750000e-05  3.80625000e-01  2.35589630e-03  3.80625000e-01  1.36202725e-01 
 2.66250000e-05  3.84375000e-01  2.41175541e-03  3.84375000e-01  1.37409404e-01 
 2.68750000e-05  3.88125000e-01  2.46917350e-03  3.88125000e-01  1.38610854e-01 
 2.71250000e-05  3.91875000e-01  2.52819218e-03  3.91875000e-01  1.39807049e-01 
 2.73750000e-05  3.95625000e-01  2.58885340e-03  3.95625000e-01  1.40997971e-01 
 2.76250000e-05  3.99375000e-01  2.65119945e-03  3.99375000e-01  1.42183603e-01 
 2.78750000e-05  4.03125000e-01  2.71527294e-03  4.03125000e-01  1.43363931e-01 
 2.81250000e-05  4.06875000e-01  2.78111674e-03  4.06875000e-01  1.44538948e-01 
 2.83750000e-05  4.10625000e-01  2.84877399e-03  4.10625000e-01  1.45708648e-01 
 2.86250000e-05  4.14375000e-01  2.91828805e-03  4.14375000e-01  1.46873032e-01 
 2.88750000e-05  4.18125000e-01  2.98970252e-03  4.18125000e-01  1.48032103e-01 
 2.91250000e-05  4.21875000e-01  3.06306115e-03  4.21875000e-01  1.49185868e-01 
 2.93750000e-05  4.25625000e-01  3.13840787e-03  4.25625000e-01  1.50334341e-01 
 2.96250000e-05  4.29375000e-01  3.21578670e-03  4.29375000e-01  1.51477537e-01 
 2.98750000e-05  4.33125000e-01  3.29524180e-03  4.33125000e-01  1.52615478e-01 
 3.01250000e-05  4.36875000e-01  3.37681739e-03  4.36875000e-01  1.53748188e-01 
 3.03750000e-05  4.40625000e-01  3.46055774e-03  4.40625000e-01  1.54875696e-01 
 3.06250000e-05  4.44375000e-01  3.54650713e-03  4.44375000e-01  1.55998036e-01 
 3.08750000e-05  4.48125000e-01  3.63470987e-03  4.48125000e-01  1.57115246e-01 
 3.11250000e-05  4.51875000e-01  3.72521020e-03  4.51875000e-01  1.58227365e-01 
 3.13750000e-05  4.55625000e-01  3.81805234e-03  4.55625000e-01  1.59334440e-01 
 3.16250000e-05  4.59375000e-01  3.91328042e-03  4.59375000e-01  1.60436519e-01 
 3.18750000e-05  4.63125000e-01  4.01093845e-03  4.63125000e-01  1.61533654e-01 
 3.21250000e-05  4.66875000e-01  4.11107033e-03  4.66875000e-01  1.62625901e-01 
 3.23750000e-05  4.70625000e-01  4.21371978e-03  4.70625000e-01  1.63713319e-01 
 3.26250000e-05  4.74375000e-01  4.31893037e-03  4.74375000e-01  1.64795971e-01 
 3.28750000e-05  4.78125000e-01  4.42674550e-03  4.78125000e-01  1.65873921e-01 
 3.31250000e-05  4.81875000e-01  4.53720832e-03  4.81875000e-01  1.66947238e-01 
 3.33750000e-05  4.85625000e-01  4.65036170e-03  4.85625000e-01  1.68015993e-01 
 3.36250000e-05  4.89375000e-01  4.76624830e-03  4.89375000e-01  1.69080258e-01 
 3.38750000e-05  4.93125000e-01  4.88491049e-03  4.93125000e-01  1.70140110e-01 
 3.41250000e-05  4.96875000e-01  5.00639032e-03  4.96875000e-01  1.71195627e-01 
 3.43750000e-05  5.00625000e-01  5.13072954e-03  5.00625000e-01  1.72246887e-01 
 3.46250000e-05  5.04375000e-01  5.25796955e-03  5.04375000e-01  1.73293974e-01 
 3.48750000e-05  5.08125000e-01  5.38815142e-03  5.08125000e-01  1.74336970e-01 
 3.51250000e-05  5.11875000e-01  5.52131581e-03  5.11875000e-01  1.75375961e-01 
 3.53750000e-05  5.15625000e-01  5.65750299e-03  5.15625000e-01  1.76411034e-01 
 3.56250000e-05  5.19375000e-01  5.79675283e-03  5.19375000e-01  1.77442275e-01 
 3.58750000e-05  5.23125000e-01  5.93910479e-03  5.23125000e-01  1.78469774e-01 
 3.61250000e-05  5.26875000e-01  6.08459788e-03  5.26875000e-01  1.79493620e-01 
 3.63750000e-05  5.30625000e-01  6.23327066e-03  5.30625000e-01  1.80513905e-01 
 3.66250000e-05  5.34375000e-01  6.38516124e-03  5.34375000e-01  1.81530720e-01 
 3.68750000e-05  5.38125000e-01  6.54030725e-03  5.38125000e-01  1.82544156e-01 
 3.71250000e-05  5.41875000e-01  6.69874582e-03  5.41875000e-01  1.83554306e-01 
 3.73750000e-05  5.45625000e-01  6.86051356e-03  5.45625000e-01  1.84561262e-01 
 3.76250000e-05  5.49375000e-01  7.02564661e-03  5.49375000e-01  1.85565117e-01 
 3.78750000e-05  5.53125000e-01  7.19418052e-03  5.53125000e-01  1.86565965e-01 
 3.81250000e-05  5.56875000e-01  7.36615037e-03  5.56875000e-01  1.87563897e-01 
 3.83750000e-05  5.60625000e-01  7.54159067e-03  5.60625000e-01  1.88559006e-01 
 3.86250000e-05  5.64375000e-01  7.72053537e-03  5.64375000e-01  1.89551386e-01 
 3.88750000e-05  5.68125000e-01  7.90301785e-03  5.68125000e-01  1.90541127e-01 
 3.91250000e-05  5.71875000e-01  8.08907093e-03  5.71875000e-01  1.91528323e-01 
 3.93750000e-05  5.75625000e-01  8.27872684e-03  5.75625000e-01  1.92513063e-01 
 3.96250000e-05  5.79375000e-01  8.47201721e-03  5.79375000e-01  1.93495439e-01 
 3.98750000e-05  5.83125000e-01  8.66897308e-03  5.83125000e-01  1.94475541e-01 
 4.01250000e-05  5.86875000e-01  8.86962489e-03  5.86875000e-01  1.95453458e-01 
 4.03750000e-05  5.90625000e-01  9.07400248e-03  5.90625000e-01  1.96429278e-01 
 4.06250000e-05  5.94375000e-01  9.28213502e-03  5.94375000e-01  1.97403090e-01 
 4.08750000e-05  5.98125000e-01  9.49405108e-03  5.98125000e-01  1.98374979e-01 
 4.11250000e-05  6.01875000e-01  9.70977860e-03  6.01875000e-01  1.99345033e-01 
 4.13750000e-05  6.05625000e-01  9.92934487e-03  6.05625000e-01  2.00313335e-01 
 4.16250000e-05  6.09375000e-01  1.01527766e-02  6.09375000e-01  2.01279970e-01 
 4.18750000e-05  6.13125000e-01  1.03800997e-02  6.13125000e-01  2.02245020e-01 
 4.21250000e-05  6.16875000e-01  1.06113396e-02  6.16875000e-01  2.03208567e-01 
 4.23750000e-05  6.20625000e-01  1.08465209e-02  6.20625000e-01  2.04170691e-01 
 4.26250000e-05  6.24375000e-01  1.10856677e-02  6.24375000e-01  2.05131472e-01 
 4.28750000e-05  6.28125000e-01  1.13288033e-02  6.28125000e-01  2.06090987e-01 
 4.31250000e-05  6.31875000e-01  1.15759504e-02  6.31875000e-01  2.07049314e-01 
 4.33750000e-05  6.35625000e-01  1.18271309e-02  6.35625000e-01  2.08006527e-01 
 4.36250000e-05  6.39375000e-01  1.20823661e-02  6.39375000e-01  2.08962702e-01 
 4.38750000e-05  6.43125000e-01  1.23416768e-02  6.43125000e-01  2.09917911e-01 
 4.41250000e-05  6.46875000e-01  1.26050827e-02  6.46875000e-01  2.10872225e-01 
 4.43750000e-05  6.50625000e-01  1.28726031e-02  6.50625000e-01  2.11825714e-01 
 4.46250000e-05  6.54375000e-01  1.31442565e-02  6.54375000e-01  2.12778449e-01 
 4.48750000e-05  6.58125000e-01  1.34200608e-02  6.58125000e-01  2.13730494e-01 
 4.51250000e-05  6.61875000e-01  1.37000331e-02  6.61875000e-01  2.14681918e-01 
 4.53750000e-05  6.65625000e-01  1.39841896e-02  6.65625000e-01  2.15632784e-01 
 4.56250000e-05  6.69375000e-01  1.42725462e-02  6.69375000e-01  2.16583156e-01 
 4.58750000e-05  6.73125000e-01  1.45651178e-02  6.73125000e-01  2.17533095e-01 
 4.61250000e-05  6.76875000e-01  1.48619185e-02  6.76875000e-01  2.18482662e-01 
 4.63750000e-05  6.80625000e-01  1.51629620e-02  6.80625000e-01  2.19431915e-01 
 4.66250000e-05  6.84375000e-01  1.54682610e-02  6.84375000e-01  2.20380912e-01 
 4.68750000e-05  6.88125000e-01  1.57778275e-02  6.88125000e-01  2.21329708e-01 
 4.71250000e-05  6.91875000e-01  1.60916729e-02  6.91875000e-01  2.22278359e-01 
 4.73750000e-05  6.95625000e-01  1.64098076e-02  6.95625000e-01  2.23226917e-01 
 4.76250000e-05  6.99375000e-01  1.67322416e-02  6.99375000e-01  2.24175433e-01 
 4.78750000e-05  7.03125000e-01  1.70589839e-02  7.03125000e-01  2.25123959e-01 
 4.81250000e-05  7.06875000e-01  1.73900429e-02  7.06875000e-01  2.26072541e-01 
 4.83750000e-05  7.10625000e-01  1.77254261e-02  7.10625000e-01  2.27021228e-01 
 4.86250000e-05  7.14375000e-01  1.80651403e-02  7.14375000e-01  2.27970065e-01 
 4.88750000e-05  7.18125000e-01  1.84091915e-02  7.18125000e-01  2.28919096e-01 
 4.91250000e-05  7.21875000e-01  1.87575851e-02  7.21875000e-01  2.29868364e-01 
 4.93750000e-05  7.25625000e-01  1.91103256e-02  7.25625000e-01  2.30817910e-01 
 4.96250000e-05  7.29375000e-01  1.94674168e-02  7.29375000e-01  2.31767773e-01 
 4.98750000e-05  7.33125000e-01  1.98288615e-02  7.33125000e-01  2.32717993e-01 
 5.01250000e-05  7.36875000e-01  2.01946621e-02  7.36875000e-01  2.33668605e-01 
 5.03750000e-05  7.40625000e-01  2.05648198e-02  7.40625000e-01  2.34619645e-01 
 5.06250000e-05  7.44375000e-01  2.09393355e-02  7.44375000e-01  2.35571147e-01 
 5.08750000e-05  7.48125000e-01  2.13182088e-02  7.48125000e-01  2.36523143e-01 
 5.11250000e-05  7.51875000e-01  2.17014389e-02  7.51875000e-01  2.37475665e-01 
 5.13750000e-05  7.55625000e-01  2.20890238e-02  7.55625000e-01  2.38428740e-01 
 5.16250000e-05  7.59375000e-01  2.24809612e-02  7.59375000e-01  2.39382398e-01 
 5.18750000e-05  7.63125000e-01  2.28772476e-02  7.63125000e-01  2.40336664e-01 
 5.21250000e-05  7.66875000e-01  2.32778788e-02  7.66875000e-01  2.41291563e-01 
 5.23750000e-05  7.70625000e-01  2.36828497e-02  7.70625000e-01  2.42247120e-01 
 5.26250000e-05  7.74375000e-01  2.40921548e-02  7.74375000e-01  2.43203356e-01 
 5.28750000e-05  7.78125000e-01  2.45057871e-02  7.78125000e-01  2.44160291e-01 
 5.31250000e-05  7.81875000e-01  2.49237393e-02  7.81875000e-01  2.45117944e-01 
 5.33750000e-05  7.85625000e-01  2.53460030e-02  7.85625000e-01  2.46076334e-01 
 5.36250000e-05  7.89375000e-01  2.57725691e-02  7.89375000e-01  2.47035476e-01 
 5.38750000e-05  7.93125000e-01  2.62034275e-02  7.93125000e-01  2.47995384e-01 
 5.41250000e-05  7.96875000e-01  2.66385673e-02  7.96875000e-01  2.48956072e-01 
 5.43750000e-05  8.00625000e-01  2.70779769e-02  8.00625000e-01  2.49917551e-01 
 5.46250000e-05  8.04375000e-01  2.75216436e-02  8.04375000e-01  2.50879832e-01 
 5.48750000e-05  8.08125000e-01  2.79695539e-02  8.08125000e-01  2.51842922e-01 
 5.51250000e-05  8.11875000e-01  2.84216935e-02  8.11875000e-01  2.52806830e-01 
 5.53750000e-05  8.15625000e-01  2.88780472e-02  8.15625000e-01  2.53771560e-01 
 5.56250000e-05  8.19375000e-01  2.93385989e-02  8.19375000e-01  2.54737117e-01 
 5.58750000e-05  8.23125000e-01  2.98033315e-02  8.23125000e-01  2.55703503e-01 
 5.61250000e-05  8.26875000e-01  3.02722271e-02  8.26875000e-01  2.56670719e-01 
 5.63750000e-05  8.30625000e-01  3.07452668e-02  8.30625000e-01  2.57638765e-01 
 5.66250000e-05  8.34375000e-01  3.12224310e-02  8.34375000e-01  2.58607638e-01 
 5.68750000e-05  8.38125000e-01  3.17036988e-02  8.38125000e-01  2.59577336e-01 
 5.71250000e-05  8.41875000e-01  3.21890488e-02  8.41875000e-01  2.60547854e-01 
 5.73750000e-05  8.45625000e-01  3.26784582e-02  8.45625000e-01  2.61519183e-01 
 5.76250000e-05  8.49375000e-01  3.31719037e-02  8.49375000e-01  2.62491317e-01 
 5.78750000e-05  8.53125000e-01  3.36693608e-02  8.53125000e-01  2.63464245e-01 
 5.81250000e-05  8.56875000e-01  3.41708042e-02  8.56875000e-01  2.64437957e-01 
 5.83750000e-05  8.60625000e-01  3.46762073e-02  8.60625000e-01  2.65412439e-01 
 5.86250000e-05  8.64375000e-01  3.51855428e-02  8.64375000e-01  2.66387677e-01 
