 time            v(VDD)          v(Vbias)        v(Vbiasc)       v(bias_en)      v(Vsu)          v(Vres)        
 0.00000000e+00  0.00000000e+00 -4.73705273e-02 -7.97487254e-02  0.00000000e+00 -6.33350332e-05 -2.78161896e-02 
 1.00000000e-13  0.00000000e+00 -4.73705246e-02 -7.97487253e-02  0.00000000e+00 -6.33349678e-05 -2.78139761e-02 
 2.00000000e-13  0.00000000e+00 -4.73705211e-02 -7.97487250e-02  0.00000000e+00 -6.33348797e-05 -2.78110743e-02 
 4.00000000e-13  0.00000000e+00 -4.73705131e-02 -7.97487244e-02  0.00000000e+00 -6.33346763e-05 -2.78044529e-02 
 8.00000000e-13  0.00000000e+00 -4.73704947e-02 -7.97487229e-02  0.00000000e+00 -6.33342011e-05 -2.77892463e-02 
 1.60000000e-12  0.00000000e+00 -4.73704573e-02 -7.97487197e-02  0.00000000e+00 -6.33332281e-05 -2.77582983e-02 
 3.20000000e-12  0.00000000e+00 -4.73703776e-02 -7.97487130e-02  0.00000000e+00 -6.33311606e-05 -2.76924353e-02 
 6.40000000e-12  0.00000000e+00 -4.73701671e-02 -7.97486954e-02  0.00000000e+00 -6.33256991e-05 -2.75182640e-02 
 1.00000000e-11  0.00000000e+00 -4.73699127e-02 -7.97486740e-02  0.00000000e+00 -6.33190864e-05 -2.73076361e-02 
 1.06400000e-11  0.00000000e+00 -4.73699050e-02 -7.97486732e-02  0.00000000e+00 -6.33188717e-05 -2.73012335e-02 
 1.19200000e-11  0.00000000e+00 -4.73699001e-02 -7.97486727e-02  0.00000000e+00 -6.33187354e-05 -2.72971558e-02 
 1.44800000e-11  0.00000000e+00 -4.73698881e-02 -7.97486717e-02  0.00000000e+00 -6.33184313e-05 -2.72872544e-02 
 1.96000000e-11  0.00000000e+00 -4.73698358e-02 -7.97486672e-02  0.00000000e+00 -6.33170681e-05 -2.72438808e-02 
 2.98400000e-11  0.00000000e+00 -4.73697245e-02 -7.97486577e-02  0.00000000e+00 -6.33141782e-05 -2.71516445e-02 
 5.03200000e-11  0.00000000e+00 -4.73695037e-02 -7.97486386e-02  0.00000000e+00 -6.33084354e-05 -2.69686037e-02 
 9.12800000e-11  0.00000000e+00 -4.73690889e-02 -7.97486024e-02  0.00000000e+00 -6.32976522e-05 -2.66246397e-02 
 1.73200000e-10  0.00000000e+00 -4.73683389e-02 -7.97485352e-02  0.00000000e+00 -6.32781326e-05 -2.60011108e-02 
 3.37040000e-10  0.00000000e+00 -4.73671227e-02 -7.97484203e-02  0.00000000e+00 -6.32464379e-05 -2.49876547e-02 
 6.64720000e-10  0.00000000e+00 -4.73654956e-02 -7.97482473e-02  0.00000000e+00 -6.32038645e-05 -2.36261014e-02 
 1.32008000e-09  0.00000000e+00 -4.73640149e-02 -7.97480349e-02  0.00000000e+00 -6.31646015e-05 -2.23751363e-02 
 2.63080000e-09  0.00000000e+00 -4.73634114e-02 -7.97478270e-02  0.00000000e+00 -6.31471328e-05 -2.18608150e-02 
 5.25224000e-09  0.00000000e+00 -4.73634572e-02 -7.97476591e-02  0.00000000e+00 -6.31449163e-05 -2.19019407e-02 
 9.62049254e-09  0.00000000e+00 -4.73634092e-02 -7.97475890e-02  0.00000000e+00 -6.31384948e-05 -2.18841179e-02 
 1.83569976e-08  0.00000000e+00 -4.73633360e-02 -7.97476263e-02  0.00000000e+00 -6.31268286e-05 -2.18961833e-02 
 3.58300078e-08  0.00000000e+00 -4.73631117e-02 -7.97476960e-02  0.00000000e+00 -6.31022952e-05 -2.18862370e-02 
 7.07760281e-08  0.00000000e+00 -4.73626651e-02 -7.97476722e-02  0.00000000e+00 -6.30552673e-05 -2.18954509e-02 
 1.40668069e-07  0.00000000e+00 -4.73617620e-02 -7.97474780e-02  0.00000000e+00 -6.29660479e-05 -2.18866777e-02 
 2.65668069e-07  0.00000000e+00 -4.73603464e-02 -7.97470190e-02  0.00000000e+00 -6.28199353e-05 -2.18948457e-02 
 3.90668069e-07  0.00000000e+00 -4.73590898e-02 -7.97464751e-02  0.00000000e+00 -6.26811958e-05 -2.18856170e-02 
 5.15668069e-07  0.00000000e+00 -4.73579910e-02 -7.97458793e-02  0.00000000e+00 -6.25426682e-05 -2.18928026e-02 
 6.40668069e-07  0.00000000e+00 -4.73569841e-02 -7.97452586e-02  0.00000000e+00 -6.23951195e-05 -2.18832592e-02 
 7.65668069e-07  0.00000000e+00 -4.73560890e-02 -7.97446265e-02  0.00000000e+00 -6.22310725e-05 -2.18897004e-02 
 8.90668069e-07  0.00000000e+00 -4.73552537e-02 -7.97439945e-02  0.00000000e+00 -6.20414849e-05 -2.18799935e-02 
 1.00000000e-06  0.00000000e+00 -4.73545972e-02 -7.97434467e-02  0.00000000e+00 -6.18500380e-05 -2.18860656e-02 
 1.01250000e-06  1.87500000e-04 -4.73512049e-02 -7.96524451e-02  1.87500000e-04 -5.48318011e-05 -2.18820837e-02 
 1.03750000e-06  5.62500000e-04 -4.73397680e-02 -7.94425167e-02  5.62500000e-04 -4.02628931e-05 -2.18812432e-02 
 1.08750000e-06  1.31250000e-03 -4.73031474e-02 -7.89749731e-02  1.31250000e-03 -8.67519914e-06 -2.18803152e-02 
 1.18750000e-06  2.81250000e-03 -4.72238152e-02 -7.80302418e-02  2.81250000e-03  6.09427712e-05 -2.18775968e-02 
 1.31250000e-06  4.68750000e-03 -4.71256763e-02 -7.68479727e-02  4.68750000e-03  1.56527312e-04 -2.18745914e-02 
 1.43750000e-06  6.56250000e-03 -4.70270020e-02 -7.56679591e-02  6.56250000e-03  2.58675203e-04 -2.18709300e-02 
 1.56250000e-06  8.43750000e-03 -4.69286356e-02 -7.44860175e-02  8.43750000e-03  3.65124962e-04 -2.18675764e-02 
 1.68750000e-06  1.03125000e-02 -4.68299608e-02 -7.33064375e-02  1.03125000e-02  4.74391121e-04 -2.18636010e-02 
 1.81250000e-06  1.21875000e-02 -4.67314061e-02 -7.21251834e-02  1.21875000e-02  5.85644771e-04 -2.18599314e-02 
 1.93750000e-06  1.40625000e-02 -4.66325263e-02 -7.09459733e-02  1.40625000e-02  6.98234644e-04 -2.18556718e-02 
 2.06250000e-06  1.59375000e-02 -4.65336503e-02 -6.97651861e-02  1.59375000e-02  8.11568530e-04 -2.18517151e-02 
 2.18750000e-06  1.78125000e-02 -4.64345972e-02 -6.85863040e-02  1.78125000e-02  9.25382301e-04 -2.18471979e-02 
 2.31250000e-06  1.96875000e-02 -4.63355352e-02 -6.74062187e-02  1.96875000e-02  1.03951768e-03 -2.18429795e-02 
 2.43750000e-06  2.15625000e-02 -4.62362999e-02 -6.62277525e-02  2.15625000e-02  1.15388442e-03 -2.18382270e-02 
 2.56250000e-06  2.34375000e-02 -4.61370344e-02 -6.50483600e-02  2.34375000e-02  1.26844030e-03 -2.18337674e-02 
 2.68750000e-06  2.53125000e-02 -4.60376047e-02 -6.38703713e-02  2.53125000e-02  1.38317383e-03 -2.18287976e-02 
 2.81250000e-06  2.71875000e-02 -4.59381249e-02 -6.26916787e-02  2.71875000e-02  1.49809584e-03 -2.18241138e-02 
 2.93750000e-06  2.90625000e-02 -4.58384891e-02 -6.15142208e-02  2.90625000e-02  1.61323048e-03 -2.18189415e-02 
 3.06250000e-06  3.09375000e-02 -4.57387861e-02 -6.03362436e-02  3.09375000e-02  1.72861257e-03 -2.18140472e-02 
 3.18750000e-06  3.28125000e-02 -4.56389335e-02 -5.91593669e-02  3.28125000e-02  1.84428229e-03 -2.18086842e-02 
 3.31250000e-06  3.46875000e-02 -4.55389993e-02 -5.79821266e-02  3.46875000e-02  1.96028528e-03 -2.18035905e-02 
 3.43750000e-06  3.65625000e-02 -4.54389197e-02 -5.68058809e-02  3.65625000e-02  2.07666905e-03 -2.17980461e-02 
 3.56250000e-06  3.84375000e-02 -4.53387462e-02 -5.56294044e-02  3.84375000e-02  2.19348445e-03 -2.17927617e-02 
 3.68750000e-06  4.03125000e-02 -4.52384298e-02 -5.44538397e-02  4.03125000e-02  2.31078281e-03 -2.17870433e-02 
 3.81250000e-06  4.21875000e-02 -4.51380087e-02 -5.32781591e-02  4.21875000e-02  2.42861812e-03 -2.17815750e-02 
 3.93750000e-06  4.40625000e-02 -4.50374456e-02 -5.21033268e-02  4.40625000e-02  2.54704458e-03 -2.17756879e-02 
 4.06250000e-06  4.59375000e-02 -4.49367685e-02 -5.09284790e-02  4.59375000e-02  2.66611902e-03 -2.17700407e-02 
 4.18750000e-06  4.78125000e-02 -4.48359487e-02 -4.97544326e-02  4.78125000e-02  2.78589875e-03 -2.17639887e-02 
 4.31250000e-06  4.96875000e-02 -4.47350066e-02 -4.85804597e-02  4.96875000e-02  2.90644405e-03 -2.17581663e-02 
 4.43750000e-06  5.15625000e-02 -4.46339203e-02 -4.74072549e-02  5.15625000e-02  3.02781622e-03 -2.17519519e-02 
 4.56250000e-06  5.34375000e-02 -4.45327041e-02 -4.62342039e-02  5.34375000e-02  3.15008010e-03 -2.17459564e-02 
 4.68750000e-06  5.53125000e-02 -4.44313410e-02 -4.50618997e-02  5.53125000e-02  3.27330231e-03 -2.17395808e-02 
 4.81250000e-06  5.71875000e-02 -4.43298408e-02 -4.38898229e-02  5.71875000e-02  3.39755374e-03 -2.17334135e-02 
 4.93750000e-06  5.90625000e-02 -4.42281905e-02 -4.27184817e-02  5.90625000e-02  3.52290792e-03 -2.17268768e-02 
 5.06250000e-06  6.09375000e-02 -4.41263962e-02 -4.15474365e-02  6.09375000e-02  3.64944351e-03 -2.17205377e-02 
 5.18750000e-06  6.28125000e-02 -4.40244479e-02 -4.03771249e-02  6.28125000e-02  3.77724296e-03 -2.17138394e-02 
 5.31250000e-06  6.46875000e-02 -4.39223490e-02 -3.92071741e-02  6.46875000e-02  3.90639478e-03 -2.17073279e-02 
 5.43750000e-06  6.65625000e-02 -4.38200917e-02 -3.80379630e-02  6.65625000e-02  4.03699256e-03 -2.17004666e-02 
 5.56250000e-06  6.84375000e-02 -4.37176772e-02 -3.68691752e-02  6.84375000e-02  4.16913721e-03 -2.16937813e-02 
 5.68750000e-06  7.03125000e-02 -4.36150993e-02 -3.57011403e-02  7.03125000e-02  4.30293613e-03 -2.16867551e-02 
 5.81250000e-06  7.21875000e-02 -4.35123579e-02 -3.45335900e-02  7.21875000e-02  4.43850556e-03 -2.16798944e-02 
 5.93750000e-06  7.40625000e-02 -4.34094476e-02 -3.33668125e-02  7.40625000e-02  4.57597000e-03 -2.16727010e-02 
 6.06250000e-06  7.59375000e-02 -4.33063672e-02 -3.22005802e-02  7.59375000e-02  4.71546453e-03 -2.16656630e-02 
 6.18750000e-06  7.78125000e-02 -4.32031122e-02 -3.10351467e-02  7.78125000e-02  4.85713464e-03 -2.16583002e-02 
 6.31250000e-06  7.96875000e-02 -4.30996804e-02 -2.98703197e-02  7.96875000e-02  5.00113858e-03 -2.16510829e-02 
 6.43750000e-06  8.15625000e-02 -4.29960677e-02 -2.87063231e-02  8.15625000e-02  5.14764750e-03 -2.16435487e-02 
 6.56250000e-06  8.34375000e-02 -4.28922715e-02 -2.75429950e-02  8.34375000e-02  5.29684806e-03 -2.16361507e-02 
 6.68750000e-06  8.53125000e-02 -4.27882880e-02 -2.63805347e-02  8.53125000e-02  5.44894287e-03 -2.16284434e-02 
 6.81250000e-06  8.71875000e-02 -4.26841139e-02 -2.52188064e-02  8.71875000e-02  5.60415333e-03 -2.16208639e-02 
 6.93750000e-06  8.90625000e-02 -4.25797453e-02 -2.40579885e-02  8.90625000e-02  5.76272058e-03 -2.16129832e-02 
 7.06250000e-06  9.09375000e-02 -4.24751788e-02 -2.28979680e-02  9.09375000e-02  5.92490857e-03 -2.16052225e-02 
 7.18750000e-06  9.28125000e-02 -4.23704105e-02 -2.17389059e-02  9.28125000e-02  6.09100562e-03 -2.15971689e-02 
 7.31250000e-06  9.46875000e-02 -4.22654365e-02 -2.05807089e-02  9.46875000e-02  6.26132788e-03 -2.15892287e-02 
 7.43750000e-06  9.65625000e-02 -4.21602528e-02 -1.94235232e-02  9.65625000e-02  6.43622148e-03 -2.15810045e-02 
 7.56250000e-06  9.84375000e-02 -4.20548551e-02 -1.82672731e-02  9.84375000e-02  6.61606654e-03 -2.15728882e-02 
 7.68750000e-06  1.00312500e-01 -4.19492392e-02 -1.71120922e-02  1.00312500e-01  6.80128012e-03 -2.15644974e-02 
 7.81250000e-06  1.02187500e-01 -4.18434004e-02 -1.59579203e-02  1.02187500e-01  6.99232084e-03 -2.15562100e-02 
 7.87501000e-06  1.03125150e-01 -4.17903692e-02 -1.53810776e-02  1.03125150e-01  7.09021290e-03 -2.15518990e-02 
 7.87501100e-06  1.03125165e-01 -4.17904287e-02 -1.53810734e-02  1.03125165e-01  7.09021291e-03 -2.16018429e-02 
 7.87501300e-06  1.03125195e-01 -4.17905614e-02 -1.53810665e-02  1.03125195e-01  7.09021254e-03 -2.17131212e-02 
 7.87501700e-06  1.03125255e-01 -4.17908234e-02 -1.53810525e-02  1.03125255e-01  7.09021187e-03 -2.19326098e-02 
 7.87502000e-06  1.03125300e-01 -4.17909698e-02 -1.53810377e-02  1.03125300e-01  7.09021269e-03 -2.20557336e-02 
 7.87502080e-06  1.03125312e-01 -4.17909728e-02 -1.53810307e-02  1.03125312e-01  7.09021385e-03 -2.20587600e-02 
 7.87502240e-06  1.03125336e-01 -4.17909724e-02 -1.53810161e-02  1.03125336e-01  7.09021634e-03 -2.20595974e-02 
 7.87502560e-06  1.03125384e-01 -4.17909688e-02 -1.53809865e-02  1.03125384e-01  7.09022142e-03 -2.20588952e-02 
 7.87503200e-06  1.03125480e-01 -4.17909640e-02 -1.53809276e-02  1.03125480e-01  7.09023152e-03 -2.20593996e-02 
 7.87504480e-06  1.03125672e-01 -4.17909523e-02 -1.53808095e-02  1.03125672e-01  7.09025176e-03 -2.20586935e-02 
 7.87507040e-06  1.03126056e-01 -4.17909308e-02 -1.53805736e-02  1.03126056e-01  7.09029219e-03 -2.20589233e-02 
 7.87512160e-06  1.03126824e-01 -4.17908860e-02 -1.53801015e-02  1.03126824e-01  7.09037311e-03 -2.20578387e-02 
 7.87522400e-06  1.03128360e-01 -4.17907984e-02 -1.53791576e-02  1.03128360e-01  7.09053489e-03 -2.20573808e-02 
 7.87542880e-06  1.03131432e-01 -4.17906218e-02 -1.53772693e-02  1.03131432e-01  7.09085851e-03 -2.20553208e-02 
 7.87583840e-06  1.03137576e-01 -4.17902717e-02 -1.53734925e-02  1.03137576e-01  7.09150572e-03 -2.20536667e-02 
 7.87665760e-06  1.03149864e-01 -4.17895718e-02 -1.53659371e-02  1.03149864e-01  7.09280035e-03 -2.20505111e-02 
 7.87829600e-06  1.03174440e-01 -4.17881771e-02 -1.53508219e-02  1.03174440e-01  7.09539032e-03 -2.20479536e-02 
 7.88157280e-06  1.03223592e-01 -4.17853908e-02 -1.53205833e-02  1.03223592e-01  7.10057363e-03 -2.20442321e-02 
 7.88812640e-06  1.03321896e-01 -4.17798273e-02 -1.52601016e-02  1.03321896e-01  7.11095375e-03 -2.20405595e-02 
 7.90123360e-06  1.03518504e-01 -4.17687132e-02 -1.51391659e-02  1.03518504e-01  7.13176880e-03 -2.20352558e-02 
 7.92744800e-06  1.03911720e-01 -4.17465090e-02 -1.48974050e-02  1.03911720e-01  7.17362120e-03 -2.20304230e-02 
 7.97987680e-06  1.04698152e-01 -4.17021050e-02 -1.44141427e-02  1.04698152e-01  7.25823755e-03 -2.20232226e-02 
 8.00000000e-06  1.05000000e-01 -4.16850552e-02 -1.42287292e-02  1.05000000e-01  7.29104261e-03 -2.20216956e-02 
 8.00000100e-06  1.05000015e-01 -4.16850116e-02 -1.42287164e-02  1.05000015e-01  7.29104536e-03 -2.19863693e-02 
 8.00000300e-06  1.05000045e-01 -4.16849141e-02 -1.42286897e-02  1.05000045e-01  7.29105115e-03 -2.19072481e-02 
 8.00000700e-06  1.05000105e-01 -4.16846440e-02 -1.42286299e-02  1.05000105e-01  7.29106470e-03 -2.16866597e-02 
 8.00001000e-06  1.05000150e-01 -4.16844210e-02 -1.42285833e-02  1.05000150e-01  7.29107541e-03 -2.15042718e-02 
 8.00001080e-06  1.05000162e-01 -4.16844089e-02 -1.42285747e-02  1.05000162e-01  7.29107703e-03 -2.14947599e-02 
 8.00001240e-06  1.05000186e-01 -4.16843949e-02 -1.42285588e-02  1.05000186e-01  7.29107999e-03 -2.14843153e-02 
 8.00001560e-06  1.05000234e-01 -4.16843570e-02 -1.42285263e-02  1.05000234e-01  7.29108614e-03 -2.14551961e-02 
 8.00002200e-06  1.05000330e-01 -4.16842472e-02 -1.42284582e-02  1.05000330e-01  7.29109935e-03 -2.13687150e-02 
 8.00003480e-06  1.05000522e-01 -4.16840265e-02 -1.42283220e-02  1.05000522e-01  7.29112580e-03 -2.11948395e-02 
 8.00006040e-06  1.05000906e-01 -4.16835957e-02 -1.42280500e-02  1.05000906e-01  7.29117843e-03 -2.08557053e-02 
 8.00011160e-06  1.05001674e-01 -4.16827895e-02 -1.42275103e-02  1.05001674e-01  7.29128223e-03 -2.02229122e-02 
 8.00021400e-06  1.05003210e-01 -4.16813590e-02 -1.42264440e-02  1.05003210e-01  7.29148507e-03 -1.91062155e-02 
 8.00041880e-06  1.05006282e-01 -4.16791061e-02 -1.42243558e-02  1.05006282e-01  7.29187482e-03 -1.73727647e-02 
 8.00082840e-06  1.05012426e-01 -4.16762347e-02 -1.42203021e-02  1.05012426e-01  7.29261156e-03 -1.52513872e-02 
 8.00164760e-06  1.05024714e-01 -4.16736279e-02 -1.42124471e-02  1.05024714e-01  7.29400303e-03 -1.36279363e-02 
 8.00328600e-06  1.05049290e-01 -4.16717537e-02 -1.41970777e-02  1.05049290e-01  7.29669925e-03 -1.32216185e-02 
 8.00584339e-06  1.05087651e-01 -4.16696681e-02 -1.41733300e-02  1.05087651e-01  7.30088796e-03 -1.32992093e-02 
 8.01019241e-06  1.05152886e-01 -4.16659071e-02 -1.41331581e-02  1.05152886e-01  7.30802328e-03 -1.32654546e-02 
 8.01889044e-06  1.05283357e-01 -4.16584501e-02 -1.40530600e-02  1.05283357e-01  7.32231784e-03 -1.32864189e-02 
 8.03628651e-06  1.05544298e-01 -4.16434050e-02 -1.38929491e-02  1.05544298e-01  7.35101507e-03 -1.32665512e-02 
 8.07107865e-06  1.06066180e-01 -4.16133011e-02 -1.35725795e-02  1.06066180e-01  7.40883576e-03 -1.32795307e-02 
 8.14066294e-06  1.07109944e-01 -4.15529556e-02 -1.29318012e-02  1.07109944e-01  7.52623146e-03 -1.32581147e-02 
 8.26566294e-06  1.08984944e-01 -4.14445358e-02 -1.17813781e-02  1.08984944e-01  7.74328805e-03 -1.32646566e-02 
 8.39066294e-06  1.10859944e-01 -4.13359583e-02 -1.06317641e-02  1.10859944e-01  7.96891145e-03 -1.32419313e-02 
 8.51566294e-06  1.12734944e-01 -4.12273075e-02 -9.48311379e-03  1.12734944e-01  8.20399184e-03 -1.32491490e-02 
 8.64066294e-06  1.14609944e-01 -4.11185320e-02 -8.33565896e-03  1.14609944e-01  8.44943063e-03 -1.32272787e-02 
 8.76566294e-06  1.16484944e-01 -4.10096472e-02 -7.18941511e-03  1.16484944e-01  8.70621467e-03 -1.32340790e-02 
 8.89066294e-06  1.18359944e-01 -4.09005710e-02 -6.04447734e-03  1.18359944e-01  8.97542632e-03 -1.32125856e-02 
 9.01566294e-06  1.20234944e-01 -4.07913425e-02 -4.90090808e-03  1.20234944e-01  9.25824518e-03 -1.32186713e-02 
 9.14066294e-06  1.22109944e-01 -4.06818789e-02 -3.75876887e-03  1.22109944e-01  9.55596394e-03 -1.31973310e-02 
 9.26566294e-06  1.23984944e-01 -4.05722246e-02 -2.61812453e-03  1.23984944e-01  9.86999195e-03 -1.32025837e-02 
 9.39066294e-06  1.25859944e-01 -4.04622999e-02 -1.47902543e-03  1.25859944e-01  1.02018730e-02 -1.31812910e-02 
 9.51566294e-06  1.27734944e-01 -4.03521498e-02 -3.41532528e-04  1.27734944e-01  1.05532900e-02 -1.31856743e-02 
 9.64066294e-06  1.29609944e-01 -4.02416976e-02  7.94308369e-04  1.29609944e-01  1.09260826e-02 -1.31643870e-02 
 9.76566294e-06  1.31484944e-01 -4.01309867e-02  1.92843939e-03  1.31484944e-01  1.13222511e-02 -1.31679171e-02 
 9.89066294e-06  1.33359944e-01 -4.00199425e-02  3.06081651e-03  1.33359944e-01  1.17439727e-02 -1.31466468e-02 
 1.00156629e-05  1.35234944e-01 -3.99086063e-02  4.19138347e-03  1.35234944e-01  1.21936020e-02 -1.31494020e-02 
 1.01406629e-05  1.37109944e-01 -3.97969048e-02  5.32009641e-03  1.37109944e-01  1.26736828e-02 -1.31282423e-02 
 1.02656629e-05  1.38984944e-01 -3.96848765e-02  6.44689949e-03  1.38984944e-01  1.31869430e-02 -1.31304107e-02 
 1.03906629e-05  1.40859944e-01 -3.95724490e-02  7.57174798e-03  1.40859944e-01  1.37362977e-02 -1.31096022e-02 
 1.05156629e-05  1.42734944e-01 -3.94596577e-02  8.69458538e-03  1.42734944e-01  1.43248347e-02 -1.31115399e-02 
 1.06406629e-05  1.44609944e-01 -3.93464307e-02  9.81536511e-03  1.44609944e-01  1.49558057e-02 -1.30914572e-02 
 1.07656629e-05  1.46484944e-01 -3.92328002e-02  1.09340290e-02  1.46484944e-01  1.56325973e-02 -1.30935137e-02 
 1.08906629e-05  1.48359944e-01 -3.91186941e-02  1.20505275e-02  1.48359944e-01  1.63587071e-02 -1.30742957e-02 
 1.10156629e-05  1.50234944e-01 -3.90041412e-02  1.31647993e-02  1.50234944e-01  1.71376987e-02 -1.30763883e-02 
 1.11406629e-05  1.52109944e-01 -3.88890692e-02  1.42767907e-02  1.52109944e-01  1.79731610e-02 -1.30577330e-02 
 1.12656629e-05  1.53984944e-01 -3.87735037e-02  1.53864356e-02  1.53984944e-01  1.88686485e-02 -1.30595267e-02 
 1.13906629e-05  1.55859944e-01 -3.86573723e-02  1.64936742e-02  1.55859944e-01  1.98276272e-02 -1.30411252e-02 
 1.15156629e-05  1.57734944e-01 -3.85406977e-02  1.75984341e-02  1.57734944e-01  2.08534067e-02 -1.30424288e-02 
 1.16406629e-05  1.59609944e-01 -3.84234076e-02  1.87006476e-02  1.59609944e-01  2.19490816e-02 -1.30241466e-02 
 1.17656629e-05  1.61484944e-01 -3.83055218e-02  1.98002344e-02  1.61484944e-01  2.31174641e-02 -1.30249054e-02 
 1.18906629e-05  1.63359944e-01 -3.81869681e-02  2.08971175e-02  1.63359944e-01  2.43610308e-02 -1.30066966e-02 
 1.20156629e-05  1.65234944e-01 -3.80677637e-02  2.19912076e-02  1.65234944e-01  2.56818650e-02 -1.30069057e-02 
 1.21406629e-05  1.67109944e-01 -3.79478367e-02  2.30824178e-02  1.67109944e-01  2.70816117e-02 -1.29887509e-02 
 1.22656629e-05  1.68984944e-01 -3.78272013e-02  2.41706492e-02  1.68984944e-01  2.85614266e-02 -1.29884178e-02 
 1.23906629e-05  1.70859944e-01 -3.77057858e-02  2.52558056e-02  1.70859944e-01  3.01219308e-02 -1.29703037e-02 
 1.25156629e-05  1.72734944e-01 -3.75836017e-02  2.63377792e-02  1.72734944e-01  3.17631457e-02 -1.29694373e-02 
 1.26406629e-05  1.74609944e-01 -3.74605770e-02  2.74164651e-02  1.74609944e-01  3.34844183e-02 -1.29513516e-02 
 1.27656629e-05  1.76484944e-01 -3.73367865e-02  2.84919488e-02  1.76484944e-01  3.52843036e-02 -1.29499778e-02 
 1.28906629e-05  1.78359944e-01 -3.72122777e-02  2.95632796e-02  1.78359944e-01  3.71600525e-02 -1.29318922e-02 
 1.30156629e-05  1.80234944e-01 -3.70868071e-02  3.06311747e-02  1.80234944e-01  3.91073840e-02 -1.29300014e-02 
