 frequency       v(L_dB)         v(L_arg)        v(Tmb_dB)       v(Tmb_arg)      v(Ttian_dB)     v(Ttian_arg)   
 1.00000000e-02  9.16574187e+00  1.12239676e+02  3.40784366e+01  1.14250696e+00  3.40770959e+01  1.14730131e+00 
 1.02305973e-02  9.34067117e+00  1.11859101e+02  3.40786247e+01  1.16882167e+00  3.40773003e+01  1.17361358e+00 
 1.04665121e-02  9.51655386e+00  1.11486831e+02  3.40788215e+01  1.19574097e+00  3.40775135e+01  1.20052803e+00 
 1.07078670e-02  9.69335884e+00  1.11122848e+02  3.40790275e+01  1.22327867e+00  3.40777358e+01  1.22805847e+00 
 1.09547876e-02  9.87105581e+00  1.10767129e+02  3.40792432e+01  1.25144885e+00  3.40779676e+01  1.25621902e+00 
 1.12074020e-02  1.00496153e+01  1.10419645e+02  3.40794688e+01  1.28026591e+00  3.40782094e+01  1.28502410e+00 
 1.14658417e-02  1.02290086e+01  1.10080366e+02  3.40797050e+01  1.30974460e+00  3.40784617e+01  1.31448848e+00 
 1.17302409e-02  1.04092080e+01  1.09749255e+02  3.40799522e+01  1.33989994e+00  3.40787247e+01  1.34462725e+00 
 1.20007371e-02  1.05901864e+01  1.09426274e+02  3.40802109e+01  1.37074734e+00  3.40789992e+01  1.37545585e+00 
 1.22774708e-02  1.07719177e+01  1.09111381e+02  3.40804816e+01  1.40230252e+00  3.40792856e+01  1.40699004e+00 
 1.25605860e-02  1.09543767e+01  1.08804530e+02  3.40807650e+01  1.43458154e+00  3.40795844e+01  1.43924595e+00 
 1.28502297e-02  1.11375388e+01  1.08505676e+02  3.40810615e+01  1.46760082e+00  3.40798962e+01  1.47224007e+00 
 1.31465525e-02  1.13213805e+01  1.08214768e+02  3.40813718e+01  1.50137716e+00  3.40802217e+01  1.50598924e+00 
 1.34497085e-02  1.15058790e+01  1.07931755e+02  3.40816966e+01  1.53592769e+00  3.40805614e+01  1.54051069e+00 
 1.37598551e-02  1.16910124e+01  1.07656586e+02  3.40820365e+01  1.57126995e+00  3.40809160e+01  1.57582200e+00 
 1.40771537e-02  1.18767596e+01  1.07389205e+02  3.40823922e+01  1.60742183e+00  3.40812862e+01  1.61194116e+00 
 1.44017690e-02  1.20631003e+01  1.07129557e+02  3.40827645e+01  1.64440163e+00  3.40816728e+01  1.64888653e+00 
 1.47338699e-02  1.22500150e+01  1.06877586e+02  3.40831541e+01  1.68222804e+00  3.40820764e+01  1.68667689e+00 
 1.50736290e-02  1.24374852e+01  1.06633236e+02  3.40835618e+01  1.72092014e+00  3.40824979e+01  1.72533140e+00 
 1.54212228e-02  1.26254928e+01  1.06396450e+02  3.40839884e+01  1.76049743e+00  3.40829381e+01  1.76486965e+00 
 1.57768320e-02  1.28140209e+01  1.06167168e+02  3.40844349e+01  1.80097982e+00  3.40833978e+01  1.80531164e+00 
 1.61406415e-02  1.30030532e+01  1.05945335e+02  3.40849022e+01  1.84238767e+00  3.40838781e+01  1.84667779e+00 
 1.65128404e-02  1.31925742e+01  1.05730893e+02  3.40853912e+01  1.88474174e+00  3.40843799e+01  1.88898897e+00 
 1.68936220e-02  1.33825690e+01  1.05523785e+02  3.40859030e+01  1.92806324e+00  3.40849041e+01  1.93226647e+00 
 1.72831844e-02  1.35730237e+01  1.05323953e+02  3.40864385e+01  1.97237383e+00  3.40854518e+01  1.97653203e+00 
 1.76817299e-02  1.37639250e+01  1.05131342e+02  3.40869989e+01  2.01769562e+00  3.40860241e+01  2.02180786e+00 
 1.80894658e-02  1.39552603e+01  1.04945897e+02  3.40875853e+01  2.06405119e+00  3.40866221e+01  2.06811661e+00 
 1.85066040e-02  1.41470178e+01  1.04767562e+02  3.40881990e+01  2.11146356e+00  3.40872471e+01  2.11548141e+00 
 1.89333613e-02  1.43391863e+01  1.04596285e+02  3.40888412e+01  2.15995627e+00  3.40879004e+01  2.16392585e+00 
 1.93699595e-02  1.45317555e+01  1.04432013e+02  3.40895132e+01  2.20955330e+00  3.40885831e+01  2.21347400e+00 
 1.98166255e-02  1.47247155e+01  1.04274695e+02  3.40902164e+01  2.26027914e+00  3.40892968e+01  2.26415045e+00 
 2.02735916e-02  1.49180574e+01  1.04124282e+02  3.40909523e+01  2.31215879e+00  3.40900428e+01  2.31598025e+00 
 2.07410951e-02  1.51117727e+01  1.03980724e+02  3.40917222e+01  2.36521771e+00  3.40908227e+01  2.36898896e+00 
 2.12193792e-02  1.53058537e+01  1.03843975e+02  3.40925279e+01  2.41948191e+00  3.40916380e+01  2.42320264e+00 
 2.17086923e-02  1.55002933e+01  1.03713989e+02  3.40933710e+01  2.47497790e+00  3.40924904e+01  2.47864789e+00 
 2.22092889e-02  1.56950850e+01  1.03590723e+02  3.40942532e+01  2.53173272e+00  3.40933817e+01  2.53535180e+00 
 2.27214291e-02  1.58902233e+01  1.03474136e+02  3.40951762e+01  2.58977391e+00  3.40943135e+01  2.59334200e+00 
 2.32453791e-02  1.60857028e+01  1.03364187e+02  3.40961421e+01  2.64912958e+00  3.40952879e+01  2.65264664e+00 
 2.37814113e-02  1.62815190e+01  1.03260837e+02  3.40971527e+01  2.70982835e+00  3.40963067e+01  2.71329443e+00 
 2.43298042e-02  1.64776682e+01  1.03164051e+02  3.40982100e+01  2.77189941e+00  3.40973721e+01  2.77531457e+00 
 2.48908429e-02  1.66741471e+01  1.03073794e+02  3.40993164e+01  2.83537246e+00  3.40984861e+01  2.83873687e+00 
 2.54648190e-02  1.68709531e+01  1.02990035e+02  3.41004739e+01  2.90027779e+00  3.40996511e+01  2.90359163e+00 
 2.60520309e-02  1.70680841e+01  1.02912742e+02  3.41016849e+01  2.96664622e+00  3.41008694e+01  2.96990975e+00 
 2.66527837e-02  1.72655389e+01  1.02841887e+02  3.41029520e+01  3.03450913e+00  3.41021435e+01  3.03772264e+00 
 2.72673897e-02  1.74633167e+01  1.02777446e+02  3.41042776e+01  3.10389848e+00  3.41034759e+01  3.10706231e+00 
 2.78961683e-02  1.76614174e+01  1.02719394e+02  3.41056645e+01  3.17484677e+00  3.41048693e+01  3.17796130e+00 
 2.85394464e-02  1.78598416e+01  1.02667709e+02  3.41071155e+01  3.24738707e+00  3.41063265e+01  3.25045271e+00 
 2.91975583e-02  1.80585904e+01  1.02622372e+02  3.41086334e+01  3.32155301e+00  3.41078505e+01  3.32457024e+00 
 2.98708461e-02  1.82576657e+01  1.02583366e+02  3.41102213e+01  3.39737880e+00  3.41094444e+01  3.40034809e+00 
 3.05596598e-02  1.84570699e+01  1.02550676e+02  3.41118825e+01  3.47489918e+00  3.41111112e+01  3.47782107e+00 
 3.12643573e-02  1.86568062e+01  1.02524290e+02  3.41136202e+01  3.55414947e+00  3.41128544e+01  3.55702451e+00 
 3.19853049e-02  1.88568783e+01  1.02504197e+02  3.41154380e+01  3.63516554e+00  3.41146774e+01  3.63799433e+00 
 3.27228774e-02  1.90572907e+01  1.02490390e+02  3.41173395e+01  3.71798382e+00  3.41165840e+01  3.72076695e+00 
 3.34774581e-02  1.92580487e+01  1.02482861e+02  3.41193284e+01  3.80264125e+00  3.41185778e+01  3.80537936e+00 
 3.42494392e-02  1.94591580e+01  1.02481610e+02  3.41214088e+01  3.88917536e+00  3.41206629e+01  3.89186910e+00 
 3.50392221e-02  1.96606251e+01  1.02486633e+02  3.41235848e+01  3.97762415e+00  3.41228434e+01  3.98027421e+00 
 3.58472171e-02  1.98624575e+01  1.02497933e+02  3.41258607e+01  4.06802618e+00  3.41251237e+01  4.07063324e+00 
 3.66738442e-02  2.00646630e+01  1.02515512e+02  3.41282410e+01  4.16042050e+00  3.41275082e+01  4.16298527e+00 
 3.75195331e-02  2.02672506e+01  1.02539378e+02  3.41307305e+01  4.25484663e+00  3.41300017e+01  4.25736985e+00 
 3.83847234e-02  2.04702297e+01  1.02569537e+02  3.41333340e+01  4.35134461e+00  3.41326090e+01  4.35382700e+00 
 3.92698648e-02  2.06736108e+01  1.02606000e+02  3.41360566e+01  4.44995489e+00  3.41353354e+01  4.45239721e+00 
 4.01754173e-02  2.08774050e+01  1.02648781e+02  3.41389038e+01  4.55071839e+00  3.41381862e+01  4.55312139e+00 
 4.11018515e-02  2.10816244e+01  1.02697893e+02  3.41418810e+01  4.65367642e+00  3.41411669e+01  4.65604089e+00 
 4.20496491e-02  2.12862819e+01  1.02753354e+02  3.41449941e+01  4.75887070e+00  3.41442833e+01  4.76119739e+00 
 4.30193027e-02  2.14913913e+01  1.02815183e+02  3.41482492e+01  4.86634329e+00  3.41475416e+01  4.86863300e+00 
 4.40113162e-02  2.16969674e+01  1.02883401e+02  3.41516525e+01  4.97613658e+00  3.41509480e+01  4.97839011e+00 
 4.50262052e-02  2.19030258e+01  1.02958032e+02  3.41552107e+01  5.08829328e+00  3.41545091e+01  5.09051141e+00 
 4.60644974e-02  2.21095832e+01  1.03039102e+02  3.41589306e+01  5.20285634e+00  3.41582319e+01  5.20503987e+00 
 4.71267322e-02  2.23166573e+01  1.03126638e+02  3.41628193e+01  5.31986891e+00  3.41621233e+01  5.32201865e+00 
 4.82134619e-02  2.25242670e+01  1.03220670e+02  3.41668843e+01  5.43937433e+00  3.41661910e+01  5.44149108e+00 
 4.93252513e-02  2.27324320e+01  1.03321229e+02  3.41711333e+01  5.56141607e+00  3.41704425e+01  5.56350063e+00 
 5.04626783e-02  2.29411735e+01  1.03428348e+02  3.41755744e+01  5.68603766e+00  3.41748861e+01  5.68809085e+00 
 5.16263340e-02  2.31505137e+01  1.03542064e+02  3.41802160e+01  5.81328264e+00  3.41795301e+01  5.81530525e+00 
 5.28168234e-02  2.33604759e+01  1.03662413e+02  3.41850669e+01  5.94319449e+00  3.41843832e+01  5.94518735e+00 
 5.40347650e-02  2.35710849e+01  1.03789434e+02  3.41901360e+01  6.07581661e+00  3.41894545e+01  6.07778052e+00 
 5.52807921e-02  2.37823669e+01  1.03923167e+02  3.41954329e+01  6.21119218e+00  3.41947536e+01  6.21312793e+00 
 5.65555523e-02  2.39943492e+01  1.04063654e+02  3.42009674e+01  6.34936411e+00  3.42002901e+01  6.35127251e+00 
 5.78597080e-02  2.42070607e+01  1.04210938e+02  3.42067497e+01  6.49037498e+00  3.42060743e+01  6.49225683e+00 
 5.91939372e-02  2.44205319e+01  1.04365065e+02  3.42127903e+01  6.63426692e+00  3.42121168e+01  6.63612302e+00 
 6.05589334e-02  2.46347948e+01  1.04526080e+02  3.42191003e+01  6.78108151e+00  3.42184286e+01  6.78291264e+00 
 6.19554061e-02  2.48498830e+01  1.04694030e+02  3.42256911e+01  6.93085972e+00  3.42250212e+01  6.93266669e+00 
 6.33840810e-02  2.50658318e+01  1.04868963e+02  3.42325747e+01  7.08364174e+00  3.42319065e+01  7.08542533e+00 
 6.48457008e-02  2.52826786e+01  1.05050929e+02  3.42397632e+01  7.23946692e+00  3.42390966e+01  7.24122791e+00 
 6.63410251e-02  2.55004620e+01  1.05239977e+02  3.42472694e+01  7.39837359e+00  3.42466044e+01  7.40011277e+00 
 6.78708313e-02  2.57192230e+01  1.05436159e+02  3.42551066e+01  7.56039897e+00  3.42544432e+01  7.56211712e+00 
 6.94359143e-02  2.59390048e+01  1.05639524e+02  3.42632885e+01  7.72557903e+00  3.42626266e+01  7.72727692e+00 
 7.10370877e-02  2.61598524e+01  1.05850124e+02  3.42718292e+01  7.89394830e+00  3.42711688e+01  7.89562670e+00 
 7.26751838e-02  2.63818133e+01  1.06068011e+02  3.42807435e+01  8.06553975e+00  3.42800845e+01  8.06719941e+00 
 7.43510539e-02  2.66049370e+01  1.06293236e+02  3.42900465e+01  8.24038460e+00  3.42893888e+01  8.24202629e+00 
 7.60655691e-02  2.68292756e+01  1.06525851e+02  3.42997539e+01  8.41851217e+00  3.42990975e+01  8.42013664e+00 
 7.78196206e-02  2.70548840e+01  1.06765906e+02  3.43098819e+01  8.59994964e+00  3.43092268e+01  8.60155767e+00 
 7.96141200e-02  2.72818195e+01  1.07013451e+02  3.43204473e+01  8.78472194e+00  3.43197935e+01  8.78631424e+00 
 8.14500001e-02  2.75101423e+01  1.07268537e+02  3.43314673e+01  8.97285147e+00  3.43308148e+01  8.97442879e+00 
 8.33282151e-02  2.77399155e+01  1.07531210e+02  3.43429598e+01  9.16435789e+00  3.43423085e+01  9.16592098e+00 
 8.52497412e-02  2.79712055e+01  1.07801519e+02  3.43549432e+01  9.35925795e+00  3.43542931e+01  9.36080753e+00 
 8.72155772e-02  2.82040818e+01  1.08079509e+02  3.43674363e+01  9.55756518e+00  3.43667874e+01  9.55910198e+00 
 8.92267449e-02  2.84386173e+01  1.08365222e+02  3.43804586e+01  9.75928971e+00  3.43798108e+01  9.76081447e+00 
 9.12842895e-02  2.86748885e+01  1.08658701e+02  3.43940301e+01  9.96443798e+00  3.43933835e+01  9.96595141e+00 
 9.33892805e-02  2.89129759e+01  1.08959984e+02  3.44081714e+01  1.01730125e+01  3.44075258e+01  1.01745153e+01 
 9.55428121e-02  2.91529639e+01  1.09269107e+02  3.44229034e+01  1.03850114e+01  3.44222590e+01  1.03865043e+01 
 9.77460036e-02  2.93949409e+01  1.09586103e+02  3.44382479e+01  1.06004285e+01  3.44376046e+01  1.06019122e+01 
 1.00000000e-01  2.96390002e+01  1.09911002e+02  3.44542270e+01  1.08192528e+01  3.44535848e+01  1.08207280e+01 
 1.02305973e-01  2.98852394e+01  1.10243829e+02  3.44708633e+01  1.10414680e+01  3.44702222e+01  1.10429354e+01 
 1.04665121e-01  3.01337613e+01  1.10584605e+02  3.44881800e+01  1.12670525e+01  3.44875399e+01  1.12685128e+01 
 1.07078670e-01  3.03846739e+01  1.10933347e+02  3.45062007e+01  1.14959790e+01  3.45055617e+01  1.14974329e+01 
 1.09547876e-01  3.06380907e+01  1.11290066e+02  3.45249495e+01  1.17282140e+01  3.45243115e+01  1.17296622e+01 
 1.12074020e-01  3.08941313e+01  1.11654770e+02  3.45444509e+01  1.19637177e+01  3.45438140e+01  1.19651609e+01 
 1.14658417e-01  3.11529216e+01  1.12027456e+02  3.45647298e+01  1.22024436e+01  3.45640940e+01  1.22038824e+01 
 1.17302409e-01  3.14145940e+01  1.12408121e+02  3.45858117e+01  1.24443380e+01  3.45851770e+01  1.24457731e+01 
 1.20007371e-01  3.16792883e+01  1.12796749e+02  3.46077220e+01  1.26893398e+01  3.46070884e+01  1.26907720e+01 
 1.22774708e-01  3.19471518e+01  1.13193322e+02  3.46304869e+01  1.29373803e+01  3.46298544e+01  1.29388101e+01 
 1.25605860e-01  3.22183397e+01  1.13597810e+02  3.46541326e+01  1.31883825e+01  3.46535012e+01  1.31898106e+01 
 1.28502297e-01  3.24930166e+01  1.14010176e+02  3.46786855e+01  1.34422610e+01  3.46780553e+01  1.34436881e+01 
 1.31465525e-01  3.27713560e+01  1.14430375e+02  3.47041723e+01  1.36989217e+01  3.47035432e+01  1.37003484e+01 
 1.34497085e-01  3.30535414e+01  1.14858351e+02  3.47306197e+01  1.39582614e+01  3.47299917e+01  1.39596885e+01 
 1.37598551e-01  3.33397676e+01  1.15294038e+02  3.47580545e+01  1.42201675e+01  3.47574277e+01  1.42215955e+01 
 1.40771537e-01  3.36302408e+01  1.15737360e+02  3.47865035e+01  1.44845176e+01  3.47858780e+01  1.44859472e+01 
 1.44017690e-01  3.39251801e+01  1.16188229e+02  3.48159934e+01  1.47511794e+01  3.48153691e+01  1.47526112e+01 
 1.47338699e-01  3.42248183e+01  1.16646545e+02  3.48465508e+01  1.50200102e+01  3.48459278e+01  1.50214449e+01 
 1.50736290e-01  3.45294033e+01  1.17112195e+02  3.48782019e+01  1.52908569e+01  3.48775802e+01  1.52922952e+01 
 1.54212228e-01  3.48391993e+01  1.17585052e+02  3.49109728e+01  1.55635557e+01  3.49103524e+01  1.55649981e+01 
 1.57768320e-01  3.51544886e+01  1.18064976e+02  3.49448891e+01  1.58379317e+01  3.49442701e+01  1.58393787e+01 
 1.61406415e-01  3.54755729e+01  1.18551811e+02  3.49799758e+01  1.61137987e+01  3.49793581e+01  1.61152512e+01 
 1.65128404e-01  3.58027759e+01  1.19045383e+02  3.50162573e+01  1.63909598e+01  3.50156411e+01  1.63924183e+01 
 1.68936220e-01  3.61364449e+01  1.19545504e+02  3.50537576e+01  1.66692063e+01  3.50531428e+01  1.66706713e+01 
 1.72831844e-01  3.64769538e+01  1.20051966e+02  3.50924994e+01  1.69483181e+01  3.50918862e+01  1.69497904e+01 
 1.76817299e-01  3.68247058e+01  1.20564542e+02  3.51325048e+01  1.72280640e+01  3.51318932e+01  1.72295440e+01 
 1.80894658e-01  3.71801371e+01  1.21082983e+02  3.51737949e+01  1.75082009e+01  3.51731849e+01  1.75096893e+01 
 1.85066040e-01  3.75437204e+01  1.21607019e+02  3.52163894e+01  1.77884748e+01  3.52157812e+01  1.77899722e+01 
 1.89333613e-01  3.79159697e+01  1.22136355e+02  3.52603070e+01  1.80686203e+01  3.52597005e+01  1.80701272e+01 
 1.93699595e-01  3.82974455e+01  1.22670670e+02  3.53055648e+01  1.83483611e+01  3.53049600e+01  1.83498781e+01 
 1.98166255e-01  3.86887610e+01  1.23209614e+02  3.53521784e+01  1.86274099e+01  3.53515755e+01  1.86289376e+01 
 2.02735916e-01  3.90905893e+01  1.23752806e+02  3.54001619e+01  1.89054692e+01  3.53995609e+01  1.89070082e+01 
 2.07410951e-01  3.95036721e+01  1.24299827e+02  3.54495275e+01  1.91822314e+01  3.54489285e+01  1.91837822e+01 
 2.12193792e-01  3.99288295e+01  1.24850222e+02  3.55002856e+01  1.94573790e+01  3.54996886e+01  1.94589420e+01 
 2.17086923e-01  4.03669727e+01  1.25403489e+02  3.55524446e+01  1.97305854e+01  3.55518498e+01  1.97321613e+01 
 2.22092889e-01  4.08191181e+01  1.25959073e+02  3.56060107e+01  2.00015156e+01  3.56054181e+01  2.00031048e+01 
 2.27214291e-01  4.12864052e+01  1.26516361e+02  3.56609879e+01  2.02698264e+01  3.56603976e+01  2.02714294e+01 
 2.32453791e-01  4.17701181e+01  1.27074667e+02  3.57173780e+01  2.05351672e+01  3.57167901e+01  2.05367845e+01 
 2.37814113e-01  4.22717119e+01  1.27633221e+02  3.57751801e+01  2.07971811e+01  3.57745946e+01  2.07988133e+01 
 2.43298042e-01  4.27928458e+01  1.28191151e+02  3.58343910e+01  2.10555053e+01  3.58338081e+01  2.10571527e+01 
 2.48908429e-01  4.33354235e+01  1.28747458e+02  3.58950047e+01  2.13097721e+01  3.58944244e+01  2.13114352e+01 
 2.54648190e-01  4.39016454e+01  1.29300985e+02  3.59570124e+01  2.15596100e+01  3.59564348e+01  2.15612891e+01 
 2.60520309e-01  4.44940750e+01  1.29850375e+02  3.60204028e+01  2.18046444e+01  3.60198281e+01  2.18063400e+01 
 2.66527837e-01  4.51157245e+01  1.30394015e+02  3.60851615e+01  2.20444988e+01  3.60845897e+01  2.20462113e+01 
 2.72673897e-01  4.57701675e+01  1.30929951e+02  3.61512712e+01  2.22787959e+01  3.61507024e+01  2.22805256e+01 
 2.78961683e-01  4.64616893e+01  1.31455780e+02  3.62187117e+01  2.25071588e+01  3.62181460e+01  2.25089061e+01 
 2.85394464e-01  4.71954911e+01  1.31968479e+02  3.62874597e+01  2.27292118e+01  3.62868972e+01  2.27309771e+01 
 2.91975583e-01  4.79779721e+01  1.32464166e+02  3.63574890e+01  2.29445822e+01  3.63569299e+01  2.29463656e+01 
 2.98708461e-01  4.88171305e+01  1.32937723e+02  3.64287703e+01  2.31529008e+01  3.64282147e+01  2.31547027e+01 
 3.05596598e-01  4.97231451e+01  1.33382209e+02  3.65012713e+01  2.33538038e+01  3.65007193e+01  2.33556245e+01 
 3.12643573e-01  5.07092494e+01  1.33787908e+02  3.65749566e+01  2.35469336e+01  3.65744083e+01  2.35487732e+01 
 3.19853049e-01  5.17930903e+01  1.34140689e+02  3.66497879e+01  2.37319404e+01  3.66492434e+01  2.37337989e+01 
 3.27228774e-01  5.29989341e+01  1.34419067e+02  3.67257240e+01  2.39084828e+01  3.67251834e+01  2.39103605e+01 
 3.34774581e-01  5.43614472e+01  1.34588545e+02  3.68027206e+01  2.40762299e+01  3.68021841e+01  2.40781271e+01 
 3.42494392e-01  5.59326145e+01  1.34589802e+02  3.68807309e+01  2.42348621e+01  3.68801986e+01  2.42367787e+01 
 3.50392221e-01  5.77955312e+01  1.34311183e+02  3.69597052e+01  2.43840722e+01  3.69591772e+01  2.43860084e+01 
 3.58472171e-01  6.00952319e+01  1.33514404e+02  3.70395911e+01  2.45235668e+01  3.70390676e+01  2.45255226e+01 
 3.66738442e-01  6.31196172e+01  1.31584977e+02  3.71203339e+01  2.46530672e+01  3.71198150e+01  2.46550426e+01 
 3.75195331e-01  6.75689081e+01  1.26330389e+02  3.72018763e+01  2.47723108e+01  3.72013621e+01  2.47743056e+01 
 3.83847234e-01  7.56515114e+01  1.02037896e+02  3.72841588e+01  2.48810516e+01  3.72836495e+01  2.48830660e+01 
 3.92698648e-01  7.50513274e+01 -1.62670302e+00  3.73671200e+01  2.49790619e+01  3.73666157e+01  2.49810955e+01 
 4.01754173e-01  6.75742317e+01 -2.28408012e+01  3.74506962e+01  2.50661325e+01  3.74501971e+01  2.50681852e+01 
 4.11018515e-01  6.35051398e+01 -2.77231170e+01  3.75348223e+01  2.51420740e+01  3.75343284e+01  2.51441456e+01 
 4.20496491e-01  6.07879255e+01 -2.95604093e+01  3.76194312e+01  2.52067172e+01  3.76189427e+01  2.52088076e+01 
 4.30193027e-01  5.87682140e+01 -3.03366464e+01  3.77044547e+01  2.52599146e+01  3.77039718e+01  2.52620232e+01 
 4.40113162e-01  5.71723499e+01 -3.06241012e+01  3.77898232e+01  2.53015393e+01  3.77893460e+01  2.53036659e+01 
 4.50262052e-01  5.58610154e+01 -3.06481220e+01  3.78754663e+01  2.53314876e+01  3.78749949e+01  2.53336318e+01 
 4.60644974e-01  5.47538220e+01 -3.05152960e+01  3.79613125e+01  2.53496778e+01  3.79608470e+01  2.53518393e+01 
 4.71267322e-01  5.38002176e+01 -3.02825854e+01  3.80472898e+01  2.53560513e+01  3.80468304e+01  2.53582296e+01 
 4.82134619e-01  5.29663560e+01 -2.99832244e+01  3.81333259e+01  2.53505728e+01  3.81328728e+01  2.53527675e+01 
 4.93252513e-01  5.22284666e+01 -2.96379347e+01  3.82193483e+01  2.53332300e+01  3.82189015e+01  2.53354404e+01 
 5.04626783e-01  5.15692158e+01 -2.92603290e+01  3.83052845e+01  2.53040343e+01  3.83048441e+01  2.53062596e+01 
 5.16263340e-01  5.09755729e+01 -2.88597351e+01  3.83910621e+01  2.52630196e+01  3.83906283e+01  2.52652593e+01 
 5.28168234e-01  5.04374929e+01 -2.84427714e+01  3.84766095e+01  2.52102436e+01  3.84761824e+01  2.52124971e+01 
