 frequency       v(L_dB)         v(L_arg)        v(Tmb_dB)       v(Tmb_arg)      v(Ttian_dB)     v(Ttian_arg)   
 1.00000000e-02  9.16173135e+00  1.12238421e+02  3.40831514e+01  1.71050553e+00  3.40811319e+01  1.71223094e+00 
 1.02305973e-02  9.33645213e+00  1.11857869e+02  3.40833721e+01  1.74991611e+00  3.40813552e+01  1.75167752e+00 
 1.04665121e-02  9.51211634e+00  1.11485622e+02  3.40836031e+01  1.79023315e+00  3.40815888e+01  1.79203113e+00 
 1.07078670e-02  9.68869241e+00  1.11121662e+02  3.40838448e+01  1.83147737e+00  3.40818333e+01  1.83331250e+00 
 1.09547876e-02  9.86614957e+00  1.10765966e+02  3.40840978e+01  1.87366998e+00  3.40820892e+01  1.87554283e+00 
 1.12074020e-02  1.00444578e+01  1.10418505e+02  3.40843626e+01  1.91683266e+00  3.40823570e+01  1.91874380e+00 
 1.14658417e-02  1.02235880e+01  1.10079248e+02  3.40846398e+01  1.96098757e+00  3.40826373e+01  1.96293757e+00 
 1.17302409e-02  1.04035117e+01  1.09748160e+02  3.40849298e+01  2.00615738e+00  3.40829306e+01  2.00814679e+00 
 1.20007371e-02  1.05842015e+01  1.09425201e+02  3.40852334e+01  2.05236526e+00  3.40832375e+01  2.05439463e+00 
 1.22774708e-02  1.07656304e+01  1.09110330e+02  3.40855511e+01  2.09963488e+00  3.40835587e+01  2.10170476e+00 
 1.25605860e-02  1.09477727e+01  1.08803501e+02  3.40858836e+01  2.14799048e+00  3.40838948e+01  2.15010139e+00 
 1.28502297e-02  1.11306032e+01  1.08504669e+02  3.40862315e+01  2.19745681e+00  3.40842466e+01  2.19960927e+00 
 1.31465525e-02  1.13140977e+01  1.08213783e+02  3.40865957e+01  2.24805916e+00  3.40846147e+01  2.25025369e+00 
 1.34497085e-02  1.14982325e+01  1.07930793e+02  3.40869768e+01  2.29982342e+00  3.40850000e+01  2.30206050e+00 
 1.37598551e-02  1.16829851e+01  1.07655645e+02  3.40873757e+01  2.35277602e+00  3.40854031e+01  2.35505612e+00 
 1.40771537e-02  1.18683335e+01  1.07388285e+02  3.40877932e+01  2.40694399e+00  3.40858250e+01  2.40926758e+00 
 1.44017690e-02  1.20542567e+01  1.07128659e+02  3.40882300e+01  2.46235495e+00  3.40862665e+01  2.46472246e+00 
 1.47338699e-02  1.22407343e+01  1.06876710e+02  3.40886872e+01  2.51903714e+00  3.40867284e+01  2.52144898e+00 
 1.50736290e-02  1.24277466e+01  1.06632382e+02  3.40891657e+01  2.57701941e+00  3.40872119e+01  2.57947598e+00 
 1.54212228e-02  1.26152750e+01  1.06395616e+02  3.40896665e+01  2.63633124e+00  3.40877178e+01  2.63883290e+00 
 1.57768320e-02  1.28033014e+01  1.06166357e+02  3.40901905e+01  2.69700277e+00  3.40882471e+01  2.69954986e+00 
 1.61406415e-02  1.29918083e+01  1.05944545e+02  3.40907389e+01  2.75906478e+00  3.40888011e+01  2.76165761e+00 
 1.65128404e-02  1.31807792e+01  1.05730124e+02  3.40913129e+01  2.82254873e+00  3.40893807e+01  2.82518758e+00 
 1.68936220e-02  1.33701982e+01  1.05523037e+02  3.40919135e+01  2.88748676e+00  3.40899873e+01  2.89017188e+00 
 1.72831844e-02  1.35600500e+01  1.05323227e+02  3.40925421e+01  2.95391172e+00  3.40906219e+01  2.95664331e+00 
 1.76817299e-02  1.37503200e+01  1.05130637e+02  3.40931998e+01  3.02185714e+00  3.40912860e+01  3.02463538e+00 
 1.80894658e-02  1.39409945e+01  1.04945214e+02  3.40938882e+01  3.09135730e+00  3.40919810e+01  3.09418231e+00 
 1.85066040e-02  1.41320602e+01  1.04766901e+02  3.40946085e+01  3.16244720e+00  3.40927081e+01  3.16531906e+00 
 1.89333613e-02  1.43235045e+01  1.04595646e+02  3.40953624e+01  3.23516258e+00  3.40934689e+01  3.23808134e+00 
 1.93699595e-02  1.45153154e+01  1.04431396e+02  3.40961512e+01  3.30953995e+00  3.40942650e+01  3.31250560e+00 
 1.98166255e-02  1.47074816e+01  1.04274100e+02  3.40969767e+01  3.38561660e+00  3.40950979e+01  3.38862909e+00 
 2.02735916e-02  1.48999924e+01  1.04123709e+02  3.40978405e+01  3.46343060e+00  3.40959694e+01  3.46648981e+00 
 2.07410951e-02  1.50928377e+01  1.03980174e+02  3.40987445e+01  3.54302081e+00  3.40968813e+01  3.54612659e+00 
 2.12193792e-02  1.52860078e+01  1.03843448e+02  3.40996904e+01  3.62442693e+00  3.40978354e+01  3.62757905e+00 
 2.17086923e-02  1.54794939e+01  1.03713485e+02  3.41006802e+01  3.70768945e+00  3.40988336e+01  3.71088764e+00 
 2.22092889e-02  1.56732874e+01  1.03590244e+02  3.41017159e+01  3.79284972e+00  3.40998780e+01  3.79609364e+00 
 2.27214291e-02  1.58673805e+01  1.03473680e+02  3.41027997e+01  3.87994995e+00  3.41009707e+01  3.88323919e+00 
 2.32453791e-02  1.60617658e+01  1.03363756e+02  3.41039338e+01  3.96903319e+00  3.41021138e+01  3.97236729e+00 
 2.37814113e-02  1.62564366e+01  1.03260431e+02  3.41051204e+01  4.06014338e+00  3.41033099e+01  4.06352181e+00 
 2.43298042e-02  1.64513866e+01  1.03163671e+02  3.41063621e+01  4.15332534e+00  3.41045611e+01  4.15674750e+00 
 2.48908429e-02  1.66466100e+01  1.03073441e+02  3.41076613e+01  4.24862481e+00  3.41058702e+01  4.25209002e+00 
 2.54648190e-02  1.68421015e+01  1.02989709e+02  3.41090206e+01  4.34608841e+00  3.41072397e+01  4.34959594e+00 
 2.60520309e-02  1.70378564e+01  1.02912444e+02  3.41104429e+01  4.44576371e+00  3.41086723e+01  4.44931276e+00 
 2.66527837e-02  1.72338705e+01  1.02841619e+02  3.41119311e+01  4.54769921e+00  3.41101711e+01  4.55128888e+00 
 2.72673897e-02  1.74301399e+01  1.02777208e+02  3.41134881e+01  4.65194433e+00  3.41117390e+01  4.65557367e+00 
 2.78961683e-02  1.76266614e+01  1.02719186e+02  3.41151172e+01  4.75854947e+00  3.41133791e+01  4.76221746e+00 
 2.85394464e-02  1.78234322e+01  1.02667534e+02  3.41168216e+01  4.86756598e+00  3.41150948e+01  4.87127153e+00 
 2.91975583e-02  1.80204499e+01  1.02622231e+02  3.41186047e+01  4.97904619e+00  3.41168894e+01  4.98278811e+00 
 2.98708461e-02  1.82177127e+01  1.02583260e+02  3.41204703e+01  5.09304341e+00  3.41187667e+01  5.09682046e+00 
 3.05596598e-02  1.84152193e+01  1.02550606e+02  3.41224220e+01  5.20961191e+00  3.41207304e+01  5.21342279e+00 
 3.12643573e-02  1.86129686e+01  1.02524258e+02  3.41244638e+01  5.32880698e+00  3.41227844e+01  5.33265030e+00 
 3.19853049e-02  1.88109603e+01  1.02504205e+02  3.41265998e+01  5.45068491e+00  3.41249327e+01  5.45455922e+00 
 3.27228774e-02  1.90091945e+01  1.02490440e+02  3.41288344e+01  5.57530297e+00  3.41271798e+01  5.57920676e+00 
 3.34774581e-02  1.92076715e+01  1.02482955e+02  3.41311719e+01  5.70271946e+00  3.41295300e+01  5.70665114e+00 
 3.42494392e-02  1.94063925e+01  1.02481750e+02  3.41336171e+01  5.83299365e+00  3.41319881e+01  5.83695159e+00 
 3.50392221e-02  1.96053588e+01  1.02486822e+02  3.41361748e+01  5.96618585e+00  3.41345589e+01  5.97016836e+00 
 3.58472171e-02  1.98045724e+01  1.02498173e+02  3.41388502e+01  6.10235738e+00  3.41372475e+01  6.10636269e+00 
 3.66738442e-02  2.00040357e+01  1.02515806e+02  3.41416487e+01  6.24157053e+00  3.41400593e+01  6.24559684e+00 
 3.75195331e-02  2.02037517e+01  1.02539729e+02  3.41445757e+01  6.38388861e+00  3.41429998e+01  6.38793408e+00 
 3.83847234e-02  2.04037236e+01  1.02569948e+02  3.41476372e+01  6.52937592e+00  3.41460748e+01  6.53343866e+00 
 3.92698648e-02  2.06039555e+01  1.02606476e+02  3.41508391e+01  6.67809775e+00  3.41492904e+01  6.68217582e+00 
 4.01754173e-02  2.08044517e+01  1.02649324e+02  3.41541877e+01  6.83012035e+00  3.41526528e+01  6.83421180e+00 
 4.11018515e-02  2.10052171e+01  1.02698508e+02  3.41576899e+01  6.98551094e+00  3.41561688e+01  6.98961377e+00 
 4.20496491e-02  2.12062572e+01  1.02754045e+02  3.41613523e+01  7.14433769e+00  3.41598451e+01  7.14844988e+00 
 4.30193027e-02  2.14075779e+01  1.02815955e+02  3.41651821e+01  7.30666969e+00  3.41636889e+01  7.31078919e+00 
 4.40113162e-02  2.16091857e+01  1.02884260e+02  3.41691870e+01  7.47257694e+00  3.41677078e+01  7.47670171e+00 
 4.50262052e-02  2.18110878e+01  1.02958983e+02  3.41733747e+01  7.64213031e+00  3.41719094e+01  7.64625829e+00 
 4.60644974e-02  2.20132917e+01  1.03040150e+02  3.41777533e+01  7.81540155e+00  3.41763021e+01  7.81953068e+00 
 4.71267322e-02  2.22158056e+01  1.03127790e+02  3.41823314e+01  7.99246321e+00  3.41808942e+01  7.99659144e+00 
 4.82134619e-02  2.24186383e+01  1.03221933e+02  3.41871179e+01  8.17338865e+00  3.41856945e+01  8.17751392e+00 
 4.93252513e-02  2.26217992e+01  1.03322610e+02  3.41921218e+01  8.35825197e+00  3.41907124e+01  8.36237224e+00 
 5.04626783e-02  2.28252983e+01  1.03429856e+02  3.41973529e+01  8.54712798e+00  3.41959574e+01  8.55124124e+00 
 5.16263340e-02  2.30291462e+01  1.03543706e+02  3.42028212e+01  8.74009215e+00  3.42014394e+01  8.74419641e+00 
 5.28168234e-02  2.32333543e+01  1.03664199e+02  3.42085371e+01  8.93722056e+00  3.42071690e+01  8.94131385e+00 
 5.40347650e-02  2.34379345e+01  1.03791373e+02  3.42145114e+01  9.13858985e+00  3.42131570e+01  9.14267024e+00 
 5.52807921e-02  2.36428993e+01  1.03925271e+02  3.42207555e+01  9.34427713e+00  3.42194146e+01  9.34834273e+00 
 5.65555523e-02  2.38482623e+01  1.04065933e+02  3.42272811e+01  9.55435995e+00  3.42259535e+01  9.55840892e+00 
 5.78597080e-02  2.40540374e+01  1.04213406e+02  3.42341004e+01  9.76891619e+00  3.42327861e+01  9.77294672e+00 
 5.91939372e-02  2.42602394e+01  1.04367734e+02  3.42412263e+01  9.98802401e+00  3.42399250e+01  9.99203435e+00 
 6.05589334e-02  2.44668839e+01  1.04528964e+02  3.42486717e+01  1.02117617e+01  3.42473835e+01  1.02157502e+01 
 6.19554061e-02  2.46739874e+01  1.04697144e+02  3.42564507e+01  1.04402078e+01  3.42551752e+01  1.04441727e+01 
 6.33840810e-02  2.48815668e+01  1.04872325e+02  3.42645773e+01  1.06734405e+01  3.42633144e+01  1.06773804e+01 
 6.48457008e-02  2.50896403e+01  1.05054555e+02  3.42730665e+01  1.09115382e+01  3.42718160e+01  1.09154515e+01 
 6.63410251e-02  2.52982267e+01  1.05243887e+02  3.42819336e+01  1.11545789e+01  3.42806954e+01  1.11584642e+01 
 6.78708313e-02  2.55073458e+01  1.05440372e+02  3.42911947e+01  1.14026402e+01  3.42899685e+01  1.14064961e+01 
 6.94359143e-02  2.57170181e+01  1.05644063e+02  3.43008663e+01  1.16557993e+01  3.42996520e+01  1.16596245e+01 
 7.10370877e-02  2.59272653e+01  1.05855013e+02  3.43109657e+01  1.19141326e+01  3.43097629e+01  1.19179259e+01 
 7.26751838e-02  2.61381100e+01  1.06073275e+02  3.43215106e+01  1.21777159e+01  3.43203192e+01  1.21814761e+01 
 7.43510539e-02  2.63495755e+01  1.06298903e+02  3.43325195e+01  1.24466239e+01  3.43313393e+01  1.24503499e+01 
 7.60655691e-02  2.65616865e+01  1.06531950e+02  3.43440117e+01  1.27209300e+01  3.43428424e+01  1.27246209e+01 
 7.78196206e-02  2.67744685e+01  1.06772469e+02  3.43560068e+01  1.30007067e+01  3.43548482e+01  1.30043614e+01 
 7.96141200e-02  2.69879482e+01  1.07020513e+02  3.43685255e+01  1.32860245e+01  3.43673774e+01  1.32896423e+01 
 8.14500001e-02  2.72021532e+01  1.07276133e+02  3.43815889e+01  1.35769525e+01  3.43804510e+01  1.35805326e+01 
 8.33282151e-02  2.74171126e+01  1.07539382e+02  3.43952189e+01  1.38735578e+01  3.43940910e+01  1.38770994e+01 
 8.52497412e-02  2.76328563e+01  1.07810309e+02  3.44094383e+01  1.41759053e+01  3.44083200e+01  1.41794078e+01 
 8.72155772e-02  2.78494155e+01  1.08088964e+02  3.44242702e+01  1.44840574e+01  3.44231615e+01  1.44875202e+01 
 8.92267449e-02  2.80668225e+01  1.08375392e+02  3.44397390e+01  1.47980739e+01  3.44386395e+01  1.48014966e+01 
 9.12842895e-02  2.82851112e+01  1.08669640e+02  3.44558695e+01  1.51180119e+01  3.44547789e+01  1.51213940e+01 
 9.33892805e-02  2.85043163e+01  1.08971750e+02  3.44726872e+01  1.54439248e+01  3.44716055e+01  1.54472660e+01 
 9.55428121e-02  2.87244742e+01  1.09281764e+02  3.44902187e+01  1.57758631e+01  3.44891454e+01  1.57791631e+01 
 9.77460036e-02  2.89456223e+01  1.09599720e+02  3.45084910e+01  1.61138731e+01  3.45074260e+01  1.61171316e+01 
 1.00000000e-01  2.91677996e+01  1.09925652e+02  3.45275321e+01  1.64579971e+01  3.45264751e+01  1.64612140e+01 
 1.02305973e-01  2.93910463e+01  1.10259592e+02  3.45473707e+01  1.68082731e+01  3.45463215e+01  1.68114483e+01 
 1.04665121e-01  2.96154042e+01  1.10601568e+02  3.45680361e+01  1.71647343e+01  3.45669945e+01  1.71678677e+01 
 1.07078670e-01  2.98409164e+01  1.10951603e+02  3.45895587e+01  1.75274088e+01  3.45885245e+01  1.75305005e+01 
 1.09547876e-01  3.00676273e+01  1.11309718e+02  3.46119694e+01  1.78963193e+01  3.46109422e+01  1.78993692e+01 
 1.12074020e-01  3.02955832e+01  1.11675927e+02  3.46352998e+01  1.82714826e+01  3.46342795e+01  1.82744909e+01 
 1.14658417e-01  3.05248316e+01  1.12050240e+02  3.46595823e+01  1.86529095e+01  3.46585687e+01  1.86558764e+01 
 1.17302409e-01  3.07554217e+01  1.12432660e+02  3.46848499e+01  1.90406042e+01  3.46838428e+01  1.90435299e+01 
 1.20007371e-01  3.09874039e+01  1.12823185e+02  3.47111366e+01  1.94345640e+01  3.47101357e+01  1.94374486e+01 
 1.22774708e-01  3.12208306e+01  1.13221808e+02  3.47384766e+01  1.98347788e+01  3.47374817e+01  1.98376228e+01 
 1.25605860e-01  3.14557557e+01  1.13628514e+02  3.47669050e+01  2.02412310e+01  3.47659160e+01  2.02440346e+01 
 1.28502297e-01  3.16922345e+01  1.14043281e+02  3.47964574e+01  2.06538948e+01  3.47954740e+01  2.06566584e+01 
 1.31465525e-01  3.19303239e+01  1.14466078e+02  3.48271700e+01  2.10727360e+01  3.48261920e+01  2.10754601e+01 
 1.34497085e-01  3.21700830e+01  1.14896870e+02  3.48590794e+01  2.14977116e+01  3.48581067e+01  2.15003965e+01 
 1.37598551e-01  3.24115717e+01  1.15335609e+02  3.48922227e+01  2.19287694e+01  3.48912551e+01  2.19314156e+01 
 1.40771537e-01  3.26548524e+01  1.15782243e+02  3.49266375e+01  2.23658473e+01  3.49256748e+01  2.23684554e+01 
 1.44017690e-01  3.28999886e+01  1.16236706e+02  3.49623616e+01  2.28088738e+01  3.49614036e+01  2.28114442e+01 
 1.47338699e-01  3.31470458e+01  1.16698928e+02  3.49994332e+01  2.32577665e+01  3.49984798e+01  2.32602998e+01 
 1.50736290e-01  3.33960911e+01  1.17168824e+02  3.50378907e+01  2.37124329e+01  3.50369416e+01  2.37149296e+01 
 1.54212228e-01  3.36471933e+01  1.17646302e+02  3.50777726e+01  2.41727690e+01  3.50768278e+01  2.41752298e+01 
 1.57768320e-01  3.39004232e+01  1.18131258e+02  3.51191176e+01  2.46386599e+01  3.51181768e+01  2.46410854e+01 
 1.61406415e-01  3.41558530e+01  1.18623578e+02  3.51619641e+01  2.51099790e+01  3.51610273e+01  2.51123698e+01 
 1.65128404e-01  3.44135571e+01  1.19123137e+02  3.52063508e+01  2.55865879e+01  3.52054178e+01  2.55889448e+01 
 1.68936220e-01  3.46736111e+01  1.19629798e+02  3.52523161e+01  2.60683363e+01  3.52513867e+01  2.60706598e+01 
 1.72831844e-01  3.49360931e+01  1.20143412e+02  3.52998979e+01  2.65550614e+01  3.52989720e+01  2.65573522e+01 
 1.76817299e-01  3.52010826e+01  1.20663819e+02  3.53491340e+01  2.70465882e+01  3.53482115e+01  2.70488470e+01 
 1.80894658e-01  3.54686613e+01  1.21190847e+02  3.54000616e+01  2.75427292e+01  3.53991424e+01  2.75449568e+01 
 1.85066040e-01  3.57389125e+01  1.21724311e+02  3.54527175e+01  2.80432842e+01  3.54518014e+01  2.80454812e+01 
 1.89333613e-01  3.60119218e+01  1.22264014e+02  3.55071375e+01  2.85480404e+01  3.55062245e+01  2.85502076e+01 
 1.93699595e-01  3.62877767e+01  1.22809746e+02  3.55633571e+01  2.90567724e+01  3.55624470e+01  2.90589105e+01 
 1.98166255e-01  3.65665668e+01  1.23361286e+02  3.56214104e+01  2.95692422e+01  3.56205032e+01  2.95713520e+01 
 2.02735916e-01  3.68483839e+01  1.23918399e+02  3.56813308e+01  3.00851992e+01  3.56804263e+01  3.00872814e+01 
 2.07410951e-01  3.71333222e+01  1.24480839e+02  3.57431506e+01  3.06043807e+01  3.57422487e+01  3.06064361e+01 
 2.12193792e-01  3.74214782e+01  1.25048347e+02  3.58069006e+01  3.11265117e+01  3.58060012e+01  3.11285410e+01 
 2.17086923e-01  3.77129509e+01  1.25620652e+02  3.58726106e+01  3.16513053e+01  3.58717137e+01  3.16533094e+01 
 2.22092889e-01  3.80078419e+01  1.26197470e+02  3.59403087e+01  3.21784633e+01  3.59394141e+01  3.21804427e+01 
 2.27214291e-01  3.83062560e+01  1.26778506e+02  3.60100216e+01  3.27076759e+01  3.60091292e+01  3.27096316e+01 
 2.32453791e-01  3.86083008e+01  1.27363454e+02  3.60817741e+01  3.32386228e+01  3.60808840e+01  3.32405555e+01 
 2.37814113e-01  3.89140870e+01  1.27951997e+02  3.61555896e+01  3.37709733e+01  3.61547016e+01  3.37728838e+01 
 2.43298042e-01  3.92237294e+01  1.28543806e+02  3.62314893e+01  3.43043869e+01  3.62306034e+01  3.43062761e+01 
 2.48908429e-01  3.95373462e+01  1.29138541e+02  3.63094926e+01  3.48385140e+01  3.63086087e+01  3.48403825e+01 
 2.54648190e-01  3.98550600e+01  1.29735853e+02  3.63896169e+01  3.53729961e+01  3.63887349e+01  3.53748448e+01 
 2.60520309e-01  4.01769980e+01  1.30335384e+02  3.64718773e+01  3.59074671e+01  3.64709971e+01  3.59092967e+01 
 2.66527837e-01  4.05032923e+01  1.30936764e+02  3.65562868e+01  3.64415534e+01  3.65554084e+01  3.64433647e+01 
 2.72673897e-01  4.08340808e+01  1.31539617e+02  3.66428561e+01  3.69748750e+01  3.66419795e+01  3.69766688e+01 
 2.78961683e-01  4.11695074e+01  1.32143557e+02  3.67315936e+01  3.75070461e+01  3.67307187e+01  3.75088232e+01 
 2.85394464e-01  4.15097229e+01  1.32748190e+02  3.68225054e+01  3.80376761e+01  3.68216322e+01  3.80394372e+01 
 2.91975583e-01  4.18548854e+01  1.33353113e+02  3.69155950e+01  3.85663701e+01  3.69147233e+01  3.85681161e+01 
 2.98708461e-01  4.22051618e+01  1.33957919e+02  3.70108634e+01  3.90927301e+01  3.70099933e+01  3.90944617e+01 
 3.05596598e-01  4.25607275e+01  1.34562192e+02  3.71083094e+01  3.96163556e+01  3.71074409e+01  3.96180736e+01 
 3.12643573e-01  4.29217687e+01  1.35165508e+02  3.72079291e+01  4.01368445e+01  3.72070620e+01  4.01385497e+01 
 3.19853049e-01  4.32884833e+01  1.35767438e+02  3.73097160e+01  4.06537943e+01  3.73088505e+01  4.06554874e+01 
 3.27228774e-01  4.36610817e+01  1.36367546e+02  3.74136614e+01  4.11668023e+01  3.74127973e+01  4.11684842e+01 
 3.34774581e-01  4.40397887e+01  1.36965390e+02  3.75197538e+01  4.16754672e+01  3.75188911e+01  4.16771385e+01 
 3.42494392e-01  4.44248450e+01  1.37560519e+02  3.76279794e+01  4.21793894e+01  3.76271181e+01  4.21810510e+01 
 3.50392221e-01  4.48165095e+01  1.38152476e+02  3.77383219e+01  4.26781720e+01  3.77374620e+01  4.26798246e+01 
 3.58472171e-01  4.52150613e+01  1.38740796e+02  3.78507627e+01  4.31714218e+01  3.78499041e+01  4.31730662e+01 
 3.66738442e-01  4.56208017e+01  1.39325005e+02  3.79652808e+01  4.36587497e+01  3.79644235e+01  4.36603866e+01 
 3.75195331e-01  4.60340577e+01  1.39904618e+02  3.80818528e+01  4.41397718e+01  3.80809969e+01  4.41414020e+01 
 3.83847234e-01  4.64551851e+01  1.40479138e+02  3.82004532e+01  4.46141098e+01  3.81995986e+01  4.46157341e+01 
 3.92698648e-01  4.68845718e+01  1.41048055e+02  3.83210544e+01  4.50813920e+01  3.83202010e+01  4.50830111e+01 
 4.01754173e-01  4.73226426e+01  1.41610840e+02  3.84436264e+01  4.55412536e+01  3.84427744e+01  4.55428683e+01 
 4.11018515e-01  4.77698639e+01  1.42166947e+02  3.85681376e+01  4.59933375e+01  3.85672869e+01  4.59949485e+01 
 4.20496491e-01  4.82267492e+01  1.42715802e+02  3.86945542e+01  4.64372945e+01  3.86937048e+01  4.64389026e+01 
 4.30193027e-01  4.86938663e+01  1.43256804e+02  3.88228407e+01  4.68727844e+01  3.88219926e+01  4.68743903e+01 
 4.40113162e-01  4.91718446e+01  1.43789315e+02  3.89529598e+01  4.72994758e+01  3.89521129e+01  4.73010803e+01 
 4.50262052e-01  4.96613847e+01  1.44312651e+02  3.90848725e+01  4.77170468e+01  3.90840270e+01  4.77186506e+01 
 4.60644974e-01  5.01632691e+01  1.44826075e+02  3.92185384e+01  4.81251852e+01  3.92176942e+01  4.81267891e+01 
 4.71267322e-01  5.06783755e+01  1.45328781e+02  3.93539155e+01  4.85235891e+01  3.93530726e+01  4.85251937e+01 
 4.82134619e-01  5.12076922e+01  1.45819882e+02  3.94909605e+01  4.89119665e+01  3.94901190e+01  4.89135726e+01 
 4.93252513e-01  5.17523372e+01  1.46298384e+02  3.96296290e+01  4.92900360e+01  3.96287888e+01  4.92916444e+01 
 5.04626783e-01  5.23135808e+01  1.46763167e+02  3.97698750e+01  4.96575269e+01  3.97690362e+01  4.96591383e+01 
 5.16263340e-01  5.28928746e+01  1.47212945e+02  3.99116519e+01  5.00141791e+01  3.99108145e+01  5.00157942e+01 
 5.28168234e-01  5.34918862e+01  1.47646228e+02  4.00549118e+01  5.03597432e+01  4.00540759e+01  5.03613626e+01 
