 frequency       v(inoise_spectrum) v(onoise_spectrum)
 1.50000000e-01  2.09193651e-05  9.14746952e-04 
 1.53458959e-01  2.04123020e-05  9.08987871e-04 
 1.56997682e-01  1.99184803e-05  9.03155489e-04 
 1.60618006e-01  1.94375260e-05  8.97247257e-04 
 1.64321814e-01  1.89690763e-05  8.91260767e-04 
 1.68111030e-01  1.85127796e-05  8.85193757e-04 
 1.71987625e-01  1.80682950e-05  8.79044129e-04 
 1.75953613e-01  1.76352921e-05  8.72809953e-04 
 1.80011056e-01  1.72134506e-05  8.66489485e-04 
 1.84162062e-01  1.68024597e-05  8.60081173e-04 
 1.88408790e-01  1.64020183e-05  8.53583671e-04 
 1.92753446e-01  1.60118343e-05  8.46995848e-04 
 1.97198288e-01  1.56316243e-05  8.40316798e-04 
 2.01745627e-01  1.52611137e-05  8.33545849e-04 
 2.06397827e-01  1.49000358e-05  8.26682572e-04 
 2.11157305e-01  1.45481321e-05  8.19726789e-04 
 2.16026535e-01  1.42051518e-05  8.12678578e-04 
 2.21008049e-01  1.38708516e-05  8.05538283e-04 
 2.26104435e-01  1.35449954e-05  7.98306514e-04 
 2.31318342e-01  1.32273539e-05  7.90984156e-04 
 2.36652481e-01  1.29177049e-05  7.83572366e-04 
 2.42109623e-01  1.26158325e-05  7.76072579e-04 
 2.47692605e-01  1.23215273e-05  7.68486505e-04 
 2.53404330e-01  1.20345861e-05  7.60816128e-04 
 2.59247765e-01  1.17548113e-05  7.53063705e-04 
 2.65225949e-01  1.14820114e-05  7.45231757e-04 
 2.71341987e-01  1.12160005e-05  7.37323071e-04 
 2.77599060e-01  1.09565977e-05  7.29340683e-04 
 2.84000420e-01  1.07036277e-05  7.21287879e-04 
 2.90549393e-01  1.04569202e-05  7.13168178e-04 
 2.97249383e-01  1.02163097e-05  7.04985323e-04 
 3.04103874e-01  9.98163552e-06  6.96743269e-04 
 3.11116427e-01  9.75274148e-06  6.88446170e-04 
 3.18290688e-01  9.52947596e-06  6.80098363e-04 
 3.25630385e-01  9.31169163e-06  6.71704349e-04 
 3.33139333e-01  9.09924532e-06  6.63268785e-04 
 3.40821437e-01  8.89199793e-06  6.54796459e-04 
 3.48680687e-01  8.68981426e-06  6.46292272e-04 
 3.56721169e-01  8.49256295e-06  6.37761228e-04 
 3.64947063e-01  8.30011630e-06  6.29208405e-04 
 3.73362644e-01  8.11235019e-06  6.20638943e-04 
 3.81972285e-01  7.92914397e-06  6.12058024e-04 
 3.90780463e-01  7.75038035e-06  6.03470850e-04 
 3.99791755e-01  7.57594528e-06  5.94882630e-04 
 4.09010845e-01  7.40572788e-06  5.86298556e-04 
 4.18442524e-01  7.23962032e-06  5.77723790e-04 
 4.28091696e-01  7.07751777e-06  5.69163447e-04 
 4.37963375e-01  6.91931823e-06  5.60622575e-04 
 4.48062692e-01  6.76492254e-06  5.52106142e-04 
 4.58394897e-01  6.61423420e-06  5.43619023e-04 
 4.68965359e-01  6.46715938e-06  5.35165982e-04 
 4.79779574e-01  6.32360678e-06  5.26751666e-04 
 4.90843161e-01  6.18348757e-06  5.18380585e-04 
 5.02161872e-01  6.04671533e-06  5.10057110e-04 
 5.13741589e-01  5.91320596e-06  5.01785458e-04 
 5.25588331e-01  5.78287763e-06  4.93569684e-04 
 5.37708256e-01  5.65565068e-06  4.85413678e-04 
 5.50107663e-01  5.53144762e-06  4.77321155e-04 
 5.62792997e-01  5.41019299e-06  4.69295651e-04 
 5.75770852e-01  5.29181335e-06  4.61340520e-04 
 5.89047972e-01  5.17623721e-06  4.53458929e-04 
 6.02631259e-01  5.06339497e-06  4.45653860e-04 
 6.16527773e-01  4.95321887e-06  4.37928105e-04 
 6.30744737e-01  4.84564293e-06  4.30284267e-04 
 6.45289540e-01  4.74060290e-06  4.22724761e-04 
 6.60169743e-01  4.63803623e-06  4.15251816e-04 
 6.75393078e-01  4.53788198e-06  4.07867477e-04 
 6.90967460e-01  4.44008082e-06  4.00573606e-04 
 7.06900983e-01  4.34457495e-06  3.93371887e-04 
 7.23201929e-01  4.25130808e-06  3.86263830e-04 
 7.39878770e-01  4.16022537e-06  3.79250776e-04 
 7.56940175e-01  4.07127339e-06  3.72333896e-04 
 7.74395011e-01  3.98440012e-06  3.65514207e-04 
 7.92252350e-01  3.89955483e-06  3.58792565e-04 
 8.10521476e-01  3.81668812e-06  3.52169681e-04 
 8.29211882e-01  3.73575186e-06  3.45646120e-04 
 8.48333284e-01  3.65669912e-06  3.39222309e-04 
 8.67895620e-01  3.57948420e-06  3.32898545e-04 
 8.87909059e-01  3.50406255e-06  3.26674999e-04 
 9.08384002e-01  3.43039073e-06  3.20551720e-04 
 9.29331091e-01  3.35842642e-06  3.14528648e-04 
 9.50761215e-01  3.28812838e-06  3.08605611e-04 
 9.72685512e-01  3.21945639e-06  3.02782340e-04 
 9.95115377e-01  3.15237124e-06  2.97058469e-04 
 1.01806247e+00  3.08683473e-06  2.91433542e-04 
 1.04153871e+00  3.02280958e-06  2.85907019e-04 
 1.06555632e+00  2.96025948e-06  2.80478284e-04 
 1.09012776e+00  2.89914901e-06  2.75146646e-04 
 1.11526581e+00  2.83944363e-06  2.69911349e-04 
 1.14098354e+00  2.78110966e-06  2.64771572e-04 
 1.16729431e+00  2.72411426e-06  2.59726439e-04 
 1.19421180e+00  2.66842540e-06  2.54775019e-04 
 1.22175000e+00  2.61401186e-06  2.49916336e-04 
 1.24992323e+00  2.56084316e-06  2.45149367e-04 
 1.27874612e+00  2.50888960e-06  2.40473052e-04 
 1.30823366e+00  2.45812220e-06  2.35886293e-04 
 1.33840117e+00  2.40851268e-06  2.31387963e-04 
 1.36926434e+00  2.36003348e-06  2.26976904e-04 
 1.40083921e+00  2.31265770e-06  2.22651935e-04 
 1.43314218e+00  2.26635909e-06  2.18411853e-04 
 1.46619005e+00  2.22111206e-06  2.14255436e-04 
 1.50000000e+00  2.17689164e-06  2.10181447e-04 
 1.53458959e+00  2.13367345e-06  2.06188635e-04 
 1.56997682e+00  2.09143373e-06  2.02275741e-04 
 1.60618006e+00  2.05014927e-06  1.98441496e-04 
 1.64321814e+00  2.00979745e-06  1.94684624e-04 
 1.68111030e+00  1.97035618e-06  1.91003849e-04 
 1.71987625e+00  1.93180391e-06  1.87397889e-04 
 1.75953613e+00  1.89411961e-06  1.83865467e-04 
 1.80011056e+00  1.85728276e-06  1.80405302e-04 
 1.84162062e+00  1.82127333e-06  1.77016122e-04 
 1.88408790e+00  1.78607177e-06  1.73696655e-04 
 1.92753446e+00  1.75165902e-06  1.70445639e-04 
 1.97198288e+00  1.71801646e-06  1.67261816e-04 
 2.01745627e+00  1.68512592e-06  1.64143939e-04 
 2.06397827e+00  1.65296966e-06  1.61090769e-04 
 2.11157305e+00  1.62153038e-06  1.58101079e-04 
 2.16026535e+00  1.59079119e-06  1.55173651e-04 
 2.21008049e+00  1.56073560e-06  1.52307280e-04 
 2.26104435e+00  1.53134751e-06  1.49500775e-04 
 2.31318342e+00  1.50261121e-06  1.46752957e-04 
 2.36652481e+00  1.47451137e-06  1.44062662e-04 
 2.42109623e+00  1.44703302e-06  1.41428739e-04 
 2.47692605e+00  1.42016154e-06  1.38850053e-04 
 2.53404330e+00  1.39388268e-06  1.36325484e-04 
 2.59247765e+00  1.36818251e-06  1.33853928e-04 
 2.65225949e+00  1.34304744e-06  1.31434297e-04 
 2.71341987e+00  1.31846420e-06  1.29065517e-04 
 2.77599060e+00  1.29441984e-06  1.26746534e-04 
 2.84000420e+00  1.27090171e-06  1.24476307e-04 
 2.90549393e+00  1.24789746e-06  1.22253815e-04 
 2.97249383e+00  1.22539506e-06  1.20078051e-04 
 3.04103874e+00  1.20338272e-06  1.17948026e-04 
 3.11116427e+00  1.18184898e-06  1.15862767e-04 
 3.18290688e+00  1.16078261e-06  1.13821321e-04 
 3.25630385e+00  1.14017267e-06  1.11822747e-04 
 3.33139333e+00  1.12000848e-06  1.09866124e-04 
 3.40821437e+00  1.10027960e-06  1.07950547e-04 
 3.48680687e+00  1.08097585e-06  1.06075129e-04 
 3.56721169e+00  1.06208729e-06  1.04238996e-04 
 3.64947063e+00  1.04360421e-06  1.02441295e-04 
 3.73362644e+00  1.02551713e-06  1.00681186e-04 
 3.81972285e+00  1.00781682e-06  9.89578461e-05 
 3.90780463e+00  9.90494232e-07  9.72704695e-05 
 3.99791755e+00  9.73540556e-07  9.56182655e-05 
 4.09010845e+00  9.56947188e-07  9.40004592e-05 
 4.18442524e+00  9.40705727e-07  9.24162912e-05 
 4.28091696e+00  9.24807971e-07  9.08650179e-05 
 4.37963375e+00  9.09245916e-07  8.93459104e-05 
 4.48062692e+00  8.94011747e-07  8.78582553e-05 
 4.58394897e+00  8.79097836e-07  8.64013538e-05 
 4.68965359e+00  8.64496737e-07  8.49745216e-05 
 4.79779574e+00  8.50201181e-07  8.35770890e-05 
 4.90843161e+00  8.36204074e-07  8.22084005e-05 
 5.02161872e+00  8.22498489e-07  8.08678143e-05 
 5.13741589e+00  8.09077668e-07  7.95547027e-05 
 5.25588331e+00  7.95935011e-07  7.82684515e-05 
 5.37708256e+00  7.83064079e-07  7.70084595e-05 
 5.50107663e+00  7.70458587e-07  7.57741391e-05 
 5.62792997e+00  7.58112399e-07  7.45649151e-05 
 5.75770852e+00  7.46019528e-07  7.33802254e-05 
 5.89047972e+00  7.34174128e-07  7.22195199e-05 
 6.02631259e+00  7.22570498e-07  7.10822612e-05 
 6.16527773e+00  7.11203070e-07  6.99679235e-05 
 6.30744737e+00  7.00066413e-07  6.88759930e-05 
 6.45289540e+00  6.89155224e-07  6.78059674e-05 
 6.60169743e+00  6.78464331e-07  6.67573558e-05 
 6.75393078e+00  6.67988684e-07  6.57296784e-05 
 6.90967460e+00  6.57723357e-07  6.47224662e-05 
 7.06900983e+00  6.47663542e-07  6.37352612e-05 
 7.23201929e+00  6.37804549e-07  6.27676156e-05 
 7.39878770e+00  6.28141798e-07  6.18190922e-05 
 7.56940175e+00  6.18670824e-07  6.08892635e-05 
 7.74395011e+00  6.09387268e-07  5.99777123e-05 
 7.92252350e+00  6.00286878e-07  5.90840309e-05 
 8.10521476e+00  5.91365505e-07  5.82078209e-05 
 8.29211882e+00  5.82619100e-07  5.73486935e-05 
 8.48333284e+00  5.74043715e-07  5.65062689e-05 
 8.67895620e+00  5.65635494e-07  5.56801761e-05 
 8.87909059e+00  5.57390680e-07  5.48700530e-05 
 9.08384002e+00  5.49305604e-07  5.40755459e-05 
 9.29331091e+00  5.41376689e-07  5.32963095e-05 
 9.50761215e+00  5.33600443e-07  5.25320066e-05 
 9.72685512e+00  5.25973462e-07  5.17823082e-05 
 9.95115377e+00  5.18492423e-07  5.10468930e-05 
 1.01806247e+01  5.11154086e-07  5.03254472e-05 
 1.04153871e+01  5.03955290e-07  4.96176648e-05 
 1.06555632e+01  4.96892950e-07  4.89232468e-05 
 1.09012776e+01  4.89964061e-07  4.82419016e-05 
 1.11526581e+01  4.83165686e-07  4.75733444e-05 
 1.14098354e+01  4.76494964e-07  4.69172975e-05 
 1.16729431e+01  4.69949104e-07  4.62734895e-05 
 1.19421180e+01  4.63525383e-07  4.56416558e-05 
 1.22175000e+01  4.57221143e-07  4.50215382e-05 
 1.24992323e+01  4.51033795e-07  4.44128846e-05 
 1.27874612e+01  4.44960811e-07  4.38154490e-05 
 1.30823366e+01  4.38999728e-07  4.32289915e-05 
 1.33840117e+01  4.33148139e-07  4.26532778e-05 
 1.36926434e+01  4.27403702e-07  4.20880793e-05 
 1.40083921e+01  4.21764127e-07  4.15331731e-05 
 1.43314218e+01  4.16227186e-07  4.09883417e-05 
 1.46619005e+01  4.10790701e-07  4.04533726e-05 
 1.50000000e+01  4.05452550e-07  3.99280588e-05 
 1.53458959e+01  4.00210663e-07  3.94121981e-05 
 1.56997682e+01  3.95063020e-07  3.89055933e-05 
 1.60618006e+01  3.90007653e-07  3.84080519e-05 
 1.64321814e+01  3.85042640e-07  3.79193863e-05 
 1.68111030e+01  3.80166107e-07  3.74394132e-05 
 1.71987625e+01  3.75376226e-07  3.69679539e-05 
 1.75953613e+01  3.70671215e-07  3.65048339e-05 
 1.80011056e+01  3.66049333e-07  3.60498832e-05 
 1.84162062e+01  3.61508884e-07  3.56029357e-05 
 1.88408790e+01  3.57048214e-07  3.51638293e-05 
 1.92753446e+01  3.52665706e-07  3.47324060e-05 
 1.97198288e+01  3.48359787e-07  3.43085115e-05 
 2.01745627e+01  3.44128919e-07  3.38919953e-05 
 2.06397827e+01  3.39971604e-07  3.34827106e-05 
 2.11157305e+01  3.35886377e-07  3.30805139e-05 
 2.16026535e+01  3.31871813e-07  3.26852653e-05 
 2.21008049e+01  3.27926518e-07  3.22968285e-05 
 2.26104435e+01  3.24049134e-07  3.19150701e-05 
 2.31318342e+01  3.20238334e-07  3.15398601e-05 
 2.36652481e+01  3.16492825e-07  3.11710715e-05 
 2.42109623e+01  3.12811344e-07  3.08085806e-05 
 2.47692605e+01  3.09192658e-07  3.04522665e-05 
 2.53404330e+01  3.05635564e-07  3.01020109e-05 
 2.59247765e+01  3.02138890e-07  2.97576988e-05 
 2.65225949e+01  2.98701487e-07  2.94192177e-05 
 2.71341987e+01  2.95322239e-07  2.90864577e-05 
 2.77599060e+01  2.92000052e-07  2.87593116e-05 
 2.84000420e+01  2.88733860e-07  2.84376747e-05 
 2.90549393e+01  2.85522622e-07  2.81214447e-05 
 2.97249383e+01  2.82365322e-07  2.78105218e-05 
 3.04103874e+01  2.79260967e-07  2.75048085e-05 
 3.11116427e+01  2.76208587e-07  2.72042095e-05 
 3.18290688e+01  2.73207235e-07  2.69086318e-05 
 3.25630385e+01  2.70255987e-07  2.66179844e-05 
 3.33139333e+01  2.67353939e-07  2.63321787e-05 
 3.40821437e+01  2.64500208e-07  2.60511277e-05 
 3.48680687e+01  2.61693933e-07  2.57747468e-05 
 3.56721169e+01  2.58934269e-07  2.55029531e-05 
 3.64947063e+01  2.56220394e-07  2.52356656e-05 
 3.73362644e+01  2.53551502e-07  2.49728052e-05 
 3.81972285e+01  2.50926808e-07  2.47142945e-05 
 3.90780463e+01  2.48345542e-07  2.44600579e-05 
 3.99791755e+01  2.45806952e-07  2.42100214e-05 
 4.09010845e+01  2.43310303e-07  2.39641126e-05 
 4.18442524e+01  2.40854876e-07  2.37222609e-05 
 4.28091696e+01  2.38439968e-07  2.34843971e-05 
 4.37963375e+01  2.36064891e-07  2.32504534e-05 
 4.48062692e+01  2.33728972e-07  2.30203638e-05 
 4.58394897e+01  2.31431554e-07  2.27940633e-05 
 4.68965359e+01  2.29171991e-07  2.25714885e-05 
 4.79779574e+01  2.26949654e-07  2.23525775e-05 
 4.90843161e+01  2.24763926e-07  2.21372694e-05 
 5.02161872e+01  2.22614202e-07  2.19255048e-05 
 5.13741589e+01  2.20499891e-07  2.17172254e-05 
 5.25588331e+01  2.18420414e-07  2.15123742e-05 
 5.37708256e+01  2.16375204e-07  2.13108953e-05 
 5.50107663e+01  2.14363705e-07  2.11127340e-05 
 5.62792997e+01  2.12385373e-07  2.09178366e-05 
 5.75770852e+01  2.10439674e-07  2.07261506e-05 
 5.89047972e+01  2.08526087e-07  2.05376245e-05 
 6.02631259e+01  2.06644098e-07  2.03522078e-05 
 6.16527773e+01  2.04793205e-07  2.01698510e-05 
 6.30744737e+01  2.02972917e-07  1.99905055e-05 
 6.45289540e+01  2.01182750e-07  1.98141237e-05 
 6.60169743e+01  1.99422230e-07  1.96406588e-05 
 6.75393078e+01  1.97690893e-07  1.94700652e-05 
 6.90967460e+01  1.95988283e-07  1.93022977e-05 
 7.06900983e+01  1.94313954e-07  1.91373122e-05 
 7.23201929e+01  1.92667465e-07  1.89750655e-05 
 7.39878770e+01  1.91048385e-07  1.88155149e-05 
 7.56940175e+01  1.89456292e-07  1.86586186e-05 
 7.74395011e+01  1.87890771e-07  1.85043357e-05 
 7.92252350e+01  1.86351412e-07  1.83526258e-05 
 8.10521476e+01  1.84837815e-07  1.82034492e-05 
 8.29211882e+01  1.83349585e-07  1.80567671e-05 
 8.48333284e+01  1.81886337e-07  1.79125411e-05 
 8.67895620e+01  1.80447689e-07  1.77707337e-05 
 8.87909059e+01  1.79033267e-07  1.76313078e-05 
 9.08384002e+01  1.77642703e-07  1.74942270e-05 
 9.29331091e+01  1.76275637e-07  1.73594555e-05 
 9.50761215e+01  1.74931711e-07  1.72269582e-05 
 9.72685512e+01  1.73610576e-07  1.70967002e-05 
 9.95115377e+01  1.72311888e-07  1.69686476e-05 
 1.01806247e+02  1.71035308e-07  1.68427668e-05 
 1.04153871e+02  1.69780503e-07  1.67190246e-05 
 1.06555632e+02  1.68547144e-07  1.65973884e-05 
 1.09012776e+02  1.67334908e-07  1.64778263e-05 
 1.11526581e+02  1.66143477e-07  1.63603065e-05 
 1.14098354e+02  1.64972538e-07  1.62447980e-05 
 1.16729431e+02  1.63821781e-07  1.61312701e-05 
 1.19421180e+02  1.62690903e-07  1.60196925e-05 
 1.22175000e+02  1.61579605e-07  1.59100353e-05 
 1.24992323e+02  1.60487590e-07  1.58022692e-05 
 1.27874612e+02  1.59414568e-07  1.56963652e-05 
 1.30823366e+02  1.58360253e-07  1.55922946e-05 
 1.33840117e+02  1.57324361e-07  1.54900292e-05 
 1.36926434e+02  1.56306614e-07  1.53895412e-05 
 1.40083921e+02  1.55306737e-07  1.52908031e-05 
 1.43314218e+02  1.54324459e-07  1.51937878e-05 
 1.46619005e+02  1.53359513e-07  1.50984684e-05 
 1.50000000e+02  1.52411635e-07  1.50048185e-05 
 1.53458959e+02  1.51480565e-07  1.49128120e-05 
 1.56997682e+02  1.50566047e-07  1.48224232e-05 
 1.60618006e+02  1.49667827e-07  1.47336265e-05 
 1.64321814e+02  1.48785657e-07  1.46463968e-05 
 1.68111030e+02  1.47919288e-07  1.45607092e-05 
 1.71987625e+02  1.47068478e-07  1.44765391e-05 
 1.75953613e+02  1.46232988e-07  1.43938623e-05 
 1.80011056e+02  1.45412580e-07  1.43126546e-05 
 1.84162062e+02  1.44607020e-07  1.42328925e-05 
 1.88408790e+02  1.43816078e-07  1.41545523e-05 
 1.92753446e+02  1.43039526e-07  1.40776110e-05 
 1.97198288e+02  1.42277139e-07  1.40020454e-05 
 2.01745627e+02  1.41528695e-07  1.39278329e-05 
 2.06397827e+02  1.40793974e-07  1.38549510e-05 
 2.11157305e+02  1.40072760e-07  1.37833775e-05 
 2.16026535e+02  1.39364841e-07  1.37130903e-05 
 2.21008049e+02  1.38670003e-07  1.36440677e-05 
 2.26104435e+02  1.37988041e-07  1.35762880e-05 
 2.31318342e+02  1.37318747e-07  1.35097300e-05 
 2.36652481e+02  1.36661918e-07  1.34443723e-05 
 2.42109623e+02  1.36017355e-07  1.33801942e-05 
 2.47692605e+02  1.35384860e-07  1.33171748e-05 
 2.53404330e+02  1.34764236e-07  1.32552935e-05 
 2.59247765e+02  1.34155291e-07  1.31945301e-05 
 2.65225949e+02  1.33557835e-07  1.31348641e-05 
 2.71341987e+02  1.32971679e-07  1.30762757e-05 
 2.77599060e+02  1.32396638e-07  1.30187450e-05 
 2.84000420e+02  1.31832529e-07  1.29622522e-05 
 2.90549393e+02  1.31279170e-07  1.29067778e-05 
 2.97249383e+02  1.30736383e-07  1.28523024e-05 
 3.04103874e+02  1.30203992e-07  1.27988068e-05 
 3.11116427e+02  1.29681823e-07  1.27462719e-05 
 3.18290688e+02  1.29169704e-07  1.26946786e-05 
 3.25630385e+02  1.28667465e-07  1.26440082e-05 
 3.33139333e+02  1.28174939e-07  1.25942420e-05 
 3.40821437e+02  1.27691962e-07  1.25453613e-05 
 3.48680687e+02  1.27218370e-07  1.24973477e-05 
 3.56721169e+02  1.26754003e-07  1.24501827e-05 
 3.64947063e+02  1.26298701e-07  1.24038481e-05 
 3.73362644e+02  1.25852309e-07  1.23583257e-05 
 3.81972285e+02  1.25414673e-07  1.23135974e-05 
 3.90780463e+02  1.24985639e-07  1.22696451e-05 
 3.99791755e+02  1.24565059e-07  1.22264509e-05 
 4.09010845e+02  1.24152783e-07  1.21839969e-05 
 4.18442524e+02  1.23748666e-07  1.21422652e-05 
 4.28091696e+02  1.23352564e-07  1.21012382e-05 
 4.37963375e+02  1.22964334e-07  1.20608979e-05 
 4.48062692e+02  1.22583838e-07  1.20212266e-05 
 4.58394897e+02  1.22210936e-07  1.19822068e-05 
 4.68965359e+02  1.21845493e-07  1.19438207e-05 
 4.79779574e+02  1.21487375e-07  1.19060506e-05 
 4.90843161e+02  1.21136450e-07  1.18688789e-05 
 5.02161872e+02  1.20792586e-07  1.18322878e-05 
 5.13741589e+02  1.20455657e-07  1.17962597e-05 
 frequency       v(inoise_spectrum) v(onoise_spectrum)
 3.00000000e-01  1.01207886e-05  7.01662187e-04 
 3.06917919e-01  9.88846830e-06  6.93397383e-04 
 3.13995363e-01  9.66186636e-06  6.85079264e-04 
 3.21236011e-01  9.44083291e-06  6.76712237e-04 
 3.28643627e-01  9.22522230e-06  6.68300868e-04 
 3.36222060e-01  9.01489303e-06  6.59849867e-04 
 3.43975250e-01  8.80970759e-06  6.51364072e-04 
 3.51907227e-01  8.60953235e-06  6.42848427e-04 
 3.60022112e-01  8.41423743e-06  6.34307968e-04 
 3.68324125e-01  8.22369660e-06  6.25747801e-04 
 3.76817580e-01  8.03778716e-06  6.17173085e-04 
 3.85506891e-01  7.85638981e-06  6.08589011e-04 
 3.94396576e-01  7.67938860e-06  6.00000788e-04 
 4.03491254e-01  7.50667077e-06  5.91413619e-04 
 4.12795654e-01  7.33812668e-06  5.82832687e-04 
 4.22314610e-01  7.17364973e-06  5.74263136e-04 
 4.32053071e-01  7.01313623e-06  5.65710056e-04 
 4.42016098e-01  6.85648534e-06  5.57178465e-04 
 4.52208870e-01  6.70359899e-06  5.48673295e-04 
 4.62636684e-01  6.55438178e-06  5.40199377e-04 
 4.73304961e-01  6.40874089e-06  5.31761430e-04 
 4.84219246e-01  6.26658604e-06  5.23364047e-04 
 4.95385211e-01  6.12782938e-06  5.15011683e-04 
 5.06808660e-01  5.99238543e-06  5.06708647e-04 
 5.18495531e-01  5.86017102e-06  4.98459092e-04 
 5.30451897e-01  5.73110520e-06  4.90267007e-04 
 5.42683975e-01  5.60510921e-06  4.82136213e-04 
 5.55198121e-01  5.48210637e-06  4.74070352e-04 
 5.68000839e-01  5.36202205e-06  4.66072887e-04 
 5.81098785e-01  5.24478361e-06  4.58147098e-04 
 5.94498766e-01  5.13032032e-06  4.50296076e-04 
 6.08207747e-01  5.01856334e-06  4.42522727e-04 
 6.22232854e-01  4.90944562e-06  4.34829766e-04 
 6.36581375e-01  4.80290190e-06  4.27219720e-04 
 6.51260770e-01  4.69886862e-06  4.19694930e-04 
 6.66278667e-01  4.59728389e-06  4.12257548e-04 
 6.81642873e-01  4.49808741e-06  4.04909547e-04 
 6.97361374e-01  4.40122049e-06  3.97652715e-04 
 7.13442338e-01  4.30662593e-06  3.90488666e-04 
 7.29894126e-01  4.21424805e-06  3.83418841e-04 
 7.46725287e-01  4.12403257e-06  3.76444512e-04 
 7.63944571e-01  4.03592664e-06  3.69566787e-04 
 7.81560926e-01  3.94987876e-06  3.62786617e-04 
 7.99583510e-01  3.86583876e-06  3.56104799e-04 
 8.18021690e-01  3.78375773e-06  3.49521984e-04 
 8.36885049e-01  3.70358805e-06  3.43038681e-04 
 8.56183392e-01  3.62528329e-06  3.36655264e-04 
