 frequency       v(Amag_dB)      v(Aarg)        
 1.00000000e-02 -9.75826259e+00  8.81330093e+01 
 1.02305973e-02 -9.56045783e+00  8.80899885e+01 
 1.04665121e-02 -9.36266308e+00  8.80459779e+01 
 1.07078670e-02 -9.16487883e+00  8.80009548e+01 
 1.09547876e-02 -8.96710554e+00  8.79548961e+01 
 1.12074020e-02 -8.76934375e+00  8.79077780e+01 
 1.14658417e-02 -8.57159397e+00  8.78595763e+01 
 1.17302409e-02 -8.37385677e+00  8.78102662e+01 
 1.20007371e-02 -8.17613274e+00  8.77598224e+01 
 1.22774708e-02 -7.97842248e+00  8.77082190e+01 
 1.25605860e-02 -7.78072664e+00  8.76554294e+01 
 1.28502297e-02 -7.58304588e+00  8.76014267e+01 
 1.31465525e-02 -7.38538092e+00  8.75461831e+01 
 1.34497085e-02 -7.18773248e+00  8.74896703e+01 
 1.37598551e-02 -6.99010133e+00  8.74318594e+01 
 1.40771537e-02 -6.79248827e+00  8.73727208e+01 
 1.44017690e-02 -6.59489414e+00  8.73122243e+01 
 1.47338699e-02 -6.39731983e+00  8.72503390e+01 
 1.50736290e-02 -6.19976626e+00  8.71870332e+01 
 1.54212228e-02 -6.00223438e+00  8.71222748e+01 
 1.57768320e-02 -5.80472520e+00  8.70560306e+01 
 1.61406415e-02 -5.60723978e+00  8.69882671e+01 
 1.65128404e-02 -5.40977922e+00  8.69189496e+01 
 1.68936220e-02 -5.21234467e+00  8.68480431e+01 
 1.72831844e-02 -5.01493734e+00  8.67755114e+01 
 1.76817299e-02 -4.81755849e+00  8.67013179e+01 
 1.80894658e-02 -4.62020944e+00  8.66254250e+01 
 1.85066040e-02 -4.42289157e+00  8.65477943e+01 
 1.89333613e-02 -4.22560633e+00  8.64683866e+01 
 1.93699595e-02 -4.02835522e+00  8.63871618e+01 
 1.98166255e-02 -3.83113982e+00  8.63040791e+01 
 2.02735916e-02 -3.63396180e+00  8.62190966e+01 
 2.07410951e-02 -3.43682286e+00  8.61321716e+01 
 2.12193792e-02 -3.23972483e+00  8.60432607e+01 
 2.17086923e-02 -3.04266959e+00  8.59523192e+01 
 2.22092889e-02 -2.84565912e+00  8.58593018e+01 
 2.27214291e-02 -2.64869549e+00  8.57641620e+01 
 2.32453791e-02 -2.45178085e+00  8.56668526e+01 
 2.37814113e-02 -2.25491747e+00  8.55673251e+01 
 2.43298042e-02 -2.05810770e+00  8.54655303e+01 
 2.48908429e-02 -1.86135403e+00  8.53614179e+01 
 2.54648190e-02 -1.66465903e+00  8.52549363e+01 
 2.60520309e-02 -1.46802539e+00  8.51460334e+01 
 2.66527837e-02 -1.27145595e+00  8.50346555e+01 
 2.72673897e-02 -1.07495365e+00  8.49207483e+01 
 2.78961683e-02 -8.78521583e-01  8.48042560e+01 
 2.85394464e-02 -6.82162959e-01  8.46851220e+01 
 2.91975583e-02 -4.85881150e-01  8.45632885e+01 
 2.98708461e-02 -2.89679677e-01  8.44386965e+01 
 3.05596598e-02 -9.35622161e-02  8.43112861e+01 
 3.12643573e-02  1.02467391e-01  8.41809960e+01 
 3.19853049e-02  2.98405129e-01  8.40477639e+01 
 3.27228774e-02  4.94246805e-01  8.39115264e+01 
 3.34774581e-02  6.89988038e-01  8.37722188e+01 
 3.42494392e-02  8.85624252e-01  8.36297752e+01 
 3.50392221e-02  1.08115067e+00  8.34841287e+01 
 3.58472171e-02  1.27656230e+00  8.33352112e+01 
 3.66738442e-02  1.47185393e+00  8.31829532e+01 
 3.75195331e-02  1.66702013e+00  8.30272842e+01 
 3.83847234e-02  1.86205521e+00  8.28681326e+01 
 3.92698648e-02  2.05695324e+00  8.27054253e+01 
 4.01754173e-02  2.25170804e+00  8.25390885e+01 
 4.11018515e-02  2.44631315e+00  8.23690467e+01 
 4.20496491e-02  2.64076183e+00  8.21952237e+01 
 4.30193027e-02  2.83504706e+00  8.20175419e+01 
 4.40113162e-02  3.02916151e+00  8.18359226e+01 
 4.50262052e-02  3.22309752e+00  8.16502860e+01 
 4.60644974e-02  3.41684713e+00  8.14605512e+01 
 4.71267322e-02  3.61040202e+00  8.12666363e+01 
 4.82134619e-02  3.80375353e+00  8.10684582e+01 
 4.93252513e-02  3.99689262e+00  8.08659329e+01 
 5.04626783e-02  4.18980989e+00  8.06589755e+01 
 5.16263340e-02  4.38249554e+00  8.04474999e+01 
 5.28168234e-02  4.57493935e+00  8.02314193e+01 
 5.40347650e-02  4.76713069e+00  8.00106460e+01 
 5.52807921e-02  4.95905849e+00  7.97850914e+01 
 5.65555523e-02  5.15071124e+00  7.95546664e+01 
 5.78597080e-02  5.34207693e+00  7.93192809e+01 
 5.91939372e-02  5.53314311e+00  7.90788444e+01 
 6.05589334e-02  5.72389679e+00  7.88332658e+01 
 6.19554061e-02  5.91432450e+00  7.85824537e+01 
 6.33840810e-02  6.10441222e+00  7.83263160e+01 
 6.48457008e-02  6.29414539e+00  7.80647607e+01 
 6.63410251e-02  6.48350887e+00  7.77976954e+01 
 6.78708313e-02  6.67248697e+00  7.75250278e+01 
 6.94359143e-02  6.86106339e+00  7.72466655e+01 
 7.10370877e-02  7.04922120e+00  7.69625164e+01 
 7.26751838e-02  7.23694287e+00  7.66724888e+01 
 7.43510539e-02  7.42421021e+00  7.63764915e+01 
 7.60655691e-02  7.61100437e+00  7.60744337e+01 
 7.78196206e-02  7.79730584e+00  7.57662257e+01 
 7.96141200e-02  7.98309441e+00  7.54517786e+01 
 8.14500001e-02  8.16834916e+00  7.51310049e+01 
 8.33282151e-02  8.35304847e+00  7.48038182e+01 
 8.52497412e-02  8.53716999e+00  7.44701339e+01 
 8.72155772e-02  8.72069062e+00  7.41298692e+01 
 8.92267449e-02  8.90358651e+00  7.37829431e+01 
 9.12842895e-02  9.08583306e+00  7.34292772e+01 
 9.33892805e-02  9.26740490e+00  7.30687955e+01 
 9.55428121e-02  9.44827589e+00  7.27014248e+01 
 9.77460036e-02  9.62841909e+00  7.23270950e+01 
 1.00000000e-01  9.80780681e+00  7.19457394e+01 
 1.02305973e-01  9.98641056e+00  7.15572951e+01 
 1.04665121e-01  1.01642011e+01  7.11617030e+01 
 1.07078670e-01  1.03411483e+01  7.07589083e+01 
 1.09547876e-01  1.05172214e+01  7.03488611e+01 
 1.12074020e-01  1.06923889e+01  6.99315162e+01 
 1.14658417e-01  1.08666184e+01  6.95068340e+01 
 1.17302409e-01  1.10398768e+01  6.90747804e+01 
 1.20007371e-01  1.12121305e+01  6.86353274e+01 
 1.22774708e-01  1.13833448e+01  6.81884535e+01 
 1.25605860e-01  1.15534847e+01  6.77341439e+01 
 1.28502297e-01  1.17225144e+01  6.72723910e+01 
 1.31465525e-01  1.18903975e+01  6.68031949e+01 
 1.34497085e-01  1.20570972e+01  6.63265634e+01 
 1.37598551e-01  1.22225758e+01  6.58425127e+01 
 1.40771537e-01  1.23867955e+01  6.53510676e+01 
 1.44017690e-01  1.25497179e+01  6.48522621e+01 
 1.47338699e-01  1.27113043e+01  6.43461392e+01 
 1.50736290e-01  1.28715155e+01  6.38327520e+01 
 1.54212228e-01  1.30303124e+01  6.33121634e+01 
 1.57768320e-01  1.31876553e+01  6.27844467e+01 
 1.61406415e-01  1.33435048e+01  6.22496858e+01 
 1.65128404e-01  1.34978212e+01  6.17079753e+01 
 1.68936220e-01  1.36505651e+01  6.11594212e+01 
 1.72831844e-01  1.38016969e+01  6.06041407e+01 
 1.76817299e-01  1.39511776e+01  6.00422623e+01 
 1.80894658e-01  1.40989683e+01  5.94739264e+01 
 1.85066040e-01  1.42450307e+01  5.88992849e+01 
 1.89333613e-01  1.43893268e+01  5.83185015e+01 
 1.93699595e-01  1.45318195e+01  5.77317519e+01 
 1.98166255e-01  1.46724724e+01  5.71392233e+01 
 2.02735916e-01  1.48112497e+01  5.65411147e+01 
 2.07410951e-01  1.49481169e+01  5.59376366e+01 
 2.12193792e-01  1.50830403e+01  5.53290109e+01 
 2.17086923e-01  1.52159875e+01  5.47154707e+01 
 2.22092889e-01  1.53469275e+01  5.40972599e+01 
 2.27214291e-01  1.54758305e+01  5.34746329e+01 
 2.32453791e-01  1.56026683e+01  5.28478542e+01 
 2.37814113e-01  1.57274141e+01  5.22171981e+01 
 2.43298042e-01  1.58500432e+01  5.15829479e+01 
 2.48908429e-01  1.59705324e+01  5.09453958e+01 
 2.54648190e-01  1.60888603e+01  5.03048418e+01 
 2.60520309e-01  1.62050077e+01  4.96615933e+01 
 2.66527837e-01  1.63189574e+01  4.90159647e+01 
 2.72673897e-01  1.64306941e+01  4.83682761e+01 
 2.78961683e-01  1.65402048e+01  4.77188528e+01 
 2.85394464e-01  1.66474787e+01  4.70680247e+01 
 2.91975583e-01  1.67525074e+01  4.64161253e+01 
 2.98708461e-01  1.68552846e+01  4.57634907e+01 
 3.05596598e-01  1.69558064e+01  4.51104591e+01 
 3.12643573e-01  1.70540712e+01  4.44573695e+01 
 3.19853049e-01  1.71500797e+01  4.38045614e+01 
 3.27228774e-01  1.72438352e+01  4.31523732e+01 
 3.34774581e-01  1.73353430e+01  4.25011419e+01 
 3.42494392e-01  1.74246109e+01  4.18512019e+01 
 3.50392221e-01  1.75116490e+01  4.12028845e+01 
 3.58472171e-01  1.75964694e+01  4.05565166e+01 
 3.66738442e-01  1.76790866e+01  3.99124202e+01 
 3.75195331e-01  1.77595173e+01  3.92709116e+01 
 3.83847234e-01  1.78377799e+01  3.86323008e+01 
 3.92698648e-01  1.79138951e+01  3.79968903e+01 
 4.01754173e-01  1.79878855e+01  3.73649751e+01 
 4.11018515e-01  1.80597754e+01  3.67368415e+01 
 4.20496491e-01  1.81295908e+01  3.61127669e+01 
 4.30193027e-01  1.81973594e+01  3.54930192e+01 
 4.40113162e-01  1.82631105e+01  3.48778564e+01 
 4.50262052e-01  1.83268747e+01  3.42675258e+01 
 4.60644974e-01  1.83886840e+01  3.36622644e+01 
 4.71267322e-01  1.84485716e+01  3.30622977e+01 
 4.82134619e-01  1.85065718e+01  3.24678403e+01 
 4.93252513e-01  1.85627199e+01  3.18790950e+01 
 5.04626783e-01  1.86170521e+01  3.12962531e+01 
 5.16263340e-01  1.86696054e+01  3.07194941e+01 
 5.28168234e-01  1.87204175e+01  3.01489858e+01 
 5.40347650e-01  1.87695264e+01  2.95848842e+01 
 5.52807921e-01  1.88169710e+01  2.90273334e+01 
 5.65555523e-01  1.88627902e+01  2.84764661e+01 
 5.78597080e-01  1.89070234e+01  2.79324034e+01 
 5.91939372e-01  1.89497101e+01  2.73952547e+01 
 6.05589334e-01  1.89908899e+01  2.68651188e+01 
 6.19554061e-01  1.90306024e+01  2.63420830e+01 
 6.33840810e-01  1.90688871e+01  2.58262243e+01 
 6.48457008e-01  1.91057833e+01  2.53176090e+01 
 6.63410251e-01  1.91413303e+01  2.48162935e+01 
 6.78708313e-01  1.91755668e+01  2.43223242e+01 
 6.94359143e-01  1.92085314e+01  2.38357381e+01 
 7.10370877e-01  1.92402622e+01  2.33565630e+01 
 7.26751838e-01  1.92707968e+01  2.28848181e+01 
 7.43510539e-01  1.93001723e+01  2.24205140e+01 
 7.60655691e-01  1.93284253e+01  2.19636533e+01 
 7.78196206e-01  1.93555919e+01  2.15142309e+01 
 7.96141200e-01  1.93817073e+01  2.10722345e+01 
 8.14500001e-01  1.94068062e+01  2.06376448e+01 
 8.33282151e-01  1.94309227e+01  2.02104359e+01 
 8.52497412e-01  1.94540900e+01  1.97905758e+01 
 8.72155772e-01  1.94763408e+01  1.93780267e+01 
 8.92267449e-01  1.94977068e+01  1.89727452e+01 
 9.12842895e-01  1.95182192e+01  1.85746830e+01 
 9.33892805e-01  1.95379083e+01  1.81837868e+01 
 9.55428121e-01  1.95568035e+01  1.77999990e+01 
 9.77460036e-01  1.95749336e+01  1.74232580e+01 
 1.00000000e+00  1.95923266e+01  1.70534982e+01 
 1.02305973e+00  1.96090097e+01  1.66906507e+01 
 1.04665121e+00  1.96250093e+01  1.63346432e+01 
 1.07078670e+00  1.96403510e+01  1.59854008e+01 
 1.09547876e+00  1.96550597e+01  1.56428456e+01 
 1.12074020e+00  1.96691595e+01  1.53068976e+01 
 1.14658417e+00  1.96826738e+01  1.49774747e+01 
 1.17302409e+00  1.96956251e+01  1.46544926e+01 
 1.20007371e+00  1.97080353e+01  1.43378656e+01 
 1.22774708e+00  1.97199256e+01  1.40275066e+01 
 1.25605860e+00  1.97313164e+01  1.37233269e+01 
 1.28502297e+00  1.97422275e+01  1.34252372e+01 
 1.31465525e+00  1.97526779e+01  1.31331471e+01 
 1.34497085e+00  1.97626861e+01  1.28469653e+01 
 1.37598551e+00  1.97722697e+01  1.25666004e+01 
 1.40771537e+00  1.97814461e+01  1.22919603e+01 
 1.44017690e+00  1.97902315e+01  1.20229526e+01 
 1.47338699e+00  1.97986420e+01  1.17594851e+01 
 1.50736290e+00  1.98066929e+01  1.15014654e+01 
 1.54212228e+00  1.98143989e+01  1.12488011e+01 
 1.57768320e+00  1.98217742e+01  1.10014002e+01 
 1.61406415e+00  1.98288325e+01  1.07591712e+01 
 1.65128404e+00  1.98355870e+01  1.05220226e+01 
 1.68936220e+00  1.98420502e+01  1.02898638e+01 
 1.72831844e+00  1.98482343e+01  1.00626044e+01 
 1.76817299e+00  1.98541511e+01  9.84015512e+00 
 1.80894658e+00  1.98598116e+01  9.62242701e+00 
 1.85066040e+00  1.98652268e+01  9.40933208e+00 
 1.89333613e+00  1.98704069e+01  9.20078313e+00 
 1.93699595e+00  1.98753619e+01  8.99669386e+00 
 1.98166255e+00  1.98801013e+01  8.79697891e+00 
 2.02735916e+00  1.98846343e+01  8.60155386e+00 
 2.07410951e+00  1.98889697e+01  8.41033532e+00 
 2.12193792e+00  1.98931159e+01  8.22324093e+00 
 2.17086923e+00  1.98970810e+01  8.04018939e+00 
 2.22092889e+00  1.99008728e+01  7.86110049e+00 
 2.27214291e+00  1.99044986e+01  7.68589513e+00 
 2.32453791e+00  1.99079657e+01  7.51449535e+00 
 2.37814113e+00  1.99112808e+01  7.34682431e+00 
 2.43298042e+00  1.99144506e+01  7.18280634e+00 
 2.48908429e+00  1.99174812e+01  7.02236693e+00 
 2.54648190e+00  1.99203787e+01  6.86543275e+00 
 2.60520309e+00  1.99231488e+01  6.71193162e+00 
 2.66527837e+00  1.99257972e+01  6.56179258e+00 
 2.72673897e+00  1.99283290e+01  6.41494582e+00 
 2.78961683e+00  1.99307493e+01  6.27132271e+00 
 2.85394464e+00  1.99330631e+01  6.13085582e+00 
 2.91975583e+00  1.99352748e+01  5.99347888e+00 
 2.98708461e+00  1.99373890e+01  5.85912679e+00 
 3.05596598e+00  1.99394100e+01  5.72773562e+00 
 3.12643573e+00  1.99413417e+01  5.59924259e+00 
 3.19853049e+00  1.99431882e+01  5.47358608e+00 
 3.27228774e+00  1.99449531e+01  5.35070560e+00 
 3.34774581e+00  1.99466400e+01  5.23054179e+00 
 3.42494392e+00  1.99482523e+01  5.11303641e+00 
 3.50392221e+00  1.99497933e+01  4.99813234e+00 
 3.58472171e+00  1.99512661e+01  4.88577353e+00 
 3.66738442e+00  1.99526738e+01  4.77590503e+00 
 3.75195331e+00  1.99540191e+01  4.66847295e+00 
 3.83847234e+00  1.99553049e+01  4.56342448e+00 
 3.92698648e+00  1.99565337e+01  4.46070782e+00 
 4.01754173e+00  1.99577080e+01  4.36027221e+00 
 4.11018515e+00  1.99588304e+01  4.26206792e+00 
 4.20496491e+00  1.99599029e+01  4.16604620e+00 
 4.30193027e+00  1.99609279e+01  4.07215929e+00 
 4.40113162e+00  1.99619075e+01  3.98036040e+00 
 4.50262052e+00  1.99628436e+01  3.89060369e+00 
 4.60644974e+00  1.99637381e+01  3.80284426e+00 
 4.71267322e+00  1.99645930e+01  3.71703814e+00 
 4.82134619e+00  1.99654099e+01  3.63314225e+00 
 4.93252513e+00  1.99661906e+01  3.55111443e+00 
 5.04626783e+00  1.99669365e+01  3.47091338e+00 
 5.16263340e+00  1.99676494e+01  3.39249865e+00 
 5.28168234e+00  1.99683306e+01  3.31583066e+00 
 5.40347650e+00  1.99689815e+01  3.24087065e+00 
 5.52807921e+00  1.99696035e+01  3.16758068e+00 
 5.65555523e+00  1.99701979e+01  3.09592361e+00 
 5.78597080e+00  1.99707658e+01  3.02586308e+00 
 5.91939372e+00  1.99713085e+01  2.95736350e+00 
 6.05589334e+00  1.99718271e+01  2.89039005e+00 
 6.19554061e+00  1.99723226e+01  2.82490865e+00 
 6.33840810e+00  1.99727961e+01  2.76088593e+00 
 6.48457008e+00  1.99732485e+01  2.69828926e+00 
 6.63410251e+00  1.99736808e+01  2.63708669e+00 
 6.78708313e+00  1.99740939e+01  2.57724695e+00 
 6.94359143e+00  1.99744886e+01  2.51873947e+00 
 7.10370877e+00  1.99748657e+01  2.46153432e+00 
 7.26751838e+00  1.99752261e+01  2.40560221e+00 
 7.43510539e+00  1.99755704e+01  2.35091449e+00 
 7.60655691e+00  1.99758995e+01  2.29744314e+00 
 7.78196206e+00  1.99762138e+01  2.24516072e+00 
 7.96141200e+00  1.99765142e+01  2.19404040e+00 
 8.14500001e+00  1.99768012e+01  2.14405593e+00 
 8.33282151e+00  1.99770754e+01  2.09518164e+00 
 8.52497412e+00  1.99773375e+01  2.04739239e+00 
 8.72155772e+00  1.99775878e+01  2.00066362e+00 
 8.92267449e+00  1.99778270e+01  1.95497127e+00 
 9.12842895e+00  1.99780556e+01  1.91029182e+00 
 9.33892805e+00  1.99782740e+01  1.86660227e+00 
 9.55428121e+00  1.99784827e+01  1.82388011e+00 
 9.77460036e+00  1.99786820e+01  1.78210331e+00 
 1.00000000e+01  1.99788725e+01  1.74125033e+00 
 1.02305973e+01  1.99790545e+01  1.70130010e+00 
 1.04665121e+01  1.99792284e+01  1.66223202e+00 
 1.07078670e+01  1.99793946e+01  1.62402590e+00 
 1.09547876e+01  1.99795534e+01  1.58666204e+00 
 1.12074020e+01  1.99797050e+01  1.55012112e+00 
 1.14658417e+01  1.99798500e+01  1.51438428e+00 
 1.17302409e+01  1.99799885e+01  1.47943304e+00 
 1.20007371e+01  1.99801208e+01  1.44524934e+00 
 1.22774708e+01  1.99802472e+01  1.41181550e+00 
 1.25605860e+01  1.99803680e+01  1.37911424e+00 
 1.28502297e+01  1.99804834e+01  1.34712864e+00 
 1.31465525e+01  1.99805936e+01  1.31584215e+00 
 1.34497085e+01  1.99806990e+01  1.28523858e+00 
 1.37598551e+01  1.99807996e+01  1.25530209e+00 
 1.40771537e+01  1.99808958e+01  1.22601719e+00 
 1.44017690e+01  1.99809877e+01  1.19736870e+00 
 1.47338699e+01  1.99810755e+01  1.16934180e+00 
 1.50736290e+01  1.99811593e+01  1.14192197e+00 
 1.54212228e+01  1.99812395e+01  1.11509499e+00 
 1.57768320e+01  1.99813160e+01  1.08884698e+00 
 1.61406415e+01  1.99813892e+01  1.06316434e+00 
 1.65128404e+01  1.99814591e+01  1.03803374e+00 
 1.68936220e+01  1.99815259e+01  1.01344217e+00 
 1.72831844e+01  1.99815897e+01  9.89376872e-01 
 1.76817299e+01  1.99816506e+01  9.65825377e-01 
 1.80894658e+01  1.99817089e+01  9.42775469e-01 
 1.85066040e+01  1.99817645e+01  9.20215196e-01 
 1.89333613e+01  1.99818177e+01  8.98132858e-01 
 1.93699595e+01  1.99818685e+01  8.76517001e-01 
 1.98166255e+01  1.99819170e+01  8.55356411e-01 
 2.02735916e+01  1.99819634e+01  8.34640111e-01 
 2.07410951e+01  1.99820077e+01  8.14357353e-01 
 2.12193792e+01  1.99820500e+01  7.94497614e-01 
 2.17086923e+01  1.99820905e+01  7.75050586e-01 
 2.22092889e+01  1.99821291e+01  7.56006179e-01 
 2.27214291e+01  1.99821660e+01  7.37354509e-01 
 2.32453791e+01  1.99822013e+01  7.19085895e-01 
 2.37814113e+01  1.99822350e+01  7.01190854e-01 
 2.43298042e+01  1.99822671e+01  6.83660097e-01 
 2.48908429e+01  1.99822979e+01  6.66484524e-01 
 2.54648190e+01  1.99823273e+01  6.49655218e-01 
 2.60520309e+01  1.99823553e+01  6.33163442e-01 
 2.66527837e+01  1.99823822e+01  6.17000632e-01 
 2.72673897e+01  1.99824078e+01  6.01158397e-01 
 2.78961683e+01  1.99824322e+01  5.85628510e-01 
 2.85394464e+01  1.99824556e+01  5.70402907e-01 
 2.91975583e+01  1.99824780e+01  5.55473681e-01 
 2.98708461e+01  1.99824993e+01  5.40833080e-01 
 3.05596598e+01  1.99825197e+01  5.26473498e-01 
 3.12643573e+01  1.99825391e+01  5.12387479e-01 
 3.19853049e+01  1.99825577e+01  4.98567706e-01 
 3.27228774e+01  1.99825755e+01  4.85007001e-01 
 3.34774581e+01  1.99825925e+01  4.71698321e-01 
 3.42494392e+01  1.99826087e+01  4.58634752e-01 
 3.50392221e+01  1.99826242e+01  4.45809509e-01 
 3.58472171e+01  1.99826390e+01  4.33215929e-01 
 3.66738442e+01  1.99826531e+01  4.20847469e-01 
 3.75195331e+01  1.99826666e+01  4.08697706e-01 
 3.83847234e+01  1.99826795e+01  3.96760325e-01 
 3.92698648e+01  1.99826918e+01  3.85029127e-01 
 4.01754173e+01  1.99827036e+01  3.73498016e-01 
 4.11018515e+01  1.99827148e+01  3.62161000e-01 
 4.20496491e+01  1.99827255e+01  3.51012191e-01 
 4.30193027e+01  1.99827358e+01  3.40045794e-01 
 4.40113162e+01  1.99827455e+01  3.29256113e-01 
 4.50262052e+01  1.99827549e+01  3.18637541e-01 
 4.60644974e+01  1.99827638e+01  3.08184561e-01 
 4.71267322e+01  1.99827723e+01  2.97891741e-01 
 4.82134619e+01  1.99827804e+01  2.87753733e-01 
 4.93252513e+01  1.99827882e+01  2.77765270e-01 
 5.04626783e+01  1.99827956e+01  2.67921159e-01 
 5.16263340e+01  1.99828026e+01  2.58216288e-01 
 5.28168234e+01  1.99828094e+01  2.48645611e-01 
 5.40347650e+01  1.99828158e+01  2.39204157e-01 
 5.52807921e+01  1.99828219e+01  2.29887018e-01 
 5.65555523e+01  1.99828278e+01  2.20689353e-01 
 5.78597080e+01  1.99828333e+01  2.11606382e-01 
 5.91939372e+01  1.99828387e+01  2.02633385e-01 
 6.05589334e+01  1.99828437e+01  1.93765699e-01 
 6.19554061e+01  1.99828486e+01  1.84998716e-01 
 6.33840810e+01  1.99828532e+01  1.76327879e-01 
 6.48457008e+01  1.99828576e+01  1.67748682e-01 
 6.63410251e+01  1.99828617e+01  1.59256667e-01 
 6.78708313e+01  1.99828657e+01  1.50847421e-01 
 6.94359143e+01  1.99828695e+01  1.42516572e-01 
 7.10370877e+01  1.99828731e+01  1.34259792e-01 
 7.26751838e+01  1.99828765e+01  1.26072790e-01 
 7.43510539e+01  1.99828798e+01  1.17951310e-01 
 7.60655691e+01  1.99828829e+01  1.09891131e-01 
 7.78196206e+01  1.99828858e+01  1.01888066e-01 
 7.96141200e+01  1.99828886e+01  9.39379535e-02 
 8.14500001e+01  1.99828913e+01  8.60366626e-02 
 8.33282151e+01  1.99828938e+01  7.81800867e-02 
 8.52497412e+01  1.99828961e+01  7.03641424e-02 
 8.72155772e+01  1.99828984e+01  6.25847677e-02 
 8.92267449e+01  1.99829005e+01  5.48379192e-02 
 9.12842895e+01  1.99829025e+01  4.71195708e-02 
 9.33892805e+01  1.99829044e+01  3.94257110e-02 
 9.55428121e+01  1.99829061e+01  3.17523409e-02 
 9.77460036e+01  1.99829078e+01  2.40954725e-02 
 1.00000000e+02  1.99829094e+01  1.64511261e-02 
 1.02305973e+02  1.99829108e+01  8.81532874e-03 
 1.04665121e+02  1.99829122e+01  1.18411177e-03 
