 frequency       v(Amag_dB)      v(Aarg)        
 1.00000000e-02  1.02411766e+01  8.80512330e+01 
 1.02305973e-02  1.04389754e+01  8.80063277e+01 
 1.04665121e-02  1.06367640e+01  8.79603893e+01 
 1.07078670e-02  1.08345418e+01  8.79133940e+01 
 1.09547876e-02  1.10323083e+01  8.78653177e+01 
 1.12074020e-02  1.12300630e+01  8.78161356e+01 
 1.14658417e-02  1.14278053e+01  8.77658225e+01 
 1.17302409e-02  1.16255348e+01  8.77143523e+01 
 1.20007371e-02  1.18232507e+01  8.76616988e+01 
 1.22774708e-02  1.20209524e+01  8.76078349e+01 
 1.25605860e-02  1.22186394e+01  8.75527329e+01 
 1.28502297e-02  1.24163108e+01  8.74963645e+01 
 1.31465525e-02  1.26139660e+01  8.74387009e+01 
 1.34497085e-02  1.28116042e+01  8.73797124e+01 
 1.37598551e-02  1.30092247e+01  8.73193690e+01 
 1.40771537e-02  1.32068266e+01  8.72576397e+01 
 1.44017690e-02  1.34044090e+01  8.71944930e+01 
 1.47338699e-02  1.36019711e+01  8.71298966e+01 
 1.50736290e-02  1.37995119e+01  8.70638175e+01 
 1.54212228e-02  1.39970304e+01  8.69962221e+01 
 1.57768320e-02  1.41945255e+01  8.69270758e+01 
 1.61406415e-02  1.43919963e+01  8.68563436e+01 
 1.65128404e-02  1.45894415e+01  8.67839893e+01 
 1.68936220e-02  1.47868600e+01  8.67099763e+01 
 1.72831844e-02  1.49842505e+01  8.66342670e+01 
 1.76817299e-02  1.51816117e+01  8.65568230e+01 
 1.80894658e-02  1.53789424e+01  8.64776050e+01 
 1.85066040e-02  1.55762410e+01  8.63965731e+01 
 1.89333613e-02  1.57735061e+01  8.63136862e+01 
 1.93699595e-02  1.59707361e+01  8.62289026e+01 
 1.98166255e-02  1.61679295e+01  8.61421796e+01 
 2.02735916e-02  1.63650844e+01  8.60534736e+01 
 2.07410951e-02  1.65621992e+01  8.59627399e+01 
 2.12193792e-02  1.67592720e+01  8.58699331e+01 
 2.17086923e-02  1.69563008e+01  8.57750067e+01 
 2.22092889e-02  1.71532836e+01  8.56779134e+01 
 2.27214291e-02  1.73502183e+01  8.55786046e+01 
 2.32453791e-02  1.75471027e+01  8.54770310e+01 
 2.37814113e-02  1.77439344e+01  8.53731421e+01 
 2.43298042e-02  1.79407111e+01  8.52668864e+01 
 2.48908429e-02  1.81374301e+01  8.51582113e+01 
 2.54648190e-02  1.83340889e+01  8.50470632e+01 
 2.60520309e-02  1.85306846e+01  8.49333874e+01 
 2.66527837e-02  1.87272144e+01  8.48171281e+01 
 2.72673897e-02  1.89236753e+01  8.46982284e+01 
 2.78961683e-02  1.91200640e+01  8.45766302e+01 
 2.85394464e-02  1.93163772e+01  8.44522743e+01 
 2.91975583e-02  1.95126116e+01  8.43251004e+01 
 2.98708461e-02  1.97087635e+01  8.41950469e+01 
 3.05596598e-02  1.99048290e+01  8.40620512e+01 
 3.12643573e-02  2.01008044e+01  8.39260493e+01 
 3.19853049e-02  2.02966854e+01  8.37869763e+01 
 3.27228774e-02  2.04924677e+01  8.36447657e+01 
 3.34774581e-02  2.06880565e+01  8.34994158e+01 
 3.42494392e-02  2.08836279e+01  8.33507279e+01 
 3.50392221e-02  2.10790866e+01  8.31986963e+01 
 3.58472171e-02  2.12744274e+01  8.30432499e+01 
 3.66738442e-02  2.14696449e+01  8.28843162e+01 
 3.75195331e-02  2.16647337e+01  8.27218215e+01 
 3.83847234e-02  2.18596879e+01  8.25556910e+01 
 3.92698648e-02  2.20545014e+01  8.23858484e+01 
 4.01754173e-02  2.22491678e+01  8.22122165e+01 
 4.11018515e-02  2.24436805e+01  8.20347166e+01 
 4.20496491e-02  2.26380327e+01  8.18532690e+01 
 4.30193027e-02  2.28322171e+01  8.16677925e+01 
 4.40113162e-02  2.30262261e+01  8.14782051e+01 
 4.50262052e-02  2.32200520e+01  8.12844233e+01 
 4.60644974e-02  2.34136866e+01  8.10863627e+01 
 4.71267322e-02  2.36071214e+01  8.08839375e+01 
 4.82134619e-02  2.38003474e+01  8.06770610e+01 
 4.93252513e-02  2.39933554e+01  8.04656455e+01 
 5.04626783e-02  2.41861358e+01  8.02496019e+01 
 5.16263340e-02  2.43786785e+01  8.00288406e+01 
 5.28168234e-02  2.45709731e+01  7.98032706e+01 
 5.40347650e-02  2.47630086e+01  7.95728003e+01 
 5.52807921e-02  2.49547738e+01  7.93373370e+01 
 5.65555523e-02  2.51462568e+01  7.90967875e+01 
 5.78597080e-02  2.53373570e+01  7.88511685e+01 
 5.91939372e-02  2.55282385e+01  7.86001659e+01 
 6.05589334e-02  2.57187995e+01  7.83437929e+01 
 6.19554061e-02  2.59090263e+01  7.80819538e+01 
 6.33840810e-02  2.60989043e+01  7.78145523e+01 
 6.48457008e-02  2.62884189e+01  7.75414920e+01 
 6.63410251e-02  2.64775544e+01  7.72626760e+01 
 6.78708313e-02  2.66662949e+01  7.69780077e+01 
 6.94359143e-02  2.68546236e+01  7.66873903e+01 
 7.10370877e-02  2.70425233e+01  7.63907273e+01 
 7.26751838e-02  2.72299760e+01  7.60879223e+01 
 7.43510539e-02  2.74168768e+01  7.57790189e+01 
 7.60655691e-02  2.76033794e+01  7.54636462e+01 
 7.78196206e-02  2.77893773e+01  7.51418464e+01 
 7.96141200e-02  2.79748498e+01  7.48135260e+01 
 8.14500001e-02  2.81597756e+01  7.44785929e+01 
 8.33282151e-02  2.83441326e+01  7.41369563e+01 
 8.52497412e-02  2.85278981e+01  7.37885269e+01 
 8.72155772e-02  2.87110484e+01  7.34332174e+01 
 8.92267449e-02  2.88934750e+01  7.30711053e+01 
 9.12842895e-02  2.90753216e+01  7.27017847e+01 
 9.33892805e-02  2.92564779e+01  7.23253350e+01 
 9.55428121e-02  2.94369172e+01  7.19416786e+01 
 9.77460036e-02  2.96166122e+01  7.15507408e+01 
 1.00000000e-01  2.97954519e+01  7.11526296e+01 
 1.02305973e-01  2.99735731e+01  7.07469227e+01 
 1.04665121e-01  3.01508629e+01  7.03337325e+01 
 1.07078670e-01  3.03272910e+01  6.99129999e+01 
 1.09547876e-01  3.05028259e+01  6.94846705e+01 
 1.12074020e-01  3.06773551e+01  6.90488907e+01 
 1.14658417e-01  3.08510074e+01  6.86052284e+01 
 1.17302409e-01  3.10236681e+01  6.81538377e+01 
 1.20007371e-01  3.11952240e+01  6.76948924e+01 
 1.22774708e-01  3.13657990e+01  6.72279582e+01 
 1.25605860e-01  3.15352778e+01  6.67532189e+01 
 1.28502297e-01  3.17036243e+01  6.62706627e+01 
 1.31465525e-01  3.18707246e+01  6.57805052e+01 
 1.34497085e-01  3.20366961e+01  6.52823143e+01 
 1.37598551e-01  3.22013474e+01  6.47765448e+01 
 1.40771537e-01  3.23647928e+01  6.42627679e+01 
 1.44017690e-01  3.25269170e+01  6.37412365e+01 
 1.47338699e-01  3.26876070e+01  6.32122263e+01 
 1.50736290e-01  3.28469723e+01  6.26753161e+01 
 1.54212228e-01  3.30048259e+01  6.21310412e+01 
 1.57768320e-01  3.31612744e+01  6.15789875e+01 
 1.61406415e-01  3.33161332e+01  6.10197240e+01 
 1.65128404e-01  3.34695063e+01  6.04528449e+01 
 1.68936220e-01  3.36212119e+01  5.98789537e+01 
 1.72831844e-01  3.37712822e+01  5.92979131e+01 
 1.76817299e-01  3.39197466e+01  5.87095849e+01 
 1.80894658e-01  3.40664287e+01  5.81146246e+01 
 1.85066040e-01  3.42113596e+01  5.75129198e+01 
 1.89333613e-01  3.43545677e+01  5.69043581e+01 
 1.93699595e-01  3.44958833e+01  5.62896468e+01 
 1.98166255e-01  3.46353371e+01  5.56686991e+01 
 2.02735916e-01  3.47728940e+01  5.50417071e+01 
 2.07410951e-01  3.49085196e+01  5.44088739e+01 
 2.12193792e-01  3.50422427e+01  5.37701312e+01 
 2.17086923e-01  3.51739072e+01  5.31262666e+01 
 2.22092889e-01  3.53035452e+01  5.24772350e+01 
 2.27214291e-01  3.54311277e+01  5.18232814e+01 
 2.32453791e-01  3.55565693e+01  5.11649507e+01 
 2.37814113e-01  3.56799608e+01  5.05019276e+01 
 2.43298042e-01  3.58012192e+01  4.98347726e+01 
 2.48908429e-01  3.59203223e+01  4.91637659e+01 
 2.54648190e-01  3.60372497e+01  4.84891948e+01 
 2.60520309e-01  3.61519302e+01  4.78116505e+01 
 2.66527837e-01  3.62644541e+01  4.71308394e+01 
 2.72673897e-01  3.63747025e+01  4.64476616e+01 
 2.78961683e-01  3.64827661e+01  4.57618294e+01 
 2.85394464e-01  3.65885345e+01  4.50742537e+01 
 2.91975583e-01  3.66920509e+01  4.43849510e+01 
 2.98708461e-01  3.67933568e+01  4.36939378e+01 
 3.05596598e-01  3.68923548e+01  4.30021331e+01 
 3.12643573e-01  3.69890920e+01  4.23095546e+01 
 3.19853049e-01  3.70835701e+01  4.16165197e+01 
 3.27228774e-01  3.71757507e+01  4.09236437e+01 
 3.34774581e-01  3.72657260e+01  4.02306398e+01 
 3.42494392e-01  3.73534611e+01  3.95381176e+01 
 3.50392221e-01  3.74389667e+01  3.88463826e+01 
 3.58472171e-01  3.75222174e+01  3.81560313e+01 
 3.66738442e-01  3.76032687e+01  3.74670594e+01 
 3.75195331e-01  3.76821377e+01  3.67797542e+01 
 3.83847234e-01  3.77588435e+01  3.60943957e+01 
 3.92698648e-01  3.78334071e+01  3.54112557e+01 
 4.01754173e-01  3.79058513e+01  3.47305975e+01 
 4.11018515e-01  3.79761683e+01  3.40529620e+01 
 4.20496491e-01  3.80444500e+01  3.33780172e+01 
 4.30193027e-01  3.81106603e+01  3.27065686e+01 
 4.40113162e-01  3.81748606e+01  3.20385520e+01 
 4.50262052e-01  3.82370816e+01  3.13741789e+01 
 4.60644974e-01  3.82973548e+01  3.07136491e+01 
 4.71267322e-01  3.83556861e+01  3.00574244e+01 
 4.82134619e-01  3.84121641e+01  2.94051317e+01 
 4.93252513e-01  3.84667703e+01  2.87574790e+01 
 5.04626783e-01  3.85195672e+01  2.81143443e+01 
 5.16263340e-01  3.85705671e+01  2.74761292e+01 
 5.28168234e-01  3.86198549e+01  2.68424329e+01 
 5.40347650e-01  3.86674212e+01  2.62138912e+01 
 5.52807921e-01  3.87133270e+01  2.55903436e+01 
 5.65555523e-01  3.87575893e+01  2.49721299e+01 
 5.78597080e-01  3.88002883e+01  2.43588240e+01 
 5.91939372e-01  3.88414209e+01  2.37509886e+01 
 6.05589334e-01  3.88810273e+01  2.31486673e+01 
 6.19554061e-01  3.89191651e+01  2.25516555e+01 
 6.33840810e-01  3.89558720e+01  2.19599839e+01 
 6.48457008e-01  3.89911852e+01  2.13736722e+01 
 6.63410251e-01  3.90251255e+01  2.07929565e+01 
 6.78708313e-01  3.90577468e+01  2.02176017e+01 
 6.94359143e-01  3.90890704e+01  1.96478165e+01 
 7.10370877e-01  3.91191477e+01  1.90833527e+01 
 7.26751838e-01  3.91480138e+01  1.85241796e+01 
 7.43510539e-01  3.91756897e+01  1.79704676e+01 
 7.60655691e-01  3.92022106e+01  1.74221580e+01 
 7.78196206e-01  3.92276232e+01  1.68789808e+01 
 7.96141200e-01  3.92519479e+01  1.63410711e+01 
 8.14500001e-01  3.92752289e+01  1.58081501e+01 
 8.33282151e-01  3.92974857e+01  1.52803313e+01 
 8.52497412e-01  3.93187601e+01  1.47573285e+01 
 8.72155772e-01  3.93390604e+01  1.42394214e+01 
 8.92267449e-01  3.93584465e+01  1.37259422e+01 
 9.12842895e-01  3.93769161e+01  1.32173345e+01 
 9.33892805e-01  3.93945158e+01  1.27131156e+01 
 9.55428121e-01  3.94112533e+01  1.22135158e+01 
 9.77460036e-01  3.94271803e+01  1.17178858e+01 
 1.00000000e+00  3.94422949e+01  1.12266098e+01 
 1.02305973e+00  3.94566293e+01  1.07393759e+01 
 1.04665121e+00  3.94702059e+01  1.02560410e+01 
 1.07078670e+00  3.94830533e+01  9.77630139e+00 
 1.09547876e+00  3.94951773e+01  9.30032473e+00 
 1.12074020e+00  3.95066048e+01  8.82779755e+00 
 1.14658417e+00  3.95173544e+01  8.35856386e+00 
 1.17302409e+00  3.95274435e+01  7.89246499e+00 
 1.20007371e+00  3.95368946e+01  7.42919725e+00 
 1.22774708e+00  3.95456999e+01  6.96916461e+00 
 1.25605860e+00  3.95538978e+01  6.51162864e+00 
 1.28502297e+00  3.95614961e+01  6.05656467e+00 
 1.31465525e+00  3.95685025e+01  5.60393520e+00 
 1.34497085e+00  3.95749341e+01  5.15343297e+00 
 1.37598551e+00  3.95808018e+01  4.70488625e+00 
 1.40771537e+00  3.95861020e+01  4.25849272e+00 
 1.44017690e+00  3.95908669e+01  3.81345040e+00 
 1.47338699e+00  3.95950827e+01  3.37019220e+00 
 1.50736290e+00  3.95987700e+01  2.92817215e+00 
 1.54212228e+00  3.96019312e+01  2.48732787e+00 
 1.57768320e+00  3.96045719e+01  2.04747564e+00 
 1.61406415e+00  3.96066971e+01  1.60843156e+00 
 1.65128404e+00  3.96083072e+01  1.17011824e+00 
 1.68936220e+00  3.96094122e+01  7.32136197e-01 
 1.72831844e+00  3.96100012e+01  2.94716961e-01 
 1.76817299e+00  3.96100946e+01 -1.42942566e-01 
 1.80894658e+00  3.96096771e+01 -5.80516859e-01 
 1.85066040e+00  3.96087543e+01 -1.01839286e+00 
 1.89333613e+00  3.96073166e+01 -1.45647149e+00 
 1.93699595e+00  3.96053704e+01 -1.89522743e+00 
 1.98166255e+00  3.96029122e+01 -2.33484103e+00 
 2.02735916e+00  3.95999330e+01 -2.77531617e+00 
 2.07410951e+00  3.95964305e+01 -3.21692867e+00 
 2.12193792e+00  3.95923967e+01 -3.65977730e+00 
 2.17086923e+00  3.95878273e+01 -4.10413114e+00 
 2.22092889e+00  3.95827125e+01 -4.55008951e+00 
 2.27214291e+00  3.95770440e+01 -4.99783575e+00 
 2.32453791e+00  3.95708145e+01 -5.44762822e+00 
 2.37814113e+00  3.95640097e+01 -5.89949048e+00 
 2.43298042e+00  3.95566207e+01 -6.35367822e+00 
 2.48908429e+00  3.95486334e+01 -6.81029392e+00 
 2.54648190e+00  3.95400367e+01 -7.26958482e+00 
 2.60520309e+00  3.95308150e+01 -7.73165113e+00 
 2.66527837e+00  3.95209535e+01 -8.19666369e+00 
 2.72673897e+00  3.95104378e+01 -8.66485601e+00 
 2.78961683e+00  3.94992468e+01 -9.13619434e+00 
 2.85394464e+00  3.94873672e+01 -9.61103703e+00 
 2.91975583e+00  3.94747775e+01 -1.00894131e+01 
 2.98708461e+00  3.94614581e+01 -1.05714791e+01 
 3.05596598e+00  3.94473886e+01 -1.10573872e+01 
 3.12643573e+00  3.94325475e+01 -1.15472850e+01 
 3.19853049e+00  3.94169123e+01 -1.20413150e+01 
 3.27228774e+00  3.94004584e+01 -1.25395594e+01 
 3.34774581e+00  3.93831615e+01 -1.30421537e+01 
 3.42494392e+00  3.93649977e+01 -1.35492804e+01 
 3.50392221e+00  3.93459394e+01 -1.40610078e+01 
 3.58472171e+00  3.93259585e+01 -1.45774026e+01 
 3.66738442e+00  3.93050281e+01 -1.50986279e+01 
 3.75195331e+00  3.92831182e+01 -1.56247385e+01 
 3.83847234e+00  3.92602011e+01 -1.61559279e+01 
 3.92698648e+00  3.92362421e+01 -1.66920964e+01 
 4.01754173e+00  3.92112129e+01 -1.72334686e+01 
 4.11018515e+00  3.91850800e+01 -1.77800719e+01 
 4.20496491e+00  3.91578105e+01 -1.83319719e+01 
 4.30193027e+00  3.91293689e+01 -1.88891408e+01 
 4.40113162e+00  3.90997224e+01 -1.94517139e+01 
 4.50262052e+00  3.90688361e+01 -2.00197281e+01 
 4.60644974e+00  3.90366723e+01 -2.05931315e+01 
 4.71267322e+00  3.90031967e+01 -2.11720229e+01 
 4.82134619e+00  3.89683716e+01 -2.17563702e+01 
 4.93252513e+00  3.89321597e+01 -2.23461703e+01 
 5.04626783e+00  3.88945228e+01 -2.29413728e+01 
 5.16263340e+00  3.88554246e+01 -2.35420241e+01 
 5.28168234e+00  3.88148254e+01 -2.41480150e+01 
 5.40347650e+00  3.87726877e+01 -2.47593308e+01 
 5.52807921e+00  3.87289733e+01 -2.53759087e+01 
 5.65555523e+00  3.86836439e+01 -2.59976734e+01 
 5.78597080e+00  3.86366606e+01 -2.66245051e+01 
 5.91939372e+00  3.85879869e+01 -2.72563667e+01 
 6.05589334e+00  3.85375850e+01 -2.78931421e+01 
 6.19554061e+00  3.84854164e+01 -2.85346440e+01 
 6.33840810e+00  3.84314458e+01 -2.91807922e+01 
 6.48457008e+00  3.83756363e+01 -2.98314045e+01 
 6.63410251e+00  3.83179539e+01 -3.04863707e+01 
 6.78708313e+00  3.82583628e+01 -3.11454560e+01 
 6.94359143e+00  3.81968306e+01 -3.18085230e+01 
 7.10370877e+00  3.81333243e+01 -3.24753408e+01 
 7.26751838e+00  3.80678136e+01 -3.31457443e+01 
 7.43510539e+00  3.80002674e+01 -3.38194545e+01 
 7.60655691e+00  3.79306588e+01 -3.44963061e+01 
 7.78196206e+00  3.78589593e+01 -3.51759994e+01 
 7.96141200e+00  3.77851447e+01 -3.58583213e+01 
 8.14500001e+00  3.77091910e+01 -3.65430002e+01 
 8.33282151e+00  3.76310755e+01 -3.72297341e+01 
 8.52497412e+00  3.75507798e+01 -3.79183010e+01 
 8.72155772e+00  3.74682850e+01 -3.86083819e+01 
 8.92267449e+00  3.73835750e+01 -3.92996741e+01 
 9.12842895e+00  3.72966366e+01 -3.99919091e+01 
 9.33892805e+00  3.72074575e+01 -4.06847515e+01 
 9.55428121e+00  3.71160289e+01 -4.13779212e+01 
 9.77460036e+00  3.70223433e+01 -4.20710942e+01 
 1.00000000e+01  3.69263951e+01 -4.27639261e+01 
 1.02305973e+01  3.68281829e+01 -4.34561447e+01 
 1.04665121e+01  3.67277056e+01 -4.41474023e+01 
 1.07078670e+01  3.66249660e+01 -4.48374052e+01 
 1.09547876e+01  3.65199673e+01 -4.55257911e+01 
 1.12074020e+01  3.64127173e+01 -4.62122847e+01 
 1.14658417e+01  3.63032242e+01 -4.68965460e+01 
 1.17302409e+01  3.61915000e+01 -4.75782871e+01 
 1.20007371e+01  3.60775573e+01 -4.82571768e+01 
 1.22774708e+01  3.59614120e+01 -4.89329207e+01 
 1.25605860e+01  3.58430815e+01 -4.96052151e+01 
 1.28502297e+01  3.57225861e+01 -5.02737920e+01 
 1.31465525e+01  3.55999468e+01 -5.09383468e+01 
 1.34497085e+01  3.54751869e+01 -5.15985987e+01 
 1.37598551e+01  3.53483324e+01 -5.22543022e+01 
 1.40771537e+01  3.52194099e+01 -5.29051934e+01 
 1.44017690e+01  3.50884475e+01 -5.35510053e+01 
 1.47338699e+01  3.49554759e+01 -5.41915205e+01 
 1.50736290e+01  3.48205258e+01 -5.48264931e+01 
 1.54212228e+01  3.46836302e+01 -5.54557138e+01 
 1.57768320e+01  3.45448228e+01 -5.60789718e+01 
 1.61406415e+01  3.44041385e+01 -5.66960678e+01 
 1.65128404e+01  3.42616133e+01 -5.73068256e+01 
 1.68936220e+01  3.41172835e+01 -5.79110580e+01 
 1.72831844e+01  3.39711871e+01 -5.85086227e+01 
 1.76817299e+01  3.38233614e+01 -5.90993457e+01 
 1.80894658e+01  3.36738451e+01 -5.96830973e+01 
 1.85066040e+01  3.35226773e+01 -6.02597486e+01 
 1.89333613e+01  3.33698972e+01 -6.08291825e+01 
 1.93699595e+01  3.32155444e+01 -6.13912931e+01 
 1.98166255e+01  3.30596583e+01 -6.19459861e+01 
 2.02735916e+01  3.29022797e+01 -6.24931961e+01 
 2.07410951e+01  3.27434469e+01 -6.30328227e+01 
 2.12193792e+01  3.25831999e+01 -6.35648129e+01 
 2.17086923e+01  3.24215777e+01 -6.40891063e+01 
 2.22092889e+01  3.22586203e+01 -6.46056780e+01 
 2.27214291e+01  3.20943661e+01 -6.51144866e+01 
 2.32453791e+01  3.19288535e+01 -6.56155089e+01 
 2.37814113e+01  3.17621203e+01 -6.61087224e+01 
 2.43298042e+01  3.15942043e+01 -6.65941291e+01 
 2.48908429e+01  3.14251418e+01 -6.70717161e+01 
 2.54648190e+01  3.12549705e+01 -6.75415158e+01 
 2.60520309e+01  3.10837254e+01 -6.80035303e+01 
 2.66527837e+01  3.09114413e+01 -6.84577773e+01 
 2.72673897e+01  3.07381532e+01 -6.89042946e+01 
 2.78961683e+01  3.05638949e+01 -6.93431195e+01 
 2.85394464e+01  3.03886997e+01 -6.97742947e+01 
 2.91975583e+01  3.02125989e+01 -7.01978560e+01 
 2.98708461e+01  3.00356252e+01 -7.06138697e+01 
 3.05596598e+01  2.98578091e+01 -7.10223881e+01 
 3.12643573e+01  2.96791801e+01 -7.14234682e+01 
 3.19853049e+01  2.94997680e+01 -7.18171829e+01 
 3.27228774e+01  2.93196015e+01 -7.22036032e+01 
 3.34774581e+01  2.91387074e+01 -7.25827920e+01 
 3.42494392e+01  2.89571137e+01 -7.29548382e+01 
 3.50392221e+01  2.87748455e+01 -7.33198113e+01 
 3.58472171e+01  2.85919289e+01 -7.36778000e+01 
 3.66738442e+01  2.84083888e+01 -7.40288946e+01 
 3.75195331e+01  2.82242476e+01 -7.43731625e+01 
 3.83847234e+01  2.80395296e+01 -7.47107085e+01 
 3.92698648e+01  2.78542568e+01 -7.50416186e+01 
 4.01754173e+01  2.76684510e+01 -7.53659854e+01 
 4.11018515e+01  2.74821330e+01 -7.56839027e+01 
 4.20496491e+01  2.72953227e+01 -7.59954607e+01 
 4.30193027e+01  2.71080396e+01 -7.63007552e+01 
 4.40113162e+01  2.69203032e+01 -7.65998868e+01 
 4.50262052e+01  2.67321307e+01 -7.68929440e+01 
 4.60644974e+01  2.65435407e+01 -7.71800321e+01 
 4.71267322e+01  2.63545491e+01 -7.74612404e+01 
 4.82134619e+01  2.61651729e+01 -7.77366704e+01 
 4.93252513e+01  2.59754272e+01 -7.80064155e+01 
 5.04626783e+01  2.57853278e+01 -7.82705769e+01 
 5.16263340e+01  2.55948888e+01 -7.85292476e+01 
 5.28168234e+01  2.54041241e+01 -7.87825242e+01 
 5.40347650e+01  2.52130475e+01 -7.90305030e+01 
 5.52807921e+01  2.50216718e+01 -7.92732793e+01 
 5.65555523e+01  2.48300095e+01 -7.95109479e+01 
 5.78597080e+01  2.46380723e+01 -7.97435999e+01 
 5.91939372e+01  2.44458721e+01 -7.99713319e+01 
 6.05589334e+01  2.42534197e+01 -8.01942331e+01 
 6.19554061e+01  2.40607260e+01 -8.04123984e+01 
 6.33840810e+01  2.38678009e+01 -8.06259153e+01 
 6.48457008e+01  2.36746543e+01 -8.08348737e+01 
 6.63410251e+01  2.34812955e+01 -8.10393622e+01 
 6.78708313e+01  2.32877337e+01 -8.12394685e+01 
 6.94359143e+01  2.30939779e+01 -8.14352816e+01 
 7.10370877e+01  2.29000352e+01 -8.16268792e+01 
 7.26751838e+01  2.27059149e+01 -8.18143531e+01 
 7.43510539e+01  2.25116241e+01 -8.19977840e+01 
 7.60655691e+01  2.23171699e+01 -8.21772511e+01 
 7.78196206e+01  2.21225593e+01 -8.23528353e+01 
 7.96141200e+01  2.19277995e+01 -8.25246184e+01 
 8.14500001e+01  2.17328964e+01 -8.26926764e+01 
 8.33282151e+01  2.15378568e+01 -8.28570884e+01 
 8.52497412e+01  2.13426870e+01 -8.30179325e+01 
 8.72155772e+01  2.11473906e+01 -8.31752723e+01 
 8.92267449e+01  2.09519752e+01 -8.33291918e+01 
 9.12842895e+01  2.07564446e+01 -8.34797570e+01 
 9.33892805e+01  2.05608049e+01 -8.36270428e+01 
 9.55428121e+01  2.03650602e+01 -8.37711167e+01 
 9.77460036e+01  2.01692153e+01 -8.39120471e+01 
 1.00000000e+02  1.99732744e+01 -8.40499012e+01 
 1.02305973e+02  1.97772419e+01 -8.41847450e+01 
 1.04665121e+02  1.95811214e+01 -8.43166416e+01 
