 frequency       v(Amag_dB)      v(Aarg)        
 1.00000000e-02  1.02415423e+01  8.81082540e+01 
 1.02305973e-02  1.04393414e+01  8.80646636e+01 
 1.04665121e-02  1.06371302e+01  8.80200704e+01 
 1.07078670e-02  1.08349082e+01  8.79744513e+01 
 1.09547876e-02  1.10326749e+01  8.79277830e+01 
 1.12074020e-02  1.12304298e+01  8.78800413e+01 
 1.14658417e-02  1.14281724e+01  8.78312018e+01 
 1.17302409e-02  1.16259021e+01  8.77812393e+01 
 1.20007371e-02  1.18236183e+01  8.77301282e+01 
 1.22774708e-02  1.20213204e+01  8.76778422e+01 
 1.25605860e-02  1.22190076e+01  8.76243545e+01 
 1.28502297e-02  1.24166793e+01  8.75696377e+01 
 1.31465525e-02  1.26143349e+01  8.75136638e+01 
 1.34497085e-02  1.28119735e+01  8.74564040e+01 
 1.37598551e-02  1.30095943e+01  8.73978290e+01 
 1.40771537e-02  1.32071966e+01  8.73379090e+01 
 1.44017690e-02  1.34047794e+01  8.72766133e+01 
 1.47338699e-02  1.36023419e+01  8.72139105e+01 
 1.50736290e-02  1.37998831e+01  8.71497688e+01 
 1.54212228e-02  1.39974020e+01  8.70841553e+01 
 1.57768320e-02  1.41948977e+01  8.70170368e+01 
 1.61406415e-02  1.43923689e+01  8.69483790e+01 
 1.65128404e-02  1.45898147e+01  8.68781470e+01 
 1.68936220e-02  1.47872337e+01  8.68063053e+01 
 1.72831844e-02  1.49846248e+01  8.67328172e+01 
 1.76817299e-02  1.51819866e+01  8.66576457e+01 
 1.80894658e-02  1.53793179e+01  8.65807527e+01 
 1.85066040e-02  1.55766172e+01  8.65020993e+01 
 1.89333613e-02  1.57738830e+01  8.64216459e+01 
 1.93699595e-02  1.59711137e+01  8.63393518e+01 
 1.98166255e-02  1.61683078e+01  8.62551757e+01 
 2.02735916e-02  1.63654635e+01  8.61690753e+01 
 2.07410951e-02  1.65625792e+01  8.60810073e+01 
 2.12193792e-02  1.67596528e+01  8.59909277e+01 
 2.17086923e-02  1.69566825e+01  8.58987915e+01 
 2.22092889e-02  1.71536663e+01  8.58045525e+01 
 2.27214291e-02  1.73506020e+01  8.57081640e+01 
 2.32453791e-02  1.75474874e+01  8.56095780e+01 
 2.37814113e-02  1.77443202e+01  8.55087455e+01 
 2.43298042e-02  1.79410980e+01  8.54056168e+01 
 2.48908429e-02  1.81378182e+01  8.53001407e+01 
 2.54648190e-02  1.83344782e+01  8.51922655e+01 
 2.60520309e-02  1.85310753e+01  8.50819380e+01 
 2.66527837e-02  1.87276064e+01  8.49691042e+01 
 2.72673897e-02  1.89240687e+01  8.48537089e+01 
 2.78961683e-02  1.91204589e+01  8.47356960e+01 
 2.85394464e-02  1.93167737e+01  8.46150081e+01 
 2.91975583e-02  1.95130097e+01  8.44915867e+01 
 2.98708461e-02  1.97091633e+01  8.43653723e+01 
 3.05596598e-02  1.99052306e+01  8.42363042e+01 
 3.12643573e-02  2.01012079e+01  8.41043205e+01 
 3.19853049e-02  2.02970908e+01  8.39693582e+01 
 3.27228774e-02  2.04928752e+01  8.38313533e+01 
 3.34774581e-02  2.06885566e+01  8.36902402e+01 
 3.42494392e-02  2.08841302e+01  8.35459527e+01 
 3.50392221e-02  2.10795912e+01  8.33984229e+01 
 3.58472171e-02  2.12749344e+01  8.32475821e+01 
 3.66738442e-02  2.14701545e+01  8.30933602e+01 
 3.75195331e-02  2.16652459e+01  8.29356859e+01 
 3.83847234e-02  2.18602028e+01  8.27744870e+01 
 3.92698648e-02  2.20550192e+01  8.26096897e+01 
 4.01754173e-02  2.22496886e+01  8.24412195e+01 
 4.11018515e-02  2.24442045e+01  8.22690002e+01 
 4.20496491e-02  2.26385600e+01  8.20929550e+01 
 4.30193027e-02  2.28327478e+01  8.19130056e+01 
 4.40113162e-02  2.30267605e+01  8.17290726e+01 
 4.50262052e-02  2.32205902e+01  8.15410757e+01 
 4.60644974e-02  2.34142288e+01  8.13489333e+01 
 4.71267322e-02  2.36076677e+01  8.11525628e+01 
 4.82134619e-02  2.38008980e+01  8.09518806e+01 
 4.93252513e-02  2.39939106e+01  8.07468022e+01 
 5.04626783e-02  2.41866958e+01  8.05372420e+01 
 5.16263340e-02  2.43792435e+01  8.03231134e+01 
 5.28168234e-02  2.45715433e+01  8.01043291e+01 
 5.40347650e-02  2.47635843e+01  7.98808009e+01 
 5.52807921e-02  2.49553552e+01  7.96524398e+01 
 5.65555523e-02  2.51468442e+01  7.94191563e+01 
 5.78597080e-02  2.53380390e+01  7.91808600e+01 
 5.91939372e-02  2.55289269e+01  7.89374599e+01 
 6.05589334e-02  2.57194946e+01  7.86888649e+01 
 6.19554061e-02  2.59097284e+01  7.84349830e+01 
 6.33840810e-02  2.60996138e+01  7.81757222e+01 
 6.48457008e-02  2.62891361e+01  7.79109903e+01 
 6.63410251e-02  2.64782797e+01  7.76406948e+01 
 6.78708313e-02  2.66670286e+01  7.73647435e+01 
 6.94359143e-02  2.68553661e+01  7.70830440e+01 
 7.10370877e-02  2.70432751e+01  7.67955046e+01 
 7.26751838e-02  2.72307374e+01  7.65020336e+01 
 7.43510539e-02  2.74177348e+01  7.62025401e+01 
 7.60655691e-02  2.76042477e+01  7.58969340e+01 
 7.78196206e-02  2.77902565e+01  7.55851260e+01 
 7.96141200e-02  2.79757403e+01  7.52670279e+01 
 8.14500001e-02  2.81606780e+01  7.49425528e+01 
 8.33282151e-02  2.83450475e+01  7.46116153e+01 
 8.52497412e-02  2.85288260e+01  7.42741318e+01 
 8.72155772e-02  2.87119900e+01  7.39300206e+01 
 8.92267449e-02  2.88945151e+01  7.35792020e+01 
 9.12842895e-02  2.90763764e+01  7.32215991e+01 
 9.33892805e-02  2.92575481e+01  7.28571373e+01 
 9.55428121e-02  2.94380034e+01  7.24857452e+01 
 9.77460036e-02  2.96177152e+01  7.21073548e+01 
 1.00000000e-01  2.97966552e+01  7.17219012e+01 
 1.02305973e-01  2.99747944e+01  7.13293238e+01 
 1.04665121e-01  3.01521032e+01  7.09295660e+01 
 1.07078670e-01  3.03285511e+01  7.05225756e+01 
 1.09547876e-01  3.05041068e+01  7.01083055e+01 
 1.12074020e-01  3.06787383e+01  6.96867136e+01 
 1.14658417e-01  3.08524129e+01  6.92577634e+01 
 1.17302409e-01  3.10250971e+01  6.88214242e+01 
 1.20007371e-01  3.11967567e+01  6.83776718e+01 
 1.22774708e-01  3.13673568e+01  6.79264885e+01 
 1.25605860e-01  3.15368621e+01  6.74678635e+01 
 1.28502297e-01  3.17052362e+01  6.70017935e+01 
 1.31465525e-01  3.18724426e+01  6.65282831e+01 
 1.34497085e-01  3.20384440e+01  6.60473449e+01 
 1.37598551e-01  3.22032026e+01  6.55589999e+01 
 1.40771537e-01  3.23666802e+01  6.50632781e+01 
 1.44017690e-01  3.25288383e+01  6.45602187e+01 
 1.47338699e-01  3.26896379e+01  6.40498705e+01 
 1.50736290e-01  3.28490397e+01  6.35322921e+01 
 1.54212228e-01  3.30070045e+01  6.30075523e+01 
 1.57768320e-01  3.31634926e+01  6.24757305e+01 
 1.61406415e-01  3.33184644e+01  6.19369167e+01 
 1.65128404e-01  3.34718804e+01  6.13912121e+01 
 1.68936220e-01  3.36237011e+01  6.08387290e+01 
 1.72831844e-01  3.37738872e+01  6.02795911e+01 
 1.76817299e-01  3.39223998e+01  5.97139337e+01 
 1.80894658e-01  3.40692002e+01  5.91419037e+01 
 1.85066040e-01  3.42142505e+01  5.85636600e+01 
 1.89333613e-01  3.43575130e+01  5.79793730e+01 
 1.93699595e-01  3.44989510e+01  5.73892250e+01 
 1.98166255e-01  3.46385285e+01  5.67934101e+01 
 2.02735916e-01  3.47762104e+01  5.61921338e+01 
 2.07410951e-01  3.49119627e+01  5.55856132e+01 
 2.12193792e-01  3.50457524e+01  5.49740767e+01 
 2.17086923e-01  3.51775479e+01  5.43577635e+01 
 2.22092889e-01  3.53073188e+01  5.37369236e+01 
 2.27214291e-01  3.54350363e+01  5.31118174e+01 
 2.32453791e-01  3.55606730e+01  5.24827149e+01 
 2.37814113e-01  3.56842033e+01  5.18498956e+01 
 2.43298042e-01  3.58056032e+01  5.12136481e+01 
 2.48908429e-01  3.59248508e+01  5.05742690e+01 
 2.54648190e-01  3.60419257e+01  4.99320628e+01 
 2.60520309e-01  3.61568100e+01  4.92873408e+01 
 2.66527837e-01  3.62694875e+01  4.86404207e+01 
 2.72673897e-01  3.63799442e+01  4.79916257e+01 
 2.78961683e-01  3.64881685e+01  4.73412840e+01 
 2.85394464e-01  3.65941509e+01  4.66897275e+01 
 2.91975583e-01  3.66978841e+01  4.60372912e+01 
 2.98708461e-01  3.67993633e+01  4.53843125e+01 
 3.05596598e-01  3.68985859e+01  4.47311303e+01 
 3.12643573e-01  3.69955516e+01  4.40780837e+01 
 3.19853049e-01  3.70902627e+01  4.34255118e+01 
 3.27228774e-01  3.71827235e+01  4.27737522e+01 
 3.34774581e-01  3.72729408e+01  4.21231405e+01 
 3.42494392e-01  3.73609238e+01  4.14740093e+01 
 3.50392221e-01  3.74466836e+01  4.08266875e+01 
 3.58472171e-01  3.75302339e+01  4.01814992e+01 
 3.66738442e-01  3.76115902e+01  3.95387632e+01 
 3.75195331e-01  3.76907704e+01  3.88987922e+01 
 3.83847234e-01  3.77677943e+01  3.82618919e+01 
 3.92698648e-01  3.78426835e+01  3.76283605e+01 
 4.01754173e-01  3.79154616e+01  3.69984880e+01 
 4.11018515e-01  3.79861540e+01  3.63725557e+01 
 4.20496491e-01  3.80547877e+01  3.57508354e+01 
 4.30193027e-01  3.81213913e+01  3.51335893e+01 
 4.40113162e-01  3.81859948e+01  3.45210694e+01 
 4.50262052e-01  3.82486297e+01  3.39135169e+01 
 4.60644974e-01  3.83093286e+01  3.33111622e+01 
 4.71267322e-01  3.83681255e+01  3.27142245e+01 
 4.82134619e-01  3.84250552e+01  3.21229115e+01 
 4.93252513e-01  3.84801535e+01  3.15374194e+01 
 5.04626783e-01  3.85334572e+01  3.09579327e+01 
 5.16263340e-01  3.85850035e+01  3.03846240e+01 
 5.28168234e-01  3.86348304e+01  2.98176543e+01 
 5.40347650e-01  3.86829765e+01  2.92571727e+01 
 5.52807921e-01  3.87294807e+01  2.87033166e+01 
 5.65555523e-01  3.87743821e+01  2.81562119e+01 
 5.78597080e-01  3.88177202e+01  2.76159729e+01 
 5.91939372e-01  3.88595347e+01  2.70827029e+01 
 6.05589334e-01  3.88998650e+01  2.65564938e+01 
 6.19554061e-01  3.89387507e+01  2.60374270e+01 
 6.33840810e-01  3.89762313e+01  2.55255731e+01 
 6.48457008e-01  3.90123461e+01  2.50209928e+01 
 6.63410251e-01  3.90471340e+01  2.45237363e+01 
 6.78708313e-01  3.90806337e+01  2.40338448e+01 
 6.94359143e-01  3.91128834e+01  2.35513496e+01 
 7.10370877e-01  3.91439210e+01  2.30762736e+01 
 7.26751838e-01  3.91737839e+01  2.26086308e+01 
 7.43510539e-01  3.92025088e+01  2.21484271e+01 
 7.60655691e-01  3.92301320e+01  2.16956606e+01 
 7.78196206e-01  3.92566892e+01  2.12503217e+01 
 7.96141200e-01  3.92822153e+01  2.08123941e+01 
 8.14500001e-01  3.93067445e+01  2.03818546e+01 
 8.33282151e-01  3.93303106e+01  1.99586735e+01 
 8.52497412e-01  3.93529464e+01  1.95428153e+01 
 8.72155772e-01  3.93746841e+01  1.91342389e+01 
 8.92267449e-01  3.93955549e+01  1.87328979e+01 
 9.12842895e-01  3.94155897e+01  1.83387410e+01 
 9.33892805e-01  3.94348182e+01  1.79517122e+01 
 9.55428121e-01  3.94532695e+01  1.75717515e+01 
 9.77460036e-01  3.94709720e+01  1.71987949e+01 
 1.00000000e+00  3.94879530e+01  1.68327745e+01 
 1.02305973e+00  3.95042395e+01  1.64736195e+01 
 1.04665121e+00  3.95198573e+01  1.61212559e+01 
 1.07078670e+00  3.95348316e+01  1.57756068e+01 
 1.09547876e+00  3.95491869e+01  1.54365931e+01 
 1.12074020e+00  3.95629468e+01  1.51041332e+01 
 1.14658417e+00  3.95761343e+01  1.47781437e+01 
 1.17302409e+00  3.95887715e+01  1.44585394e+01 
 1.20007371e+00  3.96008799e+01  1.41452334e+01 
 1.22774708e+00  3.96124802e+01  1.38381376e+01 
 1.25605860e+00  3.96235924e+01  1.35371629e+01 
 1.28502297e+00  3.96342360e+01  1.32422189e+01 
 1.31465525e+00  3.96444297e+01  1.29532148e+01 
 1.34497085e+00  3.96541913e+01  1.26700588e+01 
 1.37598551e+00  3.96635384e+01  1.23926591e+01 
 1.40771537e+00  3.96724878e+01  1.21209232e+01 
 1.44017690e+00  3.96810555e+01  1.18547585e+01 
 1.47338699e+00  3.96892571e+01  1.15940725e+01 
 1.50736290e+00  3.96971077e+01  1.13387727e+01 
 1.54212228e+00  3.97046216e+01  1.10887668e+01 
 1.57768320e+00  3.97118128e+01  1.08439627e+01 
 1.61406415e+00  3.97186946e+01  1.06042687e+01 
 1.65128404e+00  3.97252798e+01  1.03695936e+01 
 1.68936220e+00  3.97315809e+01  1.01398468e+01 
 1.72831844e+00  3.97376097e+01  9.91493824e+00 
 1.76817299e+00  3.97433776e+01  9.69477860e+00 
 1.80894658e+00  3.97488956e+01  9.47927926e+00 
 1.85066040e+00  3.97541742e+01  9.26835245e+00 
 1.89333613e+00  3.97592235e+01  9.06191124e+00 
 1.93699595e+00  3.97640532e+01  8.85986962e+00 
 1.98166255e+00  3.97686727e+01  8.66214252e+00 
 2.02735916e+00  3.97730909e+01  8.46864584e+00 
 2.07410951e+00  3.97773163e+01  8.27929653e+00 
 2.12193792e+00  3.97813573e+01  8.09401257e+00 
 2.17086923e+00  3.97852216e+01  7.91271300e+00 
 2.22092889e+00  3.97889169e+01  7.73531799e+00 
 2.27214291e+00  3.97924505e+01  7.56174878e+00 
 2.32453791e+00  3.97958292e+01  7.39192777e+00 
 2.37814113e+00  3.97990598e+01  7.22577850e+00 
 2.43298042e+00  3.98021487e+01  7.06322566e+00 
 2.48908429e+00  3.98051019e+01  6.90419509e+00 
 2.54648190e+00  3.98079253e+01  6.74861382e+00 
 2.60520309e+00  3.98106246e+01  6.59641002e+00 
 2.66527837e+00  3.98132052e+01  6.44751307e+00 
 2.72673897e+00  3.98156722e+01  6.30185350e+00 
 2.78961683e+00  3.98180305e+01  6.15936301e+00 
 2.85394464e+00  3.98202849e+01  6.01997448e+00 
 2.91975583e+00  3.98224399e+01  5.88362195e+00 
 2.98708461e+00  3.98244999e+01  5.75024062e+00 
 3.05596598e+00  3.98264689e+01  5.61976683e+00 
 3.12643573e+00  3.98283510e+01  5.49213808e+00 
 3.19853049e+00  3.98301500e+01  5.36729299e+00 
 3.27228774e+00  3.98318694e+01  5.24517132e+00 
 3.34774581e+00  3.98335129e+01  5.12571393e+00 
 3.42494392e+00  3.98350837e+01  5.00886279e+00 
 3.50392221e+00  3.98365850e+01  4.89456095e+00 
 3.58472171e+00  3.98380198e+01  4.78275256e+00 
 3.66738442e+00  3.98393911e+01  4.67338282e+00 
 3.75195331e+00  3.98407017e+01  4.56639797e+00 
 3.83847234e+00  3.98419543e+01  4.46174531e+00 
 3.92698648e+00  3.98431513e+01  4.35937315e+00 
 4.01754173e+00  3.98442953e+01  4.25923082e+00 
 4.11018515e+00  3.98453886e+01  4.16126862e+00 
 4.20496491e+00  3.98464334e+01  4.06543786e+00 
 4.30193027e+00  3.98474318e+01  3.97169079e+00 
 4.40113162e+00  3.98483859e+01  3.87998061e+00 
 4.50262052e+00  3.98492977e+01  3.79026146e+00 
 4.60644974e+00  3.98501690e+01  3.70248839e+00 
 4.71267322e+00  3.98510016e+01  3.61661737e+00 
 4.82134619e+00  3.98517973e+01  3.53260522e+00 
 4.93252513e+00  3.98525575e+01  3.45040966e+00 
 5.04626783e+00  3.98532841e+01  3.36998925e+00 
 5.16263340e+00  3.98539783e+01  3.29130340e+00 
 5.28168234e+00  3.98546416e+01  3.21431232e+00 
 5.40347650e+00  3.98552755e+01  3.13897706e+00 
 5.52807921e+00  3.98558812e+01  3.06525943e+00 
 5.65555523e+00  3.98564599e+01  2.99312203e+00 
 5.78597080e+00  3.98570129e+01  2.92252822e+00 
 5.91939372e+00  3.98575413e+01  2.85344211e+00 
 6.05589334e+00  3.98580462e+01  2.78582855e+00 
 6.19554061e+00  3.98585286e+01  2.71965307e+00 
 6.33840810e+00  3.98589895e+01  2.65488195e+00 
 6.48457008e+00  3.98594298e+01  2.59148211e+00 
 6.63410251e+00  3.98598506e+01  2.52942118e+00 
 6.78708313e+00  3.98602526e+01  2.46866744e+00 
 6.94359143e+00  3.98606367e+01  2.40918979e+00 
 7.10370877e+00  3.98610037e+01  2.35095780e+00 
 7.26751838e+00  3.98613543e+01  2.29394161e+00 
 7.43510539e+00  3.98616892e+01  2.23811202e+00 
 7.60655691e+00  3.98620092e+01  2.18344036e+00 
 7.78196206e+00  3.98623150e+01  2.12989859e+00 
 7.96141200e+00  3.98626070e+01  2.07745920e+00 
 8.14500001e+00  3.98628861e+01  2.02609525e+00 
 8.33282151e+00  3.98631526e+01  1.97578031e+00 
 8.52497412e+00  3.98634072e+01  1.92648852e+00 
 8.72155772e+00  3.98636505e+01  1.87819450e+00 
 8.92267449e+00  3.98638828e+01  1.83087338e+00 
 9.12842895e+00  3.98641048e+01  1.78450079e+00 
 9.33892805e+00  3.98643168e+01  1.73905283e+00 
 9.55428121e+00  3.98645193e+01  1.69450607e+00 
 9.77460036e+00  3.98647127e+01  1.65083753e+00 
 1.00000000e+01  3.98648974e+01  1.60802468e+00 
 1.02305973e+01  3.98650738e+01  1.56604542e+00 
 1.04665121e+01  3.98652423e+01  1.52487809e+00 
 1.07078670e+01  3.98654032e+01  1.48450142e+00 
 1.09547876e+01  3.98655568e+01  1.44489454e+00 
 1.12074020e+01  3.98657035e+01  1.40603700e+00 
 1.14658417e+01  3.98658436e+01  1.36790871e+00 
 1.17302409e+01  3.98659773e+01  1.33048994e+00 
 1.20007371e+01  3.98661050e+01  1.29376136e+00 
 1.22774708e+01  3.98662268e+01  1.25770395e+00 
 1.25605860e+01  3.98663432e+01  1.22229907e+00 
 1.28502297e+01  3.98664542e+01  1.18752839e+00 
 1.31465525e+01  3.98665601e+01  1.15337390e+00 
 1.34497085e+01  3.98666612e+01  1.11981793e+00 
 1.37598551e+01  3.98667576e+01  1.08684310e+00 
 1.40771537e+01  3.98668497e+01  1.05443233e+00 
 1.44017690e+01  3.98669374e+01  1.02256883e+00 
 1.47338699e+01  3.98670211e+01  9.91236092e-01 
 1.50736290e+01  3.98671009e+01  9.60417876e-01 
 1.54212228e+01  3.98671769e+01  9.30098211e-01 
 1.57768320e+01  3.98672494e+01  9.00261380e-01 
 1.61406415e+01  3.98673185e+01  8.70891917e-01 
 1.65128404e+01  3.98673842e+01  8.41974591e-01 
 1.68936220e+01  3.98674469e+01  8.13494409e-01 
 1.72831844e+01  3.98675065e+01  7.85436600e-01 
 1.76817299e+01  3.98675632e+01  7.57786610e-01 
 1.80894658e+01  3.98676172e+01  7.30530097e-01 
 1.85066040e+01  3.98676685e+01  7.03652920e-01 
 1.89333613e+01  3.98677173e+01  6.77141135e-01 
 1.93699595e+01  3.98677636e+01  6.50980984e-01 
 1.98166255e+01  3.98678075e+01  6.25158893e-01 
 2.02735916e+01  3.98678492e+01  5.99661460e-01 
 2.07410951e+01  3.98678887e+01  5.74475453e-01 
 2.12193792e+01  3.98679262e+01  5.49587797e-01 
 2.17086923e+01  3.98679616e+01  5.24985574e-01 
 2.22092889e+01  3.98679950e+01  5.00656013e-01 
 2.27214291e+01  3.98680266e+01  4.76586482e-01 
 2.32453791e+01  3.98680564e+01  4.52764485e-01 
 2.37814113e+01  3.98680844e+01  4.29177653e-01 
 2.43298042e+01  3.98681108e+01  4.05813739e-01 
 2.48908429e+01  3.98681355e+01  3.82660610e-01 
 2.54648190e+01  3.98681586e+01  3.59706244e-01 
 2.60520309e+01  3.98681802e+01  3.36938719e-01 
 2.66527837e+01  3.98682003e+01  3.14346211e-01 
 2.72673897e+01  3.98682190e+01  2.91916987e-01 
 2.78961683e+01  3.98682362e+01  2.69639398e-01 
 2.85394464e+01  3.98682521e+01  2.47501872e-01 
 2.91975583e+01  3.98682667e+01  2.25492911e-01 
 2.98708461e+01  3.98682799e+01  2.03601084e-01 
 3.05596598e+01  3.98682919e+01  1.81815018e-01 
 3.12643573e+01  3.98683026e+01  1.60123397e-01 
 3.19853049e+01  3.98683120e+01  1.38514952e-01 
 3.27228774e+01  3.98683203e+01  1.16978460e-01 
 3.34774581e+01  3.98683273e+01  9.55027320e-02 
 3.42494392e+01  3.98683332e+01  7.40766116e-02 
 3.50392221e+01  3.98683379e+01  5.26889683e-02 
 3.58472171e+01  3.98683415e+01  3.13286913e-02 
 3.66738442e+01  3.98683438e+01  9.98468363e-03 
 3.75195331e+01  3.98683451e+01 -1.13541429e-02 
 3.83847234e+01  3.98683452e+01 -3.26988738e-02 
 3.92698648e+01  3.98683441e+01 -5.40605980e-02 
 4.01754173e+01  3.98683419e+01 -7.54504130e-02 
 4.11018515e+01  3.98683386e+01 -9.68794310e-02 
 4.20496491e+01  3.98683341e+01 -1.18358784e-01 
 4.30193027e+01  3.98683284e+01 -1.39899632e-01 
 4.40113162e+01  3.98683215e+01 -1.61513163e-01 
 4.50262052e+01  3.98683135e+01 -1.83210607e-01 
 4.60644974e+01  3.98683042e+01 -2.05003235e-01 
 4.71267322e+01  3.98682937e+01 -2.26902367e-01 
 4.82134619e+01  3.98682820e+01 -2.48919380e-01 
 4.93252513e+01  3.98682689e+01 -2.71065709e-01 
 5.04626783e+01  3.98682546e+01 -2.93352860e-01 
 5.16263340e+01  3.98682389e+01 -3.15792408e-01 
 5.28168234e+01  3.98682219e+01 -3.38396009e-01 
 5.40347650e+01  3.98682035e+01 -3.61175404e-01 
 5.52807921e+01  3.98681836e+01 -3.84142424e-01 
 5.65555523e+01  3.98681623e+01 -4.07308996e-01 
 5.78597080e+01  3.98681394e+01 -4.30687154e-01 
 5.91939372e+01  3.98681149e+01 -4.54289037e-01 
 6.05589334e+01  3.98680889e+01 -4.78126902e-01 
 6.19554061e+01  3.98680611e+01 -5.02213128e-01 
 6.33840810e+01  3.98680316e+01 -5.26560222e-01 
 6.48457008e+01  3.98680003e+01 -5.51180826e-01 
 6.63410251e+01  3.98679672e+01 -5.76087723e-01 
 6.78708313e+01  3.98679321e+01 -6.01293844e-01 
 6.94359143e+01  3.98678950e+01 -6.26812274e-01 
 7.10370877e+01  3.98678559e+01 -6.52656261e-01 
 7.26751838e+01  3.98678145e+01 -6.78839219e-01 
 7.43510539e+01  3.98677710e+01 -7.05374739e-01 
 7.60655691e+01  3.98677250e+01 -7.32276592e-01 
 7.78196206e+01  3.98676767e+01 -7.59558740e-01 
 7.96141200e+01  3.98676258e+01 -7.87235339e-01 
 8.14500001e+01  3.98675723e+01 -8.15320750e-01 
 8.33282151e+01  3.98675160e+01 -8.43829545e-01 
 8.52497412e+01  3.98674569e+01 -8.72776513e-01 
 8.72155772e+01  3.98673947e+01 -9.02176670e-01 
 8.92267449e+01  3.98673295e+01 -9.32045263e-01 
 9.12842895e+01  3.98672610e+01 -9.62397784e-01 
 9.33892805e+01  3.98671891e+01 -9.93249971e-01 
 9.55428121e+01  3.98671136e+01 -1.02461782e+00 
 9.77460036e+01  3.98670344e+01 -1.05651759e+00 
 1.00000000e+02  3.98669514e+01 -1.08896583e+00 
 1.02305973e+02  3.98668643e+01 -1.12197934e+00 
 1.04665121e+02  3.98667730e+01 -1.15557523e+00 
