 frequency       v(CMRR_dB)      v(CMRR_arg)    
 1.00000000e-02  8.22234555e+01  1.22723950e+01 
 1.02305973e-02  8.22368575e+01  1.25390970e+01 
 1.04665121e-02  8.22508388e+01  1.28108633e+01 
 1.07078670e-02  8.22654223e+01  1.30877413e+01 
 1.09547876e-02  8.22806317e+01  1.33697756e+01 
 1.12074020e-02  8.22964914e+01  1.36570076e+01 
 1.14658417e-02  8.23130266e+01  1.39494752e+01 
 1.17302409e-02  8.23303272e+01  1.42472050e+01 
 1.20007371e-02  8.23482919e+01  1.45502414e+01 
 1.22774708e-02  8.23670121e+01  1.48586027e+01 
 1.25605860e-02  8.23865159e+01  1.51723096e+01 
 1.28502297e-02  8.24068322e+01  1.54913778e+01 
 1.31465525e-02  8.24279907e+01  1.58158176e+01 
 1.34497085e-02  8.24500217e+01  1.61456331e+01 
 1.37598551e-02  8.24730201e+01  1.64808142e+01 
 1.40771537e-02  8.24968899e+01  1.68213694e+01 
 1.44017690e-02  8.25217274e+01  1.71672751e+01 
 1.47338699e-02  8.25475658e+01  1.75185091e+01 
 1.50736290e-02  8.25744387e+01  1.78750407e+01 
 1.54212228e-02  8.26024444e+01  1.82368223e+01 
 1.57768320e-02  8.26314897e+01  1.86038260e+01 
 1.61406415e-02  8.26616741e+01  1.89759866e+01 
 1.65128404e-02  8.26930335e+01  1.93532391e+01 
 1.68936220e-02  8.27256681e+01  1.97354986e+01 
 1.72831844e-02  8.27594866e+01  2.01227010e+01 
 1.76817299e-02  8.27945900e+01  2.05147407e+01 
 1.80894658e-02  8.28310155e+01  2.09115120e+01 
 1.85066040e-02  8.28688646e+01  2.13128864e+01 
 1.89333613e-02  8.29081108e+01  2.17187460e+01 
 1.93699595e-02  8.29487279e+01  2.21289627e+01 
 1.98166255e-02  8.29908813e+01  2.25433600e+01 
 2.02735916e-02  8.30344805e+01  2.29617976e+01 
 2.07410951e-02  8.30796267e+01  2.33840859e+01 
 2.12193792e-02  8.31264209e+01  2.38100214e+01 
 2.17086923e-02  8.31747717e+01  2.42394270e+01 
 2.22092889e-02  8.32248429e+01  2.46720594e+01 
 2.27214291e-02  8.32765422e+01  2.51077168e+01 
 2.32453791e-02  8.33300320e+01  2.55461277e+01 
 2.37814113e-02  8.33852184e+01  2.59870650e+01 
 2.43298042e-02  8.34422622e+01  2.64302294e+01 
 2.48908429e-02  8.35010674e+01  2.68753688e+01 
 2.54648190e-02  8.35617924e+01  2.73221561e+01 
 2.60520309e-02  8.36243389e+01  2.77703148e+01 
 2.66527837e-02  8.36888627e+01  2.82194907e+01 
 2.72673897e-02  8.37553264e+01  2.86693667e+01 
 2.78961683e-02  8.38236908e+01  2.91196149e+01 
 2.85394464e-02  8.38941070e+01  2.95698427e+01 
 2.91975583e-02  8.39665322e+01  3.00196993e+01 
 2.98708461e-02  8.40409858e+01  3.04688059e+01 
 3.05596598e-02  8.41174850e+01  3.09167734e+01 
 3.12643573e-02  8.41959811e+01  3.13632232e+01 
 3.19853049e-02  8.42766786e+01  3.18076877e+01 
 3.27228774e-02  8.43593964e+01  3.22498118e+01 
 3.34774581e-02  8.44442066e+01  3.26891525e+01 
 3.42494392e-02  8.45311149e+01  3.31252802e+01 
 3.50392221e-02  8.46201246e+01  3.35577592e+01 
 3.58472171e-02  8.47113003e+01  3.39861262e+01 
 3.66738442e-02  8.48045121e+01  3.44099822e+01 
 3.75195331e-02  8.48998196e+01  3.48288563e+01 
 3.83847234e-02  8.49972153e+01  3.52422984e+01 
 3.92698648e-02  8.50967535e+01  3.56498305e+01 
 4.01754173e-02  8.51982937e+01  3.60510504e+01 
 4.11018515e-02  8.53019485e+01  3.64454533e+01 
 4.20496491e-02  8.54076361e+01  3.68326131e+01 
 4.30193027e-02  8.55153361e+01  3.72120797e+01 
 4.40113162e-02  8.56250253e+01  3.75834058e+01 
 4.50262052e-02  8.57366142e+01  3.79461764e+01 
 4.60644974e-02  8.58502025e+01  3.82998938e+01 
 4.71267322e-02  8.59656956e+01  3.86441516e+01 
 4.82134619e-02  8.60830604e+01  3.89785203e+01 
 4.93252513e-02  8.62023255e+01  3.93025445e+01 
 5.04626783e-02  8.63233255e+01  3.96158717e+01 
 5.16263340e-02  8.64461484e+01  3.99180272e+01 
 5.28168234e-02  8.65706246e+01  4.02086770e+01 
 5.40347650e-02  8.66968376e+01  4.04873598e+01 
 5.52807921e-02  8.68246141e+01  4.07537621e+01 
 5.65555523e-02  8.69540977e+01  4.10073989e+01 
 5.78597080e-02  8.70850475e+01  4.12480148e+01 
 5.91939372e-02  8.72174762e+01  4.14752176e+01 
 6.05589334e-02  8.73513309e+01  4.16886616e+01 
 6.19554061e-02  8.74866210e+01  4.18879700e+01 
 6.33840810e-02  8.76232272e+01  4.20728567e+01 
 6.48457008e-02  8.77610287e+01  4.22430504e+01 
 6.63410251e-02  8.79000946e+01  4.23981610e+01 
 6.78708313e-02  8.80403651e+01  4.25378920e+01 
 6.94359143e-02  8.81816526e+01  4.26620493e+01 
 7.10370877e-02  8.83239591e+01  4.27703159e+01 
 7.26751838e-02  8.84672853e+01  4.28623811e+01 
 7.43510539e-02  8.86115041e+01  4.29380392e+01 
 7.60655691e-02  8.87564879e+01  4.29970992e+01 
 7.78196206e-02  8.89023615e+01  4.30391779e+01 
 7.96141200e-02  8.90488688e+01  4.30642058e+01 
 8.14500001e-02  8.91960698e+01  4.30718668e+01 
 8.33282151e-02  8.93438339e+01  4.30620113e+01 
 8.52497412e-02  8.94920930e+01  4.30344478e+01 
 8.72155772e-02  8.96408417e+01  4.29889361e+01 
 8.92267449e-02  8.97898846e+01  4.29254187e+01 
 9.12842895e-02  8.99393411e+01  4.28435544e+01 
 9.33892805e-02  9.00888890e+01  4.27434298e+01 
 9.55428121e-02  9.02387094e+01  4.26246548e+01 
 9.77460036e-02  9.03886051e+01  4.24872157e+01 
 1.00000000e-01  9.05385045e+01  4.23309863e+01 
 1.02305973e-01  9.06883353e+01  4.21558500e+01 
 1.04665121e-01  9.08380875e+01  4.19616292e+01 
 1.07078670e-01  9.09876254e+01  4.17482920e+01 
 1.09547876e-01  9.11368756e+01  4.15157484e+01 
 1.12074020e-01  9.12858263e+01  4.12638442e+01 
 1.14658417e-01  9.14344030e+01  4.09925035e+01 
 1.17302409e-01  9.15823443e+01  4.07018917e+01 
 1.20007371e-01  9.17298237e+01  4.03916500e+01 
 1.22774708e-01  9.18767032e+01  4.00618065e+01 
 1.25605860e-01  9.20227828e+01  3.97124882e+01 
 1.28502297e-01  9.21681100e+01  3.93435087e+01 
 1.31465525e-01  9.23125461e+01  3.89549356e+01 
 1.34497085e-01  9.24560757e+01  3.85466787e+01 
 1.37598551e-01  9.25985597e+01  3.81188303e+01 
 1.40771537e-01  9.27399204e+01  3.76714091e+01 
 1.44017690e-01  9.28800800e+01  3.72044450e+01 
 1.47338699e-01  9.30190821e+01  3.67177882e+01 
 1.50736290e-01  9.31566654e+01  3.62117724e+01 
 1.54212228e-01  9.32929334e+01  3.56861695e+01 
 1.57768320e-01  9.34276254e+01  3.51413493e+01 
 1.61406415e-01  9.35607837e+01  3.45771997e+01 
 1.65128404e-01  9.36922690e+01  3.39939224e+01 
 1.68936220e-01  9.38221223e+01  3.33914163e+01 
 1.72831844e-01  9.39500851e+01  3.27701274e+01 
 1.76817299e-01  9.40761982e+01  3.21299792e+01 
 1.80894658e-01  9.42003239e+01  3.14712351e+01 
 1.85066040e-01  9.43224432e+01  3.07939479e+01 
 1.89333613e-01  9.44424192e+01  3.00984132e+01 
 1.93699595e-01  9.45601750e+01  2.93848290e+01 
 1.98166255e-01  9.46756925e+01  2.86532839e+01 
 2.02735916e-01  9.47888370e+01  2.79041237e+01 
 2.07410951e-01  9.48995337e+01  2.71375902e+01 
 2.12193792e-01  9.50077658e+01  2.63538087e+01 
 2.17086923e-01  9.51134021e+01  2.55531758e+01 
 2.22092889e-01  9.52164273e+01  2.47358420e+01 
 2.27214291e-01  9.53167127e+01  2.39022379e+01 
 2.32453791e-01  9.54141886e+01  2.30526783e+01 
 2.37814113e-01  9.55088424e+01  2.21873492e+01 
 2.43298042e-01  9.56005503e+01  2.13067318e+01 
 2.48908429e-01  9.56892468e+01  2.04111832e+01 
 2.54648190e-01  9.57748680e+01  1.95010741e+01 
 2.60520309e-01  9.58574062e+01  1.85766363e+01 
 2.66527837e-01  9.59367456e+01  1.76384147e+01 
 2.72673897e-01  9.60127740e+01  1.66869763e+01 
 2.78961683e-01  9.60855428e+01  1.57224313e+01 
 2.85394464e-01  9.61549962e+01  1.47452067e+01 
 2.91975583e-01  9.62209232e+01  1.37562333e+01 
 2.98708461e-01  9.62834845e+01  1.27553149e+01 
 3.05596598e-01  9.63425263e+01  1.17432421e+01 
 3.12643573e-01  9.63979010e+01  1.07208337e+01 
 3.19853049e-01  9.64497709e+01  9.68789444e+00 
 3.27228774e-01  9.64979922e+01  8.64525656e+00 
 3.34774581e-01  9.65424274e+01  7.59377868e+00 
 3.42494392e-01  9.65832408e+01  6.53326191e+00 
 3.50392221e-01  9.66202505e+01  5.46475693e+00 
 3.58472171e-01  9.66534759e+01  4.38860787e+00 
 3.66738442e-01  9.66828894e+01  3.30534265e+00 
 3.75195331e-01  9.67084661e+01  2.21549386e+00 
 3.83847234e-01  9.67301377e+01  1.11978886e+00 
 3.92698648e-01  9.67479779e+01  1.83886443e-02 
 4.01754173e-01  9.67618782e+01 -1.08778085e+00 
 4.11018515e-01  9.67718266e+01 -2.19816870e+00 
 4.20496491e-01  9.67779015e+01 -3.31261885e+00 
 4.30193027e-01  9.67800067e+01 -4.43019032e+00 
 4.40113162e-01  9.67781810e+01 -5.55053160e+00 
 4.50262052e-01  9.67723800e+01 -6.67289338e+00 
 4.60644974e-01  9.67626885e+01 -7.79713366e+00 
 4.71267322e-01  9.67489857e+01 -8.92209744e+00 
 4.82134619e-01  9.67314410e+01 -1.00480610e+01 
 4.93252513e-01  9.67098628e+01 -1.11734573e+01 
 5.04626783e-01  9.66844228e+01 -1.22985761e+01 
 5.16263340e-01  9.66550950e+01 -1.34226822e+01 
 5.28168234e-01  9.66218220e+01 -1.45448322e+01 
 5.40347650e-01  9.65847003e+01 -1.56649254e+01 
 5.52807921e-01  9.65437874e+01 -1.67826621e+01 
 5.65555523e-01  9.64990359e+01 -1.78971176e+01 
 5.78597080e-01  9.64504754e+01 -1.90077954e+01 
 5.91939372e-01  9.63981375e+01 -2.01142077e+01 
 6.05589334e-01  9.63421219e+01 -2.12163020e+01 
 6.19554061e-01  9.62823970e+01 -2.23131867e+01 
 6.33840810e-01  9.62190018e+01 -2.34044056e+01 
 6.48457008e-01  9.61520383e+01 -2.44899381e+01 
 6.63410251e-01  9.60814860e+01 -2.55689269e+01 
 6.78708313e-01  9.60073905e+01 -2.66409519e+01 
 6.94359143e-01  9.59298273e+01 -2.77058176e+01 
 7.10370877e-01  9.58488161e+01 -2.87629192e+01 
 7.26751838e-01  9.57644346e+01 -2.98120876e+01 
 7.43510539e-01  9.56767075e+01 -3.08527484e+01 
 7.60655691e-01  9.55857399e+01 -3.18849674e+01 
 7.78196206e-01  9.54915339e+01 -3.29079926e+01 
 7.96141200e-01  9.53941467e+01 -3.39215056e+01 
 8.14500001e-01  9.52936601e+01 -3.49254089e+01 
 8.33282151e-01  9.51901315e+01 -3.59194128e+01 
 8.52497412e-01  9.50835975e+01 -3.69030422e+01 
 8.72155772e-01  9.49741621e+01 -3.78764438e+01 
 8.92267449e-01  9.48618216e+01 -3.88387764e+01 
 9.12842895e-01  9.47466808e+01 -3.97902183e+01 
 9.33892805e-01  9.46288206e+01 -4.07307557e+01 
 9.55428121e-01  9.45082446e+01 -4.16596112e+01 
 9.77460036e-01  9.43850734e+01 -4.25771930e+01 
 1.00000000e+00  9.42593146e+01 -4.34827667e+01 
 1.02305973e+00  9.41310856e+01 -4.43767616e+01 
 1.04665121e+00  9.40004142e+01 -4.52586715e+01 
 1.07078670e+00  9.38673964e+01 -4.61287552e+01 
 1.09547876e+00  9.37320467e+01 -4.69863639e+01 
 1.12074020e+00  9.35944895e+01 -4.78321418e+01 
 1.14658417e+00  9.34547118e+01 -4.86651219e+01 
 1.17302409e+00  9.33128483e+01 -4.94861406e+01 
 1.20007371e+00  9.31689165e+01 -5.02946246e+01 
 1.22774708e+00  9.30229778e+01 -5.10905511e+01 
 1.25605860e+00  9.28751177e+01 -5.18742453e+01 
 1.28502297e+00  9.27253693e+01 -5.26453646e+01 
 1.31465525e+00  9.25738146e+01 -5.34042484e+01 
 1.34497085e+00  9.24204756e+01 -5.41504258e+01 
 1.37598551e+00  9.22654322e+01 -5.48842562e+01 
 1.40771537e+00  9.21087597e+01 -5.56060895e+01 
 1.44017690e+00  9.19504699e+01 -5.63153464e+01 
 1.47338699e+00  9.17906273e+01 -5.70122500e+01 
 1.50736290e+00  9.16293030e+01 -5.76971706e+01 
 1.54212228e+00  9.14665464e+01 -5.83701752e+01 
 1.57768320e+00  9.13023806e+01 -5.90309082e+01 
 1.61406415e+00  9.11368720e+01 -5.96797557e+01 
 1.65128404e+00  9.09700676e+01 -6.03168136e+01 
 1.68936220e+00  9.08020209e+01 -6.09423207e+01 
 1.72831844e+00  9.06327613e+01 -6.15561101e+01 
 1.76817299e+00  9.04623400e+01 -6.21584339e+01 
 1.80894658e+00  9.02907927e+01 -6.27492814e+01 
 1.85066040e+00  9.01181741e+01 -6.33290365e+01 
 1.89333613e+00  8.99445112e+01 -6.38975700e+01 
 1.93699595e+00  8.97698611e+01 -6.44553867e+01 
 1.98166255e+00  8.95942373e+01 -6.50021267e+01 
 2.02735916e+00  8.94176887e+01 -6.55381767e+01 
 2.07410951e+00  8.92402505e+01 -6.60636762e+01 
 2.12193792e+00  8.90619569e+01 -6.65787677e+01 
 2.17086923e+00  8.88828411e+01 -6.70835951e+01 
 2.22092889e+00  8.87029350e+01 -6.75783044e+01 
 2.27214291e+00  8.85222696e+01 -6.80630430e+01 
 2.32453791e+00  8.83408748e+01 -6.85379592e+01 
 2.37814113e+00  8.81587755e+01 -6.90030997e+01 
 2.43298042e+00  8.79760077e+01 -6.94588222e+01 
 2.48908429e+00  8.77925906e+01 -6.99050737e+01 
 2.54648190e+00  8.76085540e+01 -7.03421076e+01 
 2.60520309e+00  8.74239263e+01 -7.07701696e+01 
 2.66527837e+00  8.72387248e+01 -7.11892184e+01 
 2.72673897e+00  8.70529761e+01 -7.15995012e+01 
 2.78961683e+00  8.68667057e+01 -7.20012570e+01 
 2.85394464e+00  8.66799290e+01 -7.23944545e+01 
 2.91975583e+00  8.64926698e+01 -7.27793332e+01 
 2.98708461e+00  8.63049481e+01 -7.31560405e+01 
 3.05596598e+00  8.61167831e+01 -7.35247228e+01 
 3.12643573e+00  8.59281931e+01 -7.38855255e+01 
 3.19853049e+00  8.57391960e+01 -7.42385924e+01 
 3.27228774e+00  8.55498088e+01 -7.45840662e+01 
 3.34774581e+00  8.53600477e+01 -7.49220884e+01 
 3.42494392e+00  8.51699267e+01 -7.52527248e+01 
 3.50392221e+00  8.49794629e+01 -7.55761905e+01 
 3.58472171e+00  8.47886727e+01 -7.58926928e+01 
 3.66738442e+00  8.45975680e+01 -7.62022928e+01 
 3.75195331e+00  8.44061605e+01 -7.65050560e+01 
 3.83847234e+00  8.42144664e+01 -7.68012507e+01 
 3.92698648e+00  8.40224963e+01 -7.70909373e+01 
 4.01754173e+00  8.38302620e+01 -7.73742434e+01 
 4.11018515e+00  8.36377748e+01 -7.76512952e+01 
 4.20496491e+00  8.34450442e+01 -7.79221558e+01 
 4.30193027e+00  8.32520834e+01 -7.81870700e+01 
 4.40113162e+00  8.30588997e+01 -7.84460379e+01 
 4.50262052e+00  8.28655051e+01 -7.86992952e+01 
 4.60644974e+00  8.26719054e+01 -7.89467874e+01 
 4.71267322e+00  8.24781127e+01 -7.91887995e+01 
 4.82134619e+00  8.22841354e+01 -7.94254401e+01 
 4.93252513e+00  8.20899784e+01 -7.96566598e+01 
 5.04626783e+00  8.18956535e+01 -7.98827776e+01 
 5.16263340e+00  8.17011651e+01 -8.01037438e+01 
 5.28168234e+00  8.15065212e+01 -8.03197149e+01 
 5.40347650e+00  8.13117294e+01 -8.05308412e+01 
 5.52807921e+00  8.11167939e+01 -8.07370803e+01 
 5.65555523e+00  8.09217231e+01 -8.09386740e+01 
 5.78597080e+00  8.07265224e+01 -8.11356714e+01 
 5.91939372e+00  8.05311986e+01 -8.13282548e+01 
 6.05589334e+00  8.03357545e+01 -8.15163410e+01 
 6.19554061e+00  8.01401967e+01 -8.17001103e+01 
 6.33840810e+00  7.99445297e+01 -8.18796114e+01 
 6.48457008e+00  7.97487598e+01 -8.20550544e+01 
 6.63410251e+00  7.95528901e+01 -8.22264028e+01 
 6.78708313e+00  7.93569253e+01 -8.23937815e+01 
 6.94359143e+00  7.91608697e+01 -8.25572728e+01 
 7.10370877e+00  7.89647273e+01 -8.27169573e+01 
 7.26751838e+00  7.87685020e+01 -8.28729141e+01 
 7.43510539e+00  7.85721973e+01 -8.30252204e+01 
 7.60655691e+00  7.83758164e+01 -8.31739177e+01 
 7.78196206e+00  7.81793634e+01 -8.33191490e+01 
 7.96141200e+00  7.79828412e+01 -8.34609518e+01 
 8.14500001e+00  7.77862531e+01 -8.35994288e+01 
 8.33282151e+00  7.75896011e+01 -8.37345536e+01 
 8.52497412e+00  7.73928886e+01 -8.38664592e+01 
 8.72155772e+00  7.71961193e+01 -8.39953010e+01 
 8.92267449e+00  7.69992938e+01 -8.41209630e+01 
 9.12842895e+00  7.68024159e+01 -8.42436283e+01 
 9.33892805e+00  7.66054875e+01 -8.43633290e+01 
 9.55428121e+00  7.64085110e+01 -8.44801255e+01 
 9.77460036e+00  7.62114882e+01 -8.45940502e+01 
 1.00000000e+01  7.60144220e+01 -8.47052406e+01 
 1.02305973e+01  7.58173132e+01 -8.48136477e+01 
 1.04665121e+01  7.56201645e+01 -8.49194046e+01 
 1.07078670e+01  7.54229773e+01 -8.50225147e+01 
 1.09547876e+01  7.52257537e+01 -8.51230795e+01 
 1.12074020e+01  7.50284949e+01 -8.52211020e+01 
 1.14658417e+01  7.48312029e+01 -8.53166792e+01 
 1.17302409e+01  7.46338788e+01 -8.54098138e+01 
 1.20007371e+01  7.44365243e+01 -8.55005766e+01 
 1.22774708e+01  7.42391411e+01 -8.55890773e+01 
 1.25605860e+01  7.40417297e+01 -8.56752326e+01 
 1.28502297e+01  7.38442916e+01 -8.57591312e+01 
 1.31465525e+01  7.36468286e+01 -8.58408967e+01 
 1.34497085e+01  7.34493411e+01 -8.59204700e+01 
 1.37598551e+01  7.32518306e+01 -8.59979324e+01 
 1.40771537e+01  7.30542981e+01 -8.60733235e+01 
 1.44017690e+01  7.28567446e+01 -8.61466821e+01 
 1.47338699e+01  7.26591709e+01 -8.62180279e+01 
 1.50736290e+01  7.24615783e+01 -8.62874507e+01 
 1.54212228e+01  7.22639675e+01 -8.63549500e+01 
 1.57768320e+01  7.20663393e+01 -8.64205605e+01 
 1.61406415e+01  7.18686944e+01 -8.64842835e+01 
 1.65128404e+01  7.16710336e+01 -8.65461857e+01 
 1.68936220e+01  7.14733579e+01 -8.66063142e+01 
 1.72831844e+01  7.12756680e+01 -8.66647291e+01 
 1.76817299e+01  7.10779641e+01 -8.67213395e+01 
 1.80894658e+01  7.08802475e+01 -8.67762947e+01 
 1.85066040e+01  7.06825183e+01 -8.68295498e+01 
 1.89333613e+01  7.04847773e+01 -8.68811479e+01 
 1.93699595e+01  7.02870253e+01 -8.69311837e+01 
 1.98166255e+01  7.00892625e+01 -8.69795873e+01 
 2.02735916e+01  6.98914897e+01 -8.70264378e+01 
 2.07410951e+01  6.96937072e+01 -8.70717334e+01 
 2.12193792e+01  6.94959157e+01 -8.71155227e+01 
 2.17086923e+01  6.92981155e+01 -8.71578036e+01 
 2.22092889e+01  6.91003071e+01 -8.71986104e+01 
 2.27214291e+01  6.89024911e+01 -8.72379872e+01 
 2.32453791e+01  6.87046676e+01 -8.72758965e+01 
 2.37814113e+01  6.85068373e+01 -8.73124152e+01 
 2.43298042e+01  6.83090005e+01 -8.73475391e+01 
 2.48908429e+01  6.81111575e+01 -8.73812654e+01 
 2.54648190e+01  6.79133087e+01 -8.74136335e+01 
 2.60520309e+01  6.77154546e+01 -8.74446701e+01 
 2.66527837e+01  6.75175954e+01 -8.74743709e+01 
 2.72673897e+01  6.73197314e+01 -8.75027711e+01 
 2.78961683e+01  6.71218630e+01 -8.75298660e+01 
 2.85394464e+01  6.69239905e+01 -8.75556794e+01 
 2.91975583e+01  6.67261142e+01 -8.75802247e+01 
 2.98708461e+01  6.65282346e+01 -8.76035319e+01 
 3.05596598e+01  6.63303516e+01 -8.76255521e+01 
 3.12643573e+01  6.61324658e+01 -8.76463832e+01 
 3.19853049e+01  6.59345773e+01 -8.76659678e+01 
 3.27228774e+01  6.57366864e+01 -8.76843411e+01 
 3.34774581e+01  6.55387934e+01 -8.77015135e+01 
 3.42494392e+01  6.53408986e+01 -8.77174935e+01 
 3.50392221e+01  6.51430022e+01 -8.77322743e+01 
 3.58472171e+01  6.49451046e+01 -8.77459011e+01 
 3.66738442e+01  6.47472058e+01 -8.77583367e+01 
 3.75195331e+01  6.45493063e+01 -8.77696169e+01 
 3.83847234e+01  6.43514062e+01 -8.77797468e+01 
 3.92698648e+01  6.41535058e+01 -8.77887114e+01 
 4.01754173e+01  6.39556053e+01 -8.77965357e+01 
 4.11018515e+01  6.37577050e+01 -8.78032043e+01 
 4.20496491e+01  6.35598051e+01 -8.78087401e+01 
 4.30193027e+01  6.33619059e+01 -8.78131393e+01 
 4.40113162e+01  6.31640077e+01 -8.78163924e+01 
 4.50262052e+01  6.29661106e+01 -8.78185193e+01 
 4.60644974e+01  6.27682150e+01 -8.78195207e+01 
 4.71267322e+01  6.25703209e+01 -8.78193689e+01 
 4.82134619e+01  6.23724289e+01 -8.78180980e+01 
 4.93252513e+01  6.21745392e+01 -8.78157062e+01 
 5.04626783e+01  6.19766519e+01 -8.78121610e+01 
 5.16263340e+01  6.17787674e+01 -8.78074971e+01 
 5.28168234e+01  6.15808860e+01 -8.78016766e+01 
 5.40347650e+01  6.13830079e+01 -8.77947121e+01 
 5.52807921e+01  6.11851334e+01 -8.77866194e+01 
 5.65555523e+01  6.09872628e+01 -8.77773655e+01 
 5.78597080e+01  6.07893965e+01 -8.77669511e+01 
 5.91939372e+01  6.05915348e+01 -8.77553935e+01 
 6.05589334e+01  6.03936780e+01 -8.77426686e+01 
 6.19554061e+01  6.01958264e+01 -8.77287658e+01 
 6.33840810e+01  5.99979803e+01 -8.77136908e+01 
 6.48457008e+01  5.98001402e+01 -8.76974277e+01 
 6.63410251e+01  5.96023064e+01 -8.76799722e+01 
 6.78708313e+01  5.94044792e+01 -8.76613075e+01 
 6.94359143e+01  5.92066593e+01 -8.76414246e+01 
 7.10370877e+01  5.90088468e+01 -8.76203247e+01 
 7.26751838e+01  5.88110423e+01 -8.75979860e+01 
 7.43510539e+01  5.86132461e+01 -8.75743973e+01 
 7.60655691e+01  5.84154588e+01 -8.75495642e+01 
 7.78196206e+01  5.82176809e+01 -8.75234464e+01 
 7.96141200e+01  5.80199126e+01 -8.74960544e+01 
 8.14500001e+01  5.78221549e+01 -8.74673577e+01 
 8.33282151e+01  5.76244080e+01 -8.74373547e+01 
 8.52497412e+01  5.74266726e+01 -8.74060206e+01 
 8.72155772e+01  5.72289493e+01 -8.73733458e+01 
 8.92267449e+01  5.70312387e+01 -8.73393016e+01 
 9.12842895e+01  5.68335413e+01 -8.73038885e+01 
 9.33892805e+01  5.66358579e+01 -8.72670630e+01 
 9.55428121e+01  5.64381892e+01 -8.72288374e+01 
 9.77460036e+01  5.62405360e+01 -8.71891728e+01 
 1.00000000e+02  5.60428989e+01 -8.71480545e+01 
 1.02305973e+02  5.58452786e+01 -8.71054566e+01 
 1.04665121e+02  5.56476761e+01 -8.70613654e+01 
