 frequency       v(Aol_dB)       v(Aol_arg)     
 1.00000000e-02  3.32898687e+01 -3.28894396e-04 
 1.02305973e-02  3.32898687e+01 -3.36478612e-04 
 1.04665121e-02  3.32898687e+01 -3.44237718e-04 
 1.07078670e-02  3.32898687e+01 -3.52175747e-04 
 1.09547876e-02  3.32898687e+01 -3.60296824e-04 
 1.12074020e-02  3.32898687e+01 -3.68605172e-04 
 1.14658417e-02  3.32898687e+01 -3.77105107e-04 
 1.17302409e-02  3.32898687e+01 -3.85801049e-04 
 1.20007371e-02  3.32898687e+01 -3.94697517e-04 
 1.22774708e-02  3.32898687e+01 -4.03799135e-04 
 1.25605860e-02  3.32898687e+01 -4.13110634e-04 
 1.28502297e-02  3.32898687e+01 -4.22636854e-04 
 1.31465525e-02  3.32898687e+01 -4.32382745e-04 
 1.34497085e-02  3.32898687e+01 -4.42353375e-04 
 1.37598551e-02  3.32898687e+01 -4.52553924e-04 
 1.40771537e-02  3.32898687e+01 -4.62989695e-04 
 1.44017690e-02  3.32898687e+01 -4.73666113e-04 
 1.47338699e-02  3.32898687e+01 -4.84588725e-04 
 1.50736290e-02  3.32898687e+01 -4.95763210e-04 
 1.54212228e-02  3.32898687e+01 -5.07195376e-04 
 1.57768320e-02  3.32898687e+01 -5.18891164e-04 
 1.61406415e-02  3.32898687e+01 -5.30856654e-04 
 1.65128404e-02  3.32898687e+01 -5.43098065e-04 
 1.68936220e-02  3.32898687e+01 -5.55621760e-04 
 1.72831844e-02  3.32898687e+01 -5.68434248e-04 
 1.76817299e-02  3.32898687e+01 -5.81542188e-04 
 1.80894658e-02  3.32898687e+01 -5.94952394e-04 
 1.85066040e-02  3.32898687e+01 -6.08671835e-04 
 1.89333613e-02  3.32898687e+01 -6.22707643e-04 
 1.93699595e-02  3.32898687e+01 -6.37067113e-04 
 1.98166255e-02  3.32898687e+01 -6.51757709e-04 
 2.02735916e-02  3.32898687e+01 -6.66787065e-04 
 2.07410951e-02  3.32898687e+01 -6.82162995e-04 
 2.12193792e-02  3.32898687e+01 -6.97893489e-04 
 2.17086923e-02  3.32898687e+01 -7.13986725e-04 
 2.22092889e-02  3.32898687e+01 -7.30451066e-04 
 2.27214291e-02  3.32898687e+01 -7.47295070e-04 
 2.32453791e-02  3.32898687e+01 -7.64527492e-04 
 2.37814113e-02  3.32898687e+01 -7.82157290e-04 
 2.43298042e-02  3.32898687e+01 -8.00193626e-04 
 2.48908429e-02  3.32898687e+01 -8.18645874e-04 
 2.54648190e-02  3.32898687e+01 -8.37523627e-04 
 2.60520309e-02  3.32898687e+01 -8.56836696e-04 
 2.66527837e-02  3.32898687e+01 -8.76595118e-04 
 2.72673897e-02  3.32898687e+01 -8.96809165e-04 
 2.78961683e-02  3.32898687e+01 -9.17489342e-04 
 2.85394464e-02  3.32898687e+01 -9.38646398e-04 
 2.91975583e-02  3.32898687e+01 -9.60291331e-04 
 2.98708461e-02  3.32898687e+01 -9.82435389e-04 
 3.05596598e-02  3.32898687e+01 -1.00509008e-03 
 3.12643573e-02  3.32898687e+01 -1.02826719e-03 
 3.19853049e-02  3.32898687e+01 -1.05197875e-03 
 3.27228774e-02  3.32898687e+01 -1.07623710e-03 
 3.34774581e-02  3.32898687e+01 -1.10105484e-03 
 3.42494392e-02  3.32898687e+01 -1.12644486e-03 
 3.50392221e-02  3.32898687e+01 -1.15242038e-03 
 3.58472171e-02  3.32898687e+01 -1.17899488e-03 
 3.66738442e-02  3.32898687e+01 -1.20618218e-03 
 3.75195331e-02  3.32898687e+01 -1.23399642e-03 
 3.83847234e-02  3.32898687e+01 -1.26245204e-03 
 3.92698648e-02  3.32898687e+01 -1.29156385e-03 
 4.01754173e-02  3.32898687e+01 -1.32134696e-03 
 4.11018515e-02  3.32898687e+01 -1.35181686e-03 
 4.20496491e-02  3.32898687e+01 -1.38298939e-03 
 4.30193027e-02  3.32898687e+01 -1.41488076e-03 
 4.40113162e-02  3.32898687e+01 -1.44750752e-03 
 4.50262052e-02  3.32898687e+01 -1.48088666e-03 
 4.60644974e-02  3.32898687e+01 -1.51503550e-03 
 4.71267322e-02  3.32898687e+01 -1.54997181e-03 
 4.82134619e-02  3.32898687e+01 -1.58571374e-03 
 4.93252513e-02  3.32898687e+01 -1.62227987e-03 
 5.04626783e-02  3.32898687e+01 -1.65968921e-03 
 5.16263340e-02  3.32898687e+01 -1.69796119e-03 
 5.28168234e-02  3.32898687e+01 -1.73711572e-03 
 5.40347650e-02  3.32898687e+01 -1.77717314e-03 
 5.52807921e-02  3.32898687e+01 -1.81815427e-03 
 5.65555523e-02  3.32898687e+01 -1.86008042e-03 
 5.78597080e-02  3.32898687e+01 -1.90297337e-03 
 5.91939372e-02  3.32898687e+01 -1.94685542e-03 
 6.05589334e-02  3.32898687e+01 -1.99174938e-03 
 6.19554061e-02  3.32898687e+01 -2.03767859e-03 
 6.33840810e-02  3.32898687e+01 -2.08466690e-03 
 6.48457008e-02  3.32898687e+01 -2.13273876e-03 
 6.63410251e-02  3.32898687e+01 -2.18191914e-03 
 6.78708313e-02  3.32898687e+01 -2.23223360e-03 
 6.94359143e-02  3.32898687e+01 -2.28370831e-03 
 7.10370877e-02  3.32898687e+01 -2.33637000e-03 
 7.26751838e-02  3.32898687e+01 -2.39024607e-03 
 7.43510539e-02  3.32898687e+01 -2.44536449e-03 
 7.60655691e-02  3.32898687e+01 -2.50175394e-03 
 7.78196206e-02  3.32898687e+01 -2.55944371e-03 
 7.96141200e-02  3.32898687e+01 -2.61846379e-03 
 8.14500001e-02  3.32898687e+01 -2.67884486e-03 
 8.33282151e-02  3.32898687e+01 -2.74061829e-03 
 8.52497412e-02  3.32898687e+01 -2.80381621e-03 
 8.72155772e-02  3.32898687e+01 -2.86847146e-03 
 8.92267449e-02  3.32898687e+01 -2.93461763e-03 
 9.12842895e-02  3.32898687e+01 -3.00228912e-03 
 9.33892805e-02  3.32898687e+01 -3.07152110e-03 
 9.55428121e-02  3.32898687e+01 -3.14234955e-03 
 9.77460036e-02  3.32898687e+01 -3.21481128e-03 
 1.00000000e-01  3.32898687e+01 -3.28894396e-03 
 1.02305973e-01  3.32898687e+01 -3.36478611e-03 
 1.04665121e-01  3.32898687e+01 -3.44237717e-03 
 1.07078670e-01  3.32898687e+01 -3.52175746e-03 
 1.09547876e-01  3.32898687e+01 -3.60296824e-03 
 1.12074020e-01  3.32898687e+01 -3.68605171e-03 
 1.14658417e-01  3.32898687e+01 -3.77105107e-03 
 1.17302409e-01  3.32898687e+01 -3.85801049e-03 
 1.20007371e-01  3.32898687e+01 -3.94697516e-03 
 1.22774708e-01  3.32898687e+01 -4.03799135e-03 
 1.25605860e-01  3.32898687e+01 -4.13110633e-03 
 1.28502297e-01  3.32898687e+01 -4.22636853e-03 
 1.31465525e-01  3.32898687e+01 -4.32382745e-03 
 1.34497085e-01  3.32898687e+01 -4.42353374e-03 
 1.37598551e-01  3.32898687e+01 -4.52553923e-03 
 1.40771537e-01  3.32898687e+01 -4.62989694e-03 
 1.44017690e-01  3.32898687e+01 -4.73666111e-03 
 1.47338699e-01  3.32898687e+01 -4.84588724e-03 
 1.50736290e-01  3.32898687e+01 -4.95763209e-03 
 1.54212228e-01  3.32898687e+01 -5.07195375e-03 
 1.57768320e-01  3.32898687e+01 -5.18891163e-03 
 1.61406415e-01  3.32898687e+01 -5.30856653e-03 
 1.65128404e-01  3.32898687e+01 -5.43098064e-03 
 1.68936220e-01  3.32898687e+01 -5.55621758e-03 
 1.72831844e-01  3.32898687e+01 -5.68434246e-03 
 1.76817299e-01  3.32898687e+01 -5.81542186e-03 
 1.80894658e-01  3.32898687e+01 -5.94952392e-03 
 1.85066040e-01  3.32898687e+01 -6.08671833e-03 
 1.89333613e-01  3.32898687e+01 -6.22707641e-03 
 1.93699595e-01  3.32898687e+01 -6.37067111e-03 
 1.98166255e-01  3.32898687e+01 -6.51757706e-03 
 2.02735916e-01  3.32898687e+01 -6.66787062e-03 
 2.07410951e-01  3.32898687e+01 -6.82162992e-03 
 2.12193792e-01  3.32898687e+01 -6.97893486e-03 
 2.17086923e-01  3.32898687e+01 -7.13986721e-03 
 2.22092889e-01  3.32898687e+01 -7.30451062e-03 
 2.27214291e-01  3.32898687e+01 -7.47295066e-03 
 2.32453791e-01  3.32898687e+01 -7.64527488e-03 
 2.37814113e-01  3.32898687e+01 -7.82157285e-03 
 2.43298042e-01  3.32898686e+01 -8.00193620e-03 
 2.48908429e-01  3.32898686e+01 -8.18645869e-03 
 2.54648190e-01  3.32898686e+01 -8.37523621e-03 
 2.60520309e-01  3.32898686e+01 -8.56836689e-03 
 2.66527837e-01  3.32898686e+01 -8.76595112e-03 
 2.72673897e-01  3.32898686e+01 -8.96809158e-03 
 2.78961683e-01  3.32898686e+01 -9.17489334e-03 
 2.85394464e-01  3.32898686e+01 -9.38646390e-03 
 2.91975583e-01  3.32898686e+01 -9.60291322e-03 
 2.98708461e-01  3.32898686e+01 -9.82435380e-03 
 3.05596598e-01  3.32898686e+01 -1.00509007e-02 
 3.12643573e-01  3.32898686e+01 -1.02826718e-02 
 3.19853049e-01  3.32898686e+01 -1.05197874e-02 
 3.27228774e-01  3.32898686e+01 -1.07623709e-02 
 3.34774581e-01  3.32898686e+01 -1.10105482e-02 
 3.42494392e-01  3.32898686e+01 -1.12644485e-02 
 3.50392221e-01  3.32898686e+01 -1.15242036e-02 
 3.58472171e-01  3.32898685e+01 -1.17899486e-02 
 3.66738442e-01  3.32898685e+01 -1.20618217e-02 
 3.75195331e-01  3.32898685e+01 -1.23399640e-02 
 3.83847234e-01  3.32898685e+01 -1.26245202e-02 
 3.92698648e-01  3.32898685e+01 -1.29156382e-02 
 4.01754173e-01  3.32898685e+01 -1.32134694e-02 
 4.11018515e-01  3.32898685e+01 -1.35181684e-02 
 4.20496491e-01  3.32898685e+01 -1.38298937e-02 
 4.30193027e-01  3.32898685e+01 -1.41488073e-02 
 4.40113162e-01  3.32898685e+01 -1.44750749e-02 
 4.50262052e-01  3.32898684e+01 -1.48088662e-02 
 4.60644974e-01  3.32898684e+01 -1.51503547e-02 
 4.71267322e-01  3.32898684e+01 -1.54997178e-02 
 4.82134619e-01  3.32898684e+01 -1.58571370e-02 
 4.93252513e-01  3.32898684e+01 -1.62227983e-02 
 5.04626783e-01  3.32898684e+01 -1.65968916e-02 
 5.16263340e-01  3.32898684e+01 -1.69796115e-02 
 5.28168234e-01  3.32898683e+01 -1.73711567e-02 
 5.40347650e-01  3.32898683e+01 -1.77717308e-02 
 5.52807921e-01  3.32898683e+01 -1.81815421e-02 
 5.65555523e-01  3.32898683e+01 -1.86008035e-02 
 5.78597080e-01  3.32898683e+01 -1.90297330e-02 
 5.91939372e-01  3.32898682e+01 -1.94685535e-02 
 6.05589334e-01  3.32898682e+01 -1.99174930e-02 
 6.19554061e-01  3.32898682e+01 -2.03767850e-02 
 6.33840810e-01  3.32898682e+01 -2.08466681e-02 
 6.48457008e-01  3.32898681e+01 -2.13273866e-02 
 6.63410251e-01  3.32898681e+01 -2.18191903e-02 
 6.78708313e-01  3.32898681e+01 -2.23223349e-02 
 6.94359143e-01  3.32898680e+01 -2.28370819e-02 
 7.10370877e-01  3.32898680e+01 -2.33636988e-02 
 7.26751838e-01  3.32898680e+01 -2.39024593e-02 
 7.43510539e-01  3.32898679e+01 -2.44536435e-02 
 7.60655691e-01  3.32898679e+01 -2.50175378e-02 
 7.78196206e-01  3.32898679e+01 -2.55944354e-02 
 7.96141200e-01  3.32898678e+01 -2.61846361e-02 
 8.14500001e-01  3.32898678e+01 -2.67884466e-02 
 8.33282151e-01  3.32898677e+01 -2.74061809e-02 
 8.52497412e-01  3.32898677e+01 -2.80381599e-02 
 8.72155772e-01  3.32898676e+01 -2.86847122e-02 
 8.92267449e-01  3.32898676e+01 -2.93461738e-02 
 9.12842895e-01  3.32898675e+01 -3.00228885e-02 
 9.33892805e-01  3.32898675e+01 -3.07152081e-02 
 9.55428121e-01  3.32898674e+01 -3.14234923e-02 
 9.77460036e-01  3.32898674e+01 -3.21481094e-02 
 1.00000000e+00  3.32898673e+01 -3.28894360e-02 
 1.02305973e+00  3.32898672e+01 -3.36478573e-02 
 1.04665121e+00  3.32898672e+01 -3.44237676e-02 
 1.07078670e+00  3.32898671e+01 -3.52175702e-02 
 1.09547876e+00  3.32898670e+01 -3.60296777e-02 
 1.12074020e+00  3.32898669e+01 -3.68605121e-02 
 1.14658417e+00  3.32898669e+01 -3.77105053e-02 
 1.17302409e+00  3.32898668e+01 -3.85800991e-02 
 1.20007371e+00  3.32898667e+01 -3.94697455e-02 
 1.22774708e+00  3.32898666e+01 -4.03799069e-02 
 1.25605860e+00  3.32898665e+01 -4.13110563e-02 
 1.28502297e+00  3.32898664e+01 -4.22636777e-02 
 1.31465525e+00  3.32898663e+01 -4.32382664e-02 
 1.34497085e+00  3.32898661e+01 -4.42353287e-02 
 1.37598551e+00  3.32898660e+01 -4.52553830e-02 
 1.40771537e+00  3.32898659e+01 -4.62989595e-02 
 1.44017690e+00  3.32898658e+01 -4.73666005e-02 
 1.47338699e+00  3.32898656e+01 -4.84588610e-02 
 1.50736290e+00  3.32898655e+01 -4.95763087e-02 
 1.54212228e+00  3.32898653e+01 -5.07195244e-02 
 1.57768320e+00  3.32898652e+01 -5.18891023e-02 
 1.61406415e+00  3.32898650e+01 -5.30856503e-02 
 1.65128404e+00  3.32898648e+01 -5.43097903e-02 
 1.68936220e+00  3.32898647e+01 -5.55621586e-02 
 1.72831844e+00  3.32898645e+01 -5.68434062e-02 
 1.76817299e+00  3.32898643e+01 -5.81541989e-02 
 1.80894658e+00  3.32898641e+01 -5.94952180e-02 
 1.85066040e+00  3.32898638e+01 -6.08671607e-02 
 1.89333613e+00  3.32898636e+01 -6.22707399e-02 
 1.93699595e+00  3.32898634e+01 -6.37066851e-02 
 1.98166255e+00  3.32898631e+01 -6.51757428e-02 
 2.02735916e+00  3.32898629e+01 -6.66786765e-02 
 2.07410951e+00  3.32898626e+01 -6.82162674e-02 
 2.12193792e+00  3.32898623e+01 -6.97893145e-02 
 2.17086923e+00  3.32898620e+01 -7.13986356e-02 
 2.22092889e+00  3.32898617e+01 -7.30450671e-02 
 2.27214291e+00  3.32898614e+01 -7.47294647e-02 
 2.32453791e+00  3.32898610e+01 -7.64527040e-02 
 2.37814113e+00  3.32898607e+01 -7.82156805e-02 
 2.43298042e+00  3.32898603e+01 -8.00193107e-02 
 2.48908429e+00  3.32898599e+01 -8.18645319e-02 
 2.54648190e+00  3.32898595e+01 -8.37523032e-02 
 2.60520309e+00  3.32898590e+01 -8.56836059e-02 
 2.66527837e+00  3.32898586e+01 -8.76594436e-02 
 2.72673897e+00  3.32898581e+01 -8.96808435e-02 
 2.78961683e+00  3.32898576e+01 -9.17488560e-02 
 2.85394464e+00  3.32898571e+01 -9.38645561e-02 
 2.91975583e+00  3.32898566e+01 -9.60290434e-02 
 2.98708461e+00  3.32898560e+01 -9.82434429e-02 
 3.05596598e+00  3.32898554e+01 -1.00508906e-01 
 3.12643573e+00  3.32898548e+01 -1.02826609e-01 
 3.19853049e+00  3.32898541e+01 -1.05197757e-01 
 3.27228774e+00  3.32898534e+01 -1.07623584e-01 
 3.34774581e+00  3.32898527e+01 -1.10105348e-01 
 3.42494392e+00  3.32898520e+01 -1.12644342e-01 
 3.50392221e+00  3.32898512e+01 -1.15241883e-01 
 3.58472171e+00  3.32898504e+01 -1.17899322e-01 
 3.66738442e+00  3.32898495e+01 -1.20618041e-01 
 3.75195331e+00  3.32898486e+01 -1.23399452e-01 
 3.83847234e+00  3.32898477e+01 -1.26245001e-01 
 3.92698648e+00  3.32898467e+01 -1.29156166e-01 
 4.01754173e+00  3.32898457e+01 -1.32134462e-01 
 4.11018515e+00  3.32898446e+01 -1.35181436e-01 
 4.20496491e+00  3.32898435e+01 -1.38298672e-01 
 4.30193027e+00  3.32898423e+01 -1.41487789e-01 
 4.40113162e+00  3.32898411e+01 -1.44750445e-01 
 4.50262052e+00  3.32898398e+01 -1.48088337e-01 
 4.60644974e+00  3.32898384e+01 -1.51503198e-01 
 4.71267322e+00  3.32898370e+01 -1.54996804e-01 
 4.82134619e+00  3.32898355e+01 -1.58570971e-01 
 4.93252513e+00  3.32898340e+01 -1.62227555e-01 
 5.04626783e+00  3.32898324e+01 -1.65968458e-01 
 5.16263340e+00  3.32898307e+01 -1.69795624e-01 
 5.28168234e+00  3.32898289e+01 -1.73711041e-01 
 5.40347650e+00  3.32898270e+01 -1.77716746e-01 
 5.52807921e+00  3.32898251e+01 -1.81814819e-01 
 5.65555523e+00  3.32898230e+01 -1.86007390e-01 
 5.78597080e+00  3.32898209e+01 -1.90296639e-01 
 5.91939372e+00  3.32898187e+01 -1.94684795e-01 
 6.05589334e+00  3.32898163e+01 -1.99174138e-01 
 6.19554061e+00  3.32898139e+01 -2.03767002e-01 
 6.33840810e+00  3.32898113e+01 -2.08465773e-01 
 6.48457008e+00  3.32898087e+01 -2.13272894e-01 
 6.63410251e+00  3.32898059e+01 -2.18190862e-01 
 6.78708313e+00  3.32898029e+01 -2.23222234e-01 
 6.94359143e+00  3.32897999e+01 -2.28369625e-01 
 7.10370877e+00  3.32897967e+01 -2.33635709e-01 
 7.26751838e+00  3.32897933e+01 -2.39023224e-01 
 7.43510539e+00  3.32897898e+01 -2.44534969e-01 
 7.60655691e+00  3.32897861e+01 -2.50173809e-01 
 7.78196206e+00  3.32897822e+01 -2.55942673e-01 
 7.96141200e+00  3.32897782e+01 -2.61844561e-01 
 8.14500001e+00  3.32897740e+01 -2.67882539e-01 
 8.33282151e+00  3.32897696e+01 -2.74059745e-01 
 8.52497412e+00  3.32897649e+01 -2.80379390e-01 
 8.72155772e+00  3.32897601e+01 -2.86844756e-01 
 8.92267449e+00  3.32897550e+01 -2.93459205e-01 
 9.12842895e+00  3.32897497e+01 -3.00226173e-01 
 9.33892805e+00  3.32897442e+01 -3.07149176e-01 
 9.55428121e+00  3.32897383e+01 -3.14231813e-01 
 9.77460036e+00  3.32897323e+01 -3.21477764e-01 
 1.00000000e+01  3.32897259e+01 -3.28890794e-01 
 1.02305973e+01  3.32897192e+01 -3.36474755e-01 
 1.04665121e+01  3.32897123e+01 -3.44233588e-01 
 1.07078670e+01  3.32897050e+01 -3.52171324e-01 
 1.09547876e+01  3.32896973e+01 -3.60292089e-01 
 1.12074020e+01  3.32896893e+01 -3.68600101e-01 
 1.14658417e+01  3.32896810e+01 -3.77099678e-01 
 1.17302409e+01  3.32896722e+01 -3.85795235e-01 
 1.20007371e+01  3.32896630e+01 -3.94691292e-01 
 1.22774708e+01  3.32896534e+01 -4.03792469e-01 
 1.25605860e+01  3.32896434e+01 -4.13103496e-01 
 1.28502297e+01  3.32896329e+01 -4.22629210e-01 
 1.31465525e+01  3.32896219e+01 -4.32374561e-01 
 1.34497085e+01  3.32896104e+01 -4.42344611e-01 
 1.37598551e+01  3.32895983e+01 -4.52544540e-01 
 1.40771537e+01  3.32895857e+01 -4.62979647e-01 
 1.44017690e+01  3.32895725e+01 -4.73655353e-01 
 1.47338699e+01  3.32895587e+01 -4.84577204e-01 
 1.50736290e+01  3.32895442e+01 -4.95750873e-01 
 1.54212228e+01  3.32895291e+01 -5.07182166e-01 
 1.57768320e+01  3.32895132e+01 -5.18877019e-01 
 1.61406415e+01  3.32894966e+01 -5.30841508e-01 
 1.65128404e+01  3.32894793e+01 -5.43081847e-01 
 1.68936220e+01  3.32894611e+01 -5.55604394e-01 
 1.72831844e+01  3.32894421e+01 -5.68415652e-01 
 1.76817299e+01  3.32894222e+01 -5.81522276e-01 
 1.80894658e+01  3.32894014e+01 -5.94931072e-01 
 1.85066040e+01  3.32893796e+01 -6.08649005e-01 
 1.89333613e+01  3.32893567e+01 -6.22683197e-01 
 1.93699595e+01  3.32893329e+01 -6.37040936e-01 
 1.98166255e+01  3.32893079e+01 -6.51729679e-01 
 2.02735916e+01  3.32892817e+01 -6.66757051e-01 
 2.07410951e+01  3.32892543e+01 -6.82130857e-01 
 2.12193792e+01  3.32892257e+01 -6.97859076e-01 
 2.17086923e+01  3.32891957e+01 -7.13949876e-01 
 2.22092889e+01  3.32891643e+01 -7.30411608e-01 
 2.27214291e+01  3.32891314e+01 -7.47252820e-01 
 2.32453791e+01  3.32890970e+01 -7.64482252e-01 
 2.37814113e+01  3.32890610e+01 -7.82108847e-01 
 2.43298042e+01  3.32890233e+01 -8.00141754e-01 
 2.48908429e+01  3.32889839e+01 -8.18590331e-01 
 2.54648190e+01  3.32889426e+01 -8.37464152e-01 
 2.60520309e+01  3.32888994e+01 -8.56773011e-01 
 2.66527837e+01  3.32888542e+01 -8.76526926e-01 
 2.72673897e+01  3.32888069e+01 -8.96736146e-01 
 2.78961683e+01  3.32887574e+01 -9.17411155e-01 
 2.85394464e+01  3.32887055e+01 -9.38562678e-01 
 2.91975583e+01  3.32886513e+01 -9.60201684e-01 
 2.98708461e+01  3.32885945e+01 -9.82339398e-01 
 3.05596598e+01  3.32885350e+01 -1.00498730e+00 
 3.12643573e+01  3.32884728e+01 -1.02815713e+00 
 3.19853049e+01  3.32884077e+01 -1.05186090e+00 
 3.27228774e+01  3.32883396e+01 -1.07611091e+00 
 3.34774581e+01  3.32882682e+01 -1.10091971e+00 
 3.42494392e+01  3.32881936e+01 -1.12630018e+00 
 3.50392221e+01  3.32881155e+01 -1.15226545e+00 
 3.58472171e+01  3.32880337e+01 -1.17882899e+00 
 3.66738442e+01  3.32879481e+01 -1.20600455e+00 
 3.75195331e+01  3.32878585e+01 -1.23380622e+00 
 3.83847234e+01  3.32877648e+01 -1.26224838e+00 
 3.92698648e+01  3.32876666e+01 -1.29134577e+00 
 4.01754173e+01  3.32875639e+01 -1.32111345e+00 
 4.11018515e+01  3.32874564e+01 -1.35156682e+00 
 4.20496491e+01  3.32873439e+01 -1.38272166e+00 
 4.30193027e+01  3.32872262e+01 -1.41459408e+00 
 4.40113162e+01  3.32871029e+01 -1.44720056e+00 
 4.50262052e+01  3.32869740e+01 -1.48055796e+00 
 4.60644974e+01  3.32868390e+01 -1.51468355e+00 
 4.71267322e+01  3.32866977e+01 -1.54959495e+00 
 4.82134619e+01  3.32865498e+01 -1.58531022e+00 
 4.93252513e+01  3.32863950e+01 -1.62184779e+00 
 5.04626783e+01  3.32862330e+01 -1.65922655e+00 
 5.16263340e+01  3.32860635e+01 -1.69746580e+00 
 5.28168234e+01  3.32858861e+01 -1.73658527e+00 
 5.40347650e+01  3.32857004e+01 -1.77660516e+00 
 5.52807921e+01  3.32855060e+01 -1.81754610e+00 
 5.65555523e+01  3.32853026e+01 -1.85942921e+00 
 5.78597080e+01  3.32850897e+01 -1.90227609e+00 
 5.91939372e+01  3.32848669e+01 -1.94610881e+00 
 6.05589334e+01  3.32846337e+01 -1.99094994e+00 
 6.19554061e+01  3.32843896e+01 -2.03682258e+00 
 6.33840810e+01  3.32841341e+01 -2.08375034e+00 
 6.48457008e+01  3.32838668e+01 -2.13175735e+00 
 6.63410251e+01  3.32835870e+01 -2.18086830e+00 
 6.78708313e+01  3.32832942e+01 -2.23110842e+00 
 6.94359143e+01  3.32829877e+01 -2.28250353e+00 
 7.10370877e+01  3.32826670e+01 -2.33508000e+00 
 7.26751838e+01  3.32823313e+01 -2.38886481e+00 
 7.43510539e+01  3.32819800e+01 -2.44388554e+00 
 7.60655691e+01  3.32816123e+01 -2.50017037e+00 
 7.78196206e+01  3.32812275e+01 -2.55774814e+00 
 7.96141200e+01  3.32808248e+01 -2.61664830e+00 
 8.14500001e+01  3.32804034e+01 -2.67690097e+00 
 8.33282151e+01  3.32799623e+01 -2.73853693e+00 
 8.52497412e+01  3.32795007e+01 -2.80158766e+00 
 8.72155772e+01  3.32790176e+01 -2.86608531e+00 
 8.92267449e+01  3.32785121e+01 -2.93206275e+00 
 9.12842895e+01  3.32779830e+01 -2.99955359e+00 
 9.33892805e+01  3.32774293e+01 -3.06859215e+00 
 9.55428121e+01  3.32768499e+01 -3.13921352e+00 
 9.77460036e+01  3.32762435e+01 -3.21145355e+00 
 1.00000000e+02  3.32756089e+01 -3.28534886e+00 
 1.02305973e+02  3.32749448e+01 -3.36093688e+00 
 1.04665121e+02  3.32742498e+01 -3.43825586e+00 
