 time            v(vind)         v(vout)         v(vinp)         v(vinn)         v(voutp)        v(voutn)       
 0.00000000e+00  0.00000000e+00 -1.31561428e-13  3.45000000e-01  3.45000000e-01  7.49141722e-01  7.49141722e-01 
 3.00000000e-07  9.42477790e-07  1.08001351e-07  3.45000471e-01  3.44999529e-01  7.49141776e-01  7.49141668e-01 
 6.00000000e-07  1.88495555e-06  3.52619214e-07  3.45000942e-01  3.44999058e-01  7.49141899e-01  7.49141547e-01 
 1.20000000e-06  3.76991083e-06  1.12383040e-06  3.45001885e-01  3.44998115e-01  7.49142286e-01  7.49141162e-01 
 2.40000000e-06  7.53981951e-06  4.35600833e-06  3.45003770e-01  3.44996230e-01  7.49143899e-01  7.49139543e-01 
 4.80000000e-06  1.50796219e-05  1.74732946e-05  3.45007540e-01  3.44992460e-01  7.49150420e-01  7.49132946e-01 
 9.60000000e-06  3.01591066e-05  6.94641959e-05  3.45015080e-01  3.44984920e-01  7.49176249e-01  7.49106785e-01 
 1.92000000e-05  6.03171159e-05  2.70037361e-04  3.45030159e-01  3.44969841e-01  7.49276396e-01  7.49006359e-01 
 3.84000000e-05  1.20625454e-04  1.01154715e-03  3.45060313e-01  3.44939687e-01  7.49648236e-01  7.48636689e-01 
 6.84000000e-05  2.14818794e-04  2.90911623e-03  3.45107409e-01  3.44892591e-01  7.50600995e-01  7.47691879e-01 
 9.84000000e-05  3.08935810e-04  5.49856247e-03  3.45154468e-01  3.44845532e-01  7.51899578e-01  7.46401016e-01 
 1.28400000e-04  4.02943063e-04  8.58336288e-03  3.45201472e-01  3.44798528e-01  7.53445498e-01  7.44862135e-01 
 1.58400000e-04  4.96807152e-04  1.20220327e-02  3.45248404e-01  3.44751596e-01  7.55169173e-01  7.43147140e-01 
 1.88400000e-04  5.90494728e-04  1.57125920e-02  3.45295247e-01  3.44704753e-01  7.57018755e-01  7.41306163e-01 
 2.18400000e-04  6.83972504e-04  1.95814103e-02  3.45341986e-01  3.44658014e-01  7.58957179e-01  7.39375768e-01 
 2.48400000e-04  7.77207268e-04  2.35752048e-02  3.45388604e-01  3.44611396e-01  7.60957006e-01  7.37381802e-01 
 2.78400000e-04  8.70165893e-04  2.76552979e-02  3.45435083e-01  3.44564917e-01  7.62999167e-01  7.35343869e-01 
 3.08400000e-04  9.62815353e-04  3.17934950e-02  3.45481408e-01  3.44518592e-01  7.65071260e-01  7.33277765e-01 
 3.38400000e-04  1.05512273e-03  3.59691271e-02  3.45527561e-01  3.44472439e-01  7.67163002e-01  7.31193875e-01 
 3.68400000e-04  1.14705523e-03  4.01669408e-02  3.45573528e-01  3.44426472e-01  7.69264916e-01  7.29097975e-01 
 3.98400000e-04  1.23858018e-03  4.43755479e-02  3.45619290e-01  3.44380710e-01  7.71371318e-01  7.26995771e-01 
 4.28400000e-04  1.32966507e-03  4.85863413e-02  3.45664833e-01  3.44335167e-01  7.73479518e-01  7.24893177e-01 
 4.58400000e-04  1.42027754e-03  5.27927152e-02  3.45710139e-01  3.44289861e-01  7.75585152e-01  7.22792437e-01 
 4.88400000e-04  1.51038539e-03  5.69895123e-02  3.45755193e-01  3.44244807e-01  7.77685538e-01  7.20696026e-01 
 5.18400000e-04  1.59995660e-03  6.11726205e-02  3.45799978e-01  3.44200022e-01  7.79780082e-01  7.18607462e-01 
 5.48400000e-04  1.68895936e-03  6.53386748e-02  3.45844480e-01  3.44155520e-01  7.81865962e-01  7.16527288e-01 
 5.78400000e-04  1.77736204e-03  6.94848142e-02  3.45888681e-01  3.44111319e-01  7.83939824e-01  7.14455010e-01 
 6.08400000e-04  1.86513324e-03  7.36085688e-02  3.45932567e-01  3.44067433e-01  7.86000510e-01  7.12391941e-01 
 6.38400000e-04  1.95224176e-03  7.77077835e-02  3.45976121e-01  3.44023879e-01  7.88049598e-01  7.10341814e-01 
 6.68400000e-04  2.03865665e-03  8.17805149e-02  3.46019328e-01  3.43980672e-01  7.90087496e-01  7.08306981e-01 
 6.98400000e-04  2.12434723e-03  8.58249549e-02  3.46062174e-01  3.43937826e-01  7.92111858e-01  7.06286903e-01 
 7.28400000e-04  2.20928303e-03  8.98393711e-02  3.46104642e-01  3.43895358e-01  7.94120424e-01  7.04281053e-01 
 7.58400000e-04  2.29343388e-03  9.38221483e-02  3.46146717e-01  3.43853283e-01  7.96113372e-01  7.02291224e-01 
 7.88400000e-04  2.37676989e-03  9.77717685e-02  3.46188385e-01  3.43811615e-01  7.98090498e-01  7.00318729e-01 
 8.18400000e-04  2.45926144e-03  1.01686723e-01  3.46229631e-01  3.43770369e-01  8.00049649e-01  6.98362926e-01 
 8.48400000e-04  2.54087923e-03  1.05565509e-01  3.46270440e-01  3.43729560e-01  8.01989917e-01  6.96424407e-01 
 8.78400000e-04  2.62159426e-03  1.09406701e-01  3.46310797e-01  3.43689203e-01  8.03911528e-01  6.94504827e-01 
 9.08400000e-04  2.70137785e-03  1.13208932e-01  3.46350689e-01  3.43649311e-01  8.05814064e-01  6.92605132e-01 
 9.38400000e-04  2.78020165e-03  1.16970800e-01  3.46390101e-01  3.43609899e-01  8.07695290e-01  6.90724490e-01 
 9.68400000e-04  2.85803765e-03  1.20690939e-01  3.46429019e-01  3.43570981e-01  8.09554210e-01  6.88863271e-01 
 9.98400000e-04  2.93485821e-03  1.24368032e-01  3.46467429e-01  3.43532571e-01  8.11392768e-01  6.87024736e-01 
 1.02840000e-03  3.01063603e-03  1.28000737e-01  3.46505318e-01  3.43494682e-01  8.13210860e-01  6.85210123e-01 
 1.05840000e-03  3.08534419e-03  1.31587774e-01  3.46542672e-01  3.43457328e-01  8.15007006e-01  6.83419232e-01 
 1.08840000e-03  3.15895613e-03  1.35127909e-01  3.46579478e-01  3.43420522e-01  8.16780792e-01  6.81652883e-01 
 1.11840000e-03  3.23144572e-03  1.38619855e-01  3.46615723e-01  3.43384277e-01  8.18529910e-01  6.79910055e-01 
 1.14840000e-03  3.30278719e-03  1.42062364e-01  3.46651394e-01  3.43348606e-01  8.20253360e-01  6.78190996e-01 
 1.17840000e-03  3.37295519e-03  1.45454225e-01  3.46686478e-01  3.43313522e-01  8.21952430e-01  6.76498205e-01 
 1.20840000e-03  3.44192480e-03  1.48794209e-01  3.46720962e-01  3.43279038e-01  8.23626730e-01  6.74832522e-01 
 1.23840000e-03  3.50967151e-03  1.52081156e-01  3.46754836e-01  3.43245164e-01  8.25274150e-01  6.73192994e-01 
 1.26840000e-03  3.57617124e-03  1.55313908e-01  3.46788086e-01  3.43211914e-01  8.26893424e-01  6.71579516e-01 
 1.29840000e-03  3.64140039e-03  1.58491289e-01  3.46820700e-01  3.43179300e-01  8.28484242e-01  6.69992952e-01 
 1.32840000e-03  3.70533576e-03  1.61612175e-01  3.46852668e-01  3.43147332e-01  8.30046431e-01  6.68434256e-01 
 1.35840000e-03  3.76795464e-03  1.64675462e-01  3.46883977e-01  3.43116023e-01  8.31580045e-01  6.66904583e-01 
 1.38840000e-03  3.82923478e-03  1.67680059e-01  3.46914617e-01  3.43085383e-01  8.33084253e-01  6.65404194e-01 
 1.41840000e-03  3.88915442e-03  1.70624910e-01  3.46944577e-01  3.43055423e-01  8.34558259e-01  6.63933349e-01 
 1.44840000e-03  3.94769226e-03  1.73509011e-01  3.46973846e-01  3.43026154e-01  8.36002303e-01  6.62493292e-01 
 1.47840000e-03  4.00482750e-03  1.76331336e-01  3.47002414e-01  3.42997586e-01  8.37416916e-01  6.61085580e-01 
 1.50840000e-03  4.06053985e-03  1.79090904e-01  3.47030270e-01  3.42969730e-01  8.38801129e-01  6.59710225e-01 
 1.53840000e-03  4.11480950e-03  1.81786756e-01  3.47057405e-01  3.42942595e-01  8.40153349e-01  6.58366593e-01 
 1.56840000e-03  4.16761719e-03  1.84417914e-01  3.47083809e-01  3.42916191e-01  8.41471882e-01  6.57053968e-01 
 1.59840000e-03  4.21894414e-03  1.86983421e-01  3.47109472e-01  3.42890528e-01  8.42755692e-01  6.55772272e-01 
 1.62840000e-03  4.26877211e-03  1.89482373e-01  3.47134386e-01  3.42865614e-01  8.44006325e-01  6.54523953e-01 
 1.65840000e-03  4.31708342e-03  1.91913922e-01  3.47158542e-01  3.42841458e-01  8.45224764e-01  6.53310842e-01 
 1.68840000e-03  4.36386088e-03  1.94277240e-01  3.47181930e-01  3.42818070e-01  8.46409629e-01  6.52132389e-01 
 1.71840000e-03  4.40908789e-03  1.96571491e-01  3.47204544e-01  3.42795456e-01  8.47559152e-01  6.50987661e-01 
 1.74840000e-03  4.45274836e-03  1.98795843e-01  3.47226374e-01  3.42773626e-01  8.48672621e-01  6.49876777e-01 
 1.77840000e-03  4.49482680e-03  2.00949505e-01  3.47247413e-01  3.42752587e-01  8.49750712e-01  6.48801207e-01 
 1.80840000e-03  4.53530825e-03  2.03031740e-01  3.47267654e-01  3.42732346e-01  8.50793646e-01  6.47761906e-01 
 1.83840000e-03  4.57417832e-03  2.05041836e-01  3.47287089e-01  3.42712911e-01  8.51800357e-01  6.46758521e-01 
 1.86840000e-03  4.61142321e-03  2.06979075e-01  3.47305712e-01  3.42694288e-01  8.52770322e-01  6.45791247e-01 
 1.89840000e-03  4.64702968e-03  2.08842782e-01  3.47323515e-01  3.42676485e-01  8.53704127e-01  6.44861345e-01 
 1.92840000e-03  4.68098509e-03  2.10632316e-01  3.47340493e-01  3.42659507e-01  8.54601968e-01  6.43969652e-01 
 1.95840000e-03  4.71327736e-03  2.12347061e-01  3.47356639e-01  3.42643361e-01  8.55461848e-01  6.43114787e-01 
 1.98840000e-03  4.74389503e-03  2.13986404e-01  3.47371948e-01  3.42628052e-01  8.56281451e-01  6.42295047e-01 
 2.01840000e-03  4.77282722e-03  2.15549740e-01  3.47386414e-01  3.42613586e-01  8.57062105e-01  6.41512364e-01 
 2.04840000e-03  4.80006364e-03  2.17036538e-01  3.47400032e-01  3.42599968e-01  8.57806799e-01  6.40770260e-01 
 2.07840000e-03  4.82559462e-03  2.18446323e-01  3.47412797e-01  3.42587203e-01  8.58515833e-01  6.40069510e-01 
 2.10840000e-03  4.84941109e-03  2.19778634e-01  3.47424706e-01  3.42575294e-01  8.59186933e-01  6.39408299e-01 
 2.13840000e-03  4.87150459e-03  2.21032996e-01  3.47435752e-01  3.42564248e-01  8.59818463e-01  6.38785467e-01 
 2.16840000e-03  4.89186727e-03  2.22208945e-01  3.47445934e-01  3.42554066e-01  8.60408655e-01  6.38199710e-01 
 2.19840000e-03  4.91049189e-03  2.23306040e-01  3.47455246e-01  3.42544754e-01  8.60957436e-01  6.37651396e-01 
 2.22840000e-03  4.92737184e-03  2.24323902e-01  3.47463686e-01  3.42536314e-01  8.61467739e-01  6.37143837e-01 
 2.25840000e-03  4.94250111e-03  2.25262193e-01  3.47471251e-01  3.42528749e-01  8.61938011e-01  6.36675818e-01 
 2.28840000e-03  4.95587434e-03  2.26120579e-01  3.47477937e-01  3.42522063e-01  8.62367468e-01  6.36246889e-01 
 2.31840000e-03  4.96748676e-03  2.26898770e-01  3.47483743e-01  3.42516257e-01  8.62758165e-01  6.35859396e-01 
 2.34840000e-03  4.97733427e-03  2.27596516e-01  3.47488667e-01  3.42511333e-01  8.63109402e-01  6.35512886e-01 
 2.37840000e-03  4.98541335e-03  2.28213578e-01  3.47492707e-01  3.42507293e-01  8.63419890e-01  6.35206312e-01 
 2.40840000e-03  4.99172113e-03  2.28749728e-01  3.47495861e-01  3.42504139e-01  8.63688717e-01  6.34938989e-01 
 2.43840000e-03  4.99625539e-03  2.29204768e-01  3.47498128e-01  3.42501872e-01  8.63916121e-01  6.34711353e-01 
 2.46840000e-03  4.99901449e-03  2.29578535e-01  3.47499507e-01  3.42500493e-01  8.64102150e-01  6.34523615e-01 
 2.49840000e-03  4.99999747e-03  2.29870899e-01  3.47499999e-01  3.42500001e-01  8.64247289e-01  6.34376390e-01 
 2.52840000e-03  4.99920398e-03  2.30081773e-01  3.47499602e-01  3.42500398e-01  8.64352408e-01  6.34270635e-01 
 2.55840000e-03  4.99663429e-03  2.30211093e-01  3.47498317e-01  3.42501683e-01  8.64416628e-01  6.34205535e-01 
 2.58840000e-03  4.99228932e-03  2.30258822e-01  3.47496145e-01  3.42503855e-01  8.64440602e-01  6.34181780e-01 
 2.61840000e-03  4.98617062e-03  2.30224964e-01  3.47493085e-01  3.42506915e-01  8.64425844e-01  6.34200881e-01 
 2.64840000e-03  4.97828035e-03  2.30109541e-01  3.47489140e-01  3.42510860e-01  8.64370168e-01  6.34260627e-01 
 2.67840000e-03  4.96862132e-03  2.29912573e-01  3.47484311e-01  3.42515689e-01  8.64271512e-01  6.34358939e-01 
 2.70840000e-03  4.95719697e-03  2.29634105e-01  3.47478598e-01  3.42521402e-01  8.64131339e-01  6.34497233e-01 
 2.73840000e-03  4.94401134e-03  2.29274237e-01  3.47472006e-01  3.42527994e-01  8.63950684e-01  6.34676447e-01 
 2.76840000e-03  4.92906913e-03  2.28833103e-01  3.47464535e-01  3.42535465e-01  8.63729401e-01  6.34896298e-01 
 2.79840000e-03  4.91237565e-03  2.28310864e-01  3.47456188e-01  3.42543812e-01  8.63468230e-01  6.35157366e-01 
 2.82840000e-03  4.89393683e-03  2.27707719e-01  3.47446968e-01  3.42553032e-01  8.63167740e-01  6.35460020e-01 
 2.85840000e-03  4.87375921e-03  2.27023889e-01  3.47436880e-01  3.42563120e-01  8.62827248e-01  6.35803358e-01 
 2.88840000e-03  4.85184997e-03  2.26259603e-01  3.47425925e-01  3.42574075e-01  8.62445540e-01  6.36185936e-01 
 2.91840000e-03  4.82821689e-03  2.25415108e-01  3.47414108e-01  3.42585892e-01  8.62022413e-01  6.36607305e-01 
 2.94840000e-03  4.80286836e-03  2.24490684e-01  3.47401434e-01  3.42598566e-01  8.61558157e-01  6.37067473e-01 
 2.97840000e-03  4.77581340e-03  2.23486654e-01  3.47387907e-01  3.42612093e-01  8.61054228e-01  6.37567574e-01 
 3.00840000e-03  4.74706162e-03  2.22403376e-01  3.47373531e-01  3.42626469e-01  8.60510313e-01  6.38106937e-01 
 3.03840000e-03  4.71662323e-03  2.21241210e-01  3.47358312e-01  3.42641688e-01  8.59924597e-01  6.38683387e-01 
 3.06840000e-03  4.68450904e-03  2.20000550e-01  3.47342255e-01  3.42657745e-01  8.59299024e-01  6.39298474e-01 
 3.09840000e-03  4.65073048e-03  2.18681859e-01  3.47325365e-01  3.42674635e-01  8.58636521e-01  6.39954662e-01 
 3.12840000e-03  4.61529952e-03  2.17285642e-01  3.47307650e-01  3.42692350e-01  8.57939266e-01  6.40653624e-01 
 3.15840000e-03  4.57822878e-03  2.15812421e-01  3.47289114e-01  3.42710886e-01  8.57206101e-01  6.41393680e-01 
 3.18840000e-03  4.53953141e-03  2.14262712e-01  3.47269766e-01  3.42730234e-01  8.56434077e-01  6.42171364e-01 
 3.21840000e-03  4.49922117e-03  2.12637034e-01  3.47249611e-01  3.42750389e-01  8.55622854e-01  6.42985820e-01 
 3.24840000e-03  4.45731237e-03  2.10935926e-01  3.47228656e-01  3.42771344e-01  8.54772870e-01  6.43836944e-01 
 3.27840000e-03  4.41381992e-03  2.09159956e-01  3.47206910e-01  3.42793090e-01  8.53884072e-01  6.44724116e-01 
 3.30840000e-03  4.36875925e-03  2.07309727e-01  3.47184380e-01  3.42815620e-01  8.52957359e-01  6.45647633e-01 
 3.33840000e-03  4.32214639e-03  2.05385902e-01  3.47161073e-01  3.42838927e-01  8.51994740e-01  6.46608838e-01 
 3.36840000e-03  4.27399789e-03  2.03389164e-01  3.47136999e-01  3.42863001e-01  8.50995962e-01  6.47606798e-01 
 3.39840000e-03  4.22433085e-03  2.01320219e-01  3.47112165e-01  3.42887835e-01  8.49961161e-01  6.48640942e-01 
 3.42840000e-03  4.17316293e-03  1.99179789e-01  3.47086581e-01  3.42913419e-01  8.48890848e-01  6.49711059e-01 
 3.45840000e-03  4.12051231e-03  1.96968621e-01  3.47060256e-01  3.42939744e-01  8.47784126e-01  6.50815506e-01 
 3.48840000e-03  4.06639769e-03  1.94687479e-01  3.47033199e-01  3.42966801e-01  8.46640738e-01  6.51953259e-01 
 3.51840000e-03  4.01083830e-03  1.92337137e-01  3.47005419e-01  3.42994581e-01  8.45460999e-01  6.53123862e-01 
 3.54840000e-03  3.95385387e-03  1.89918403e-01  3.46976927e-01  3.43023073e-01  8.44246722e-01  6.54328318e-01 
 3.57840000e-03  3.89546466e-03  1.87432153e-01  3.46947732e-01  3.43052268e-01  8.42999087e-01  6.55566933e-01 
 3.60840000e-03  3.83569141e-03  1.84879284e-01  3.46917846e-01  3.43082154e-01  8.41718616e-01  6.56839332e-01 
 3.63840000e-03  3.77455536e-03  1.82260673e-01  3.46887278e-01  3.43112722e-01  8.40405997e-01  6.58145324e-01 
 3.66840000e-03  3.71207822e-03  1.79577268e-01  3.46856039e-01  3.43143961e-01  8.39061771e-01  6.59484504e-01 
 3.69840000e-03  3.64828220e-03  1.76830027e-01  3.46824141e-01  3.43175859e-01  8.37686177e-01  6.60856149e-01 
 3.72840000e-03  3.58318997e-03  1.74019905e-01  3.46791595e-01  3.43208405e-01  8.36280100e-01  6.62260195e-01 
 3.75840000e-03  3.51682464e-03  1.71147894e-01  3.46758412e-01  3.43241588e-01  8.34843846e-01  6.63695953e-01 
 3.78840000e-03  3.44920980e-03  1.68214997e-01  3.46724605e-01  3.43275395e-01  8.33376224e-01  6.65161227e-01 
 3.81840000e-03  3.38036948e-03  1.65222214e-01  3.46690185e-01  3.43309815e-01  8.31877607e-01  6.66655393e-01 
 3.84840000e-03  3.31032812e-03  1.62170613e-01  3.46655164e-01  3.43344836e-01  8.30348985e-01  6.68178372e-01 
 3.87840000e-03  3.23911063e-03  1.59061277e-01  3.46619555e-01  3.43380445e-01  8.28790784e-01  6.69729506e-01 
 3.90840000e-03  3.16674229e-03  1.55895281e-01  3.46583371e-01  3.43416629e-01  8.27204085e-01  6.71308804e-01 
 3.93840000e-03  3.09324882e-03  1.52673729e-01  3.46546624e-01  3.43453376e-01  8.25589714e-01  6.72915985e-01 
 3.96840000e-03  3.01865634e-03  1.49397764e-01  3.46509328e-01  3.43490672e-01  8.23947692e-01  6.74549928e-01 
 3.99840000e-03  2.94299134e-03  1.46068568e-01  3.46471496e-01  3.43528504e-01  8.22280076e-01  6.76211508e-01 
 4.02840000e-03  2.86628071e-03  1.42687333e-01  3.46433140e-01  3.43566860e-01  8.20589065e-01  6.77901732e-01 
 4.05840000e-03  2.78855171e-03  1.39255278e-01  3.46394276e-01  3.43605724e-01  8.18873085e-01  6.79617807e-01 
 4.08840000e-03  2.70983194e-03  1.35773599e-01  3.46354916e-01  3.43645084e-01  8.17130514e-01  6.81356915e-01 
 4.11840000e-03  2.63014939e-03  1.32243489e-01  3.46315075e-01  3.43684925e-01  8.15362762e-01  6.83119273e-01 
 4.14840000e-03  2.54953235e-03  1.28666178e-01  3.46274766e-01  3.43725234e-01  8.13570916e-01  6.84904738e-01 
 4.17840000e-03  2.46800948e-03  1.25042955e-01  3.46234005e-01  3.43765995e-01  8.11755664e-01  6.86712710e-01 
 4.20840000e-03  2.38560974e-03  1.21375122e-01  3.46192805e-01  3.43807195e-01  8.09918676e-01  6.88543554e-01 
 4.23840000e-03  2.30236240e-03  1.17663966e-01  3.46151181e-01  3.43848819e-01  8.08060722e-01  6.90396756e-01 
 4.26840000e-03  2.21829705e-03  1.13910804e-01  3.46109149e-01  3.43890851e-01  8.06181278e-01  6.92270474e-01 
 4.29840000e-03  2.13344354e-03  1.10116948e-01  3.46066722e-01  3.43933278e-01  8.04280732e-01  6.94163783e-01 
 4.32840000e-03  2.04783203e-03  1.06283766e-01  3.46023916e-01  3.43976084e-01  8.02360546e-01  6.96076780e-01 
 4.35840000e-03  1.96149293e-03  1.02412619e-01  3.45980746e-01  3.44019254e-01  8.00421617e-01  6.98008998e-01 
 4.38840000e-03  1.87445693e-03  9.85048739e-02  3.45937228e-01  3.44062772e-01  7.98465220e-01  6.99960346e-01 
 4.41840000e-03  1.78675494e-03  9.45619420e-02  3.45893377e-01  3.44106623e-01  7.96492586e-01  7.01930644e-01 
 4.44840000e-03  1.69841813e-03  9.05852283e-02  3.45849209e-01  3.44150791e-01  7.94503339e-01  7.03918111e-01 
 4.47840000e-03  1.60947787e-03  8.65761432e-02  3.45804739e-01  3.44195261e-01  7.92497592e-01  7.05921449e-01 
 4.50840000e-03  1.51996578e-03  8.25361076e-02  3.45759983e-01  3.44240017e-01  7.90475964e-01  7.07939856e-01 
 4.53840000e-03  1.42991365e-03  7.84665715e-02  3.45714957e-01  3.44285043e-01  7.88439714e-01  7.09973143e-01 
 4.56840000e-03  1.33935347e-03  7.43689829e-02  3.45669677e-01  3.44330323e-01  7.86391113e-01  7.12022130e-01 
 4.59840000e-03  1.24831744e-03  7.02447883e-02  3.45624159e-01  3.44375841e-01  7.84329123e-01  7.14084335e-01 
 4.62840000e-03  1.15683788e-03  6.60954533e-02  3.45578419e-01  3.44421581e-01  7.82252831e-01  7.16157378e-01 
 4.65840000e-03  1.06494730e-03  6.19224519e-02  3.45532474e-01  3.44467526e-01  7.80163790e-01  7.18241338e-01 
 4.68840000e-03  9.72678349e-04  5.77272647e-02  3.45486339e-01  3.44513661e-01  7.78063497e-01  7.20336232e-01 
 4.71840000e-03  8.80063812e-04  5.35114044e-02  3.45440032e-01  3.44559968e-01  7.75953466e-01  7.22442062e-01 
 4.74840000e-03  7.87136592e-04  4.92763906e-02  3.45393568e-01  3.44606432e-01  7.73834491e-01  7.24558101e-01 
 4.77840000e-03  6.93929707e-04  4.50237252e-02  3.45346965e-01  3.44653035e-01  7.71708162e-01  7.26684437e-01 
 4.80840000e-03  6.00476271e-04  4.07549211e-02  3.45300238e-01  3.44699762e-01  7.69574358e-01  7.28819437e-01 
 4.83840000e-03  5.06809489e-04  3.64715106e-02  3.45253405e-01  3.44746595e-01  7.67431065e-01  7.30959554e-01 
 4.86840000e-03  4.12962640e-04  3.21750288e-02  3.45206481e-01  3.44793519e-01  7.65279875e-01  7.33104846e-01 
 4.89840000e-03  3.18969068e-04  2.78669961e-02  3.45159485e-01  3.44840515e-01  7.63123602e-01  7.35256606e-01 
 4.92840000e-03  2.24862167e-04  2.35489624e-02  3.45112431e-01  3.44887569e-01  7.60962909e-01  7.37413946e-01 
 4.95840000e-03  1.30675374e-04  1.92224733e-02  3.45065338e-01  3.44934662e-01  7.58796626e-01  7.39574153e-01 
 4.98840000e-03  3.64421521e-05  1.48890724e-02  3.45018221e-01  3.44981779e-01  7.56626663e-01  7.41737590e-01 
 5.01840000e-03 -5.78040171e-05  1.05503168e-02  3.44971098e-01  3.45028902e-01  7.54456142e-01  7.43905825e-01 
