 v-sweep         v(vout_comp)    v(vinp)         v(vinn)         v(dvout_comp)  
 7.50000000e-01  0.00000000e+00  7.50000000e-01  7.50000000e-01  5.84959053e-06 
 7.50001000e-01  3.93463040e-12  7.50001000e-01  7.50000000e-01  2.01979814e-06 
 7.50002000e-01  4.03955314e-12  7.50002000e-01  7.50000000e-01  1.07038892e-07 
 7.50003000e-01  4.14870804e-12  7.50003000e-01  7.50000000e-01  1.10659292e-07 
 7.50004000e-01  4.26087166e-12  7.50004000e-01  7.50000000e-01  1.13680192e-07 
 7.50005000e-01  4.37606840e-12  7.50005000e-01  7.50000000e-01  1.16666675e-07 
 7.50006000e-01  4.49420501e-12  7.50006000e-01  7.50000000e-01  1.19850775e-07 
 7.50007000e-01  4.61576999e-12  7.50007000e-01  7.50000000e-01  1.23128138e-07 
 7.50008000e-01  4.74046136e-12  7.50008000e-01  7.50000000e-01  1.26398832e-07 
 7.50009000e-01  4.86856777e-12  7.50009000e-01  7.50000000e-01  1.29891670e-07 
 7.50010000e-01  5.00024466e-12  7.50010000e-01  7.50000000e-01  1.33340003e-07 
 7.50011000e-01  5.13524778e-12  7.50011000e-01  7.50000000e-01  1.36861609e-07 
 7.50012000e-01  5.27396793e-12  7.50012000e-01  7.50000000e-01  1.40703067e-07 
 7.50013000e-01  5.41665379e-12  7.50013000e-01  7.50000000e-01  1.44526650e-07 
 7.50014000e-01  5.56302115e-12  7.50014000e-01  7.50000000e-01  1.48345797e-07 
 7.50015000e-01  5.71334535e-12  7.50015000e-01  7.50000000e-01  1.52348129e-07 
 7.50016000e-01  5.86771742e-12  7.50016000e-01  7.50000000e-01  1.56477025e-07 
 7.50017000e-01  6.02629946e-12  7.50017000e-01  7.50000000e-01  1.60702509e-07 
 7.50018000e-01  6.18912255e-12  7.50018000e-01  7.50000000e-01  1.65094648e-07 
 7.50019000e-01  6.35648867e-12  7.50019000e-01  7.50000000e-01  1.69588805e-07 
 7.50020000e-01  6.52830012e-12  7.50020000e-01  7.50000000e-01  1.74107388e-07 
 7.50021000e-01  6.70470346e-12  7.50021000e-01  7.50000000e-01  1.78771539e-07 
 7.50022000e-01  6.88584301e-12  7.50022000e-01  7.50000000e-01  1.83597518e-07 
 7.50023000e-01  7.07189862e-12  7.50023000e-01  7.50000000e-01  1.88621246e-07 
 7.50024000e-01  7.26308569e-12  7.50024000e-01  7.50000000e-01  1.93753920e-07 
 7.50025000e-01  7.45940643e-12  7.50025000e-01  7.50000000e-01  1.98920869e-07 
 7.50026000e-01  7.66092745e-12  7.50026000e-01  7.50000000e-01  2.04274333e-07 
 7.50027000e-01  7.86795518e-12  7.50027000e-01  7.50000000e-01  2.09887745e-07 
 7.50028000e-01  8.08070277e-12  7.50028000e-01  7.50000000e-01  2.15494337e-07 
 7.50029000e-01  8.29894375e-12  7.50029000e-01  7.50000000e-01  2.21280791e-07 
 7.50030000e-01  8.52326432e-12  7.50030000e-01  7.50000000e-01  2.27371440e-07 
 7.50031000e-01  8.75368666e-12  7.50031000e-01  7.50000000e-01  2.33510938e-07 
 7.50032000e-01  8.99028629e-12  7.50032000e-01  7.50000000e-01  2.39768294e-07 
 7.50033000e-01  9.23322308e-12  7.50033000e-01  7.50000000e-01  2.46184239e-07 
 7.50034000e-01  9.48265466e-12  7.50034000e-01  7.50000000e-01  2.52862004e-07 
 7.50035000e-01  9.73894743e-12  7.50035000e-01  7.50000000e-01  2.59805490e-07 
 7.50036000e-01  1.00022657e-11  7.50036000e-01  7.50000000e-01  2.66755639e-07 
 7.50037000e-01  1.02724584e-11  7.50037000e-01  7.50000000e-01  2.73918560e-07 
 7.50038000e-01  1.05501030e-11  7.50038000e-01  7.50000000e-01  2.81365894e-07 
 7.50039000e-01  1.08351905e-11  7.50039000e-01  7.50000000e-01  2.88951103e-07 
 7.50040000e-01  1.11280052e-11  7.50040000e-01  7.50000000e-01  2.96833865e-07 
 7.50041000e-01  1.14288579e-11  7.50041000e-01  7.50000000e-01  3.04828534e-07 
 7.50042000e-01  1.17376620e-11  7.50042000e-01  7.50000000e-01  3.13013936e-07 
 7.50043000e-01  1.20548860e-11  7.50043000e-01  7.50000000e-01  3.21522635e-07 
 7.50044000e-01  1.23807076e-11  7.50044000e-01  7.50000000e-01  3.30155919e-07 
 7.50045000e-01  1.27151978e-11  7.50045000e-01  7.50000000e-01  3.39095384e-07 
 7.50046000e-01  1.30588984e-11  7.50046000e-01  7.50000000e-01  3.48316844e-07 
 7.50047000e-01  1.34118316e-11  7.50047000e-01  7.50000000e-01  3.57674012e-07 
 7.50048000e-01  1.37742462e-11  7.50048000e-01  7.50000000e-01  3.67357326e-07 
 7.50049000e-01  1.41465462e-11  7.50049000e-01  7.50000000e-01  3.77339286e-07 
 7.50050000e-01  1.45289247e-11  7.50050000e-01  7.50000000e-01  3.87481116e-07 
 7.50051000e-01  1.49215085e-11  7.50051000e-01  7.50000000e-01  3.97923812e-07 
 7.50052000e-01  1.53247726e-11  7.50052000e-01  7.50000000e-01  4.08748726e-07 
 7.50053000e-01  1.57390057e-11  7.50053000e-01  7.50000000e-01  4.19762077e-07 
 7.50054000e-01  1.61642966e-11  7.50054000e-01  7.50000000e-01  4.31052984e-07 
 7.50055000e-01  1.66011116e-11  7.50055000e-01  7.50000000e-01  4.42765770e-07 
 7.50056000e-01  1.70498282e-11  7.50056000e-01  7.50000000e-01  4.54709481e-07 
 7.50057000e-01  1.75105308e-11  7.50057000e-01  7.50000000e-01  4.66977718e-07 
 7.50058000e-01  1.79837834e-11  7.50058000e-01  7.50000000e-01  4.79651954e-07 
 7.50059000e-01  1.84698346e-11  7.50059000e-01  7.50000000e-01  4.92552674e-07 
 7.50060000e-01  1.89688887e-11  7.50060000e-01  7.50000000e-01  5.05890817e-07 
 7.50061000e-01  1.94816163e-11  7.50061000e-01  7.50000000e-01  5.19584230e-07 
 7.50062000e-01  2.00080574e-11  7.50062000e-01  7.50000000e-01  5.33613319e-07 
 7.50063000e-01  2.05488426e-11  7.50063000e-01  7.50000000e-01  5.48027265e-07 
 7.50064000e-01  2.11041118e-11  7.50064000e-01  7.50000000e-01  5.62825346e-07 
 7.50065000e-01  2.16744933e-11  7.50065000e-01  7.50000000e-01  5.78090826e-07 
 7.50066000e-01  2.22602936e-11  7.50066000e-01  7.50000000e-01  5.93642740e-07 
 7.50067000e-01  2.28617791e-11  7.50067000e-01  7.50000000e-01  6.09724676e-07 
 7.50068000e-01  2.34797426e-11  7.50068000e-01  7.50000000e-01  6.26232490e-07 
 7.50069000e-01  2.41142439e-11  7.50069000e-01  7.50000000e-01  6.43141093e-07 
 7.50070000e-01  2.47660248e-11  7.50070000e-01  7.50000000e-01  6.60493781e-07 
 7.50071000e-01  2.54352317e-11  7.50071000e-01  7.50000000e-01  6.78266125e-07 
 7.50072000e-01  2.61225575e-11  7.50072000e-01  7.50000000e-01  6.96713999e-07 
 7.50073000e-01  2.68286593e-11  7.50073000e-01  7.50000000e-01  7.15614331e-07 
 7.50074000e-01  2.75537859e-11  7.50074000e-01  7.50000000e-01  7.34852168e-07 
 7.50075000e-01  2.82983637e-11  7.50075000e-01  7.50000000e-01  7.54677306e-07 
 7.50076000e-01  2.90631408e-11  7.50076000e-01  7.50000000e-01  7.75055332e-07 
 7.50077000e-01  2.98484748e-11  7.50077000e-01  7.50000000e-01  7.96074539e-07 
 7.50078000e-01  3.06552894e-11  7.50078000e-01  7.50000000e-01  8.17623847e-07 
 7.50079000e-01  3.14837223e-11  7.50079000e-01  7.50000000e-01  8.39623904e-07 
 7.50080000e-01  3.23345373e-11  7.50080000e-01  7.50000000e-01  8.62390006e-07 
 7.50081000e-01  3.32085026e-11  7.50081000e-01  7.50000000e-01  8.85677911e-07 
 7.50082000e-01  3.41058937e-11  7.50082000e-01  7.50000000e-01  9.09585981e-07 
 7.50083000e-01  3.50276741e-11  7.50083000e-01  7.50000000e-01  9.34159522e-07 
 7.50084000e-01  3.59742125e-11  7.50084000e-01  7.50000000e-01  9.59394750e-07 
 7.50085000e-01  3.69464637e-11  7.50085000e-01  7.50000000e-01  9.85322751e-07 
 7.50086000e-01  3.79448584e-11  7.50086000e-01  7.50000000e-01  1.01197905e-06 
 7.50087000e-01  3.89704224e-11  7.50087000e-01  7.50000000e-01  1.03936441e-06 
 7.50088000e-01  4.00235867e-11  7.50088000e-01  7.50000000e-01  1.06742404e-06 
 7.50089000e-01  4.11052703e-11  7.50089000e-01  7.50000000e-01  1.09627635e-06 
 7.50090000e-01  4.22161395e-11  7.50090000e-01  7.50000000e-01  1.12594578e-06 
 7.50091000e-01  4.33571623e-11  7.50091000e-01  7.50000000e-01  1.15634658e-06 
 7.50092000e-01  4.45288317e-11  7.50092000e-01  7.50000000e-01  1.18753924e-06 
 7.50093000e-01  4.57322402e-11  7.50093000e-01  7.50000000e-01  1.21971354e-06 
 7.50094000e-01  4.69682604e-11  7.50094000e-01  7.50000000e-01  1.25264680e-06 
 7.50095000e-01  4.82375340e-11  7.50095000e-01  7.50000000e-01  1.28646717e-06 
 7.50096000e-01  4.95411934e-11  7.50096000e-01  7.50000000e-01  1.32126360e-06 
 7.50097000e-01  5.08800602e-11  7.50097000e-01  7.50000000e-01  1.35690723e-06 
 7.50098000e-01  5.22550092e-11  7.50098000e-01  7.50000000e-01  1.39360090e-06 
 7.50099000e-01  5.36672617e-11  7.50099000e-01  7.50000000e-01  1.43134161e-06 
 7.50100000e-01  5.51176926e-11  7.50100000e-01  7.50000000e-01  1.46995051e-06 
 7.50101000e-01  5.66071634e-11  7.50101000e-01  7.50000000e-01  1.50969959e-06 
 7.50102000e-01  5.81370907e-11  7.50102000e-01  7.50000000e-01  1.55053115e-06 
 7.50103000e-01  5.97082250e-11  7.50103000e-01  7.50000000e-01  1.59239410e-06 
 7.50104000e-01  6.13218787e-11  7.50104000e-01  7.50000000e-01  1.63546052e-06 
 7.50105000e-01  6.29791463e-11  7.50105000e-01  7.50000000e-01  1.67967934e-06 
 7.50106000e-01  6.46812381e-11  7.50106000e-01  7.50000000e-01  1.72501947e-06 
 7.50107000e-01  6.64291866e-11  7.50107000e-01  7.50000000e-01  1.77161545e-06 
 7.50108000e-01  6.82244683e-11  7.50108000e-01  7.50000000e-01  1.81952686e-06 
 7.50109000e-01  7.00682401e-11  7.50109000e-01  7.50000000e-01  1.86873277e-06 
 7.50110000e-01  7.19619342e-11  7.50110000e-01  7.50000000e-01  1.91927538e-06 
 7.50111000e-01  7.39067918e-11  7.50111000e-01  7.50000000e-01  1.97106400e-06 
 7.50112000e-01  7.59040608e-11  7.50112000e-01  7.50000000e-01  2.02431667e-06 
 7.50113000e-01  7.79554243e-11  7.50113000e-01  7.50000000e-01  2.07902440e-06 
 7.50114000e-01  8.00621125e-11  7.50114000e-01  7.50000000e-01  2.13524953e-06 
 7.50115000e-01  8.22259239e-11  7.50115000e-01  7.50000000e-01  2.19297464e-06 
 7.50116000e-01  8.44480597e-11  7.50116000e-01  7.50000000e-01  2.25215256e-06 
 7.50117000e-01  8.67302275e-11  7.50117000e-01  7.50000000e-01  2.31308904e-06 
 7.50118000e-01  8.90742369e-11  7.50118000e-01  7.50000000e-01  2.37564199e-06 
 7.50119000e-01  9.14815113e-11  7.50119000e-01  7.50000000e-01  2.43981474e-06 
 7.50120000e-01  9.39538669e-11  7.50120000e-01  7.50000000e-01  2.50569499e-06 
 7.50121000e-01  9.64929026e-11  7.50121000e-01  7.50000000e-01  2.57341486e-06 
 7.50122000e-01  9.91006988e-11  7.50122000e-01  7.50000000e-01  2.64303292e-06 
 7.50123000e-01  1.01778967e-10  7.50123000e-01  7.50000000e-01  2.71444984e-06 
 7.50124000e-01  1.04529598e-10  7.50124000e-01  7.50000000e-01  2.78777633e-06 
 7.50125000e-01  1.07354521e-10  7.50125000e-01  7.50000000e-01  2.86315993e-06 
 7.50126000e-01  1.10255916e-10  7.50126000e-01  7.50000000e-01  2.94046879e-06 
 7.50127000e-01  1.13235457e-10  7.50127000e-01  7.50000000e-01  3.01997474e-06 
 7.50128000e-01  1.16295869e-10  7.50128000e-01  7.50000000e-01  3.10168118e-06 
 7.50129000e-01  1.19438819e-10  7.50129000e-01  7.50000000e-01  3.18533725e-06 
 7.50130000e-01  1.22666539e-10  7.50130000e-01  7.50000000e-01  3.27149103e-06 
 7.50131000e-01  1.25981803e-10  7.50131000e-01  7.50000000e-01  3.35996751e-06 
 7.50132000e-01  1.29386477e-10  7.50132000e-01  7.50000000e-01  3.45062254e-06 
 7.50133000e-01  1.32883047e-10  7.50133000e-01  7.50000000e-01  3.54392516e-06 
 7.50134000e-01  1.36474327e-10  7.50134000e-01  7.50000000e-01  3.63975019e-06 
 7.50135000e-01  1.40162548e-10  7.50135000e-01  7.50000000e-01  3.73812480e-06 
 7.50136000e-01  1.43950574e-10  7.50136000e-01  7.50000000e-01  3.83920563e-06 
 7.50137000e-01  1.47840957e-10  7.50137000e-01  7.50000000e-01  3.94292363e-06 
 7.50138000e-01  1.51836426e-10  7.50138000e-01  7.50000000e-01  4.04940522e-06 
 7.50139000e-01  1.55939768e-10  7.50139000e-01  7.50000000e-01  4.15888011e-06 
 7.50140000e-01  1.60154181e-10  7.50140000e-01  7.50000000e-01  4.27128423e-06 
 7.50141000e-01  1.64482339e-10  7.50141000e-01  7.50000000e-01  4.38676338e-06 
 7.50142000e-01  1.68927712e-10  7.50142000e-01  7.50000000e-01  4.50527896e-06 
 7.50143000e-01  1.73492896e-10  7.50143000e-01  7.50000000e-01  4.62697538e-06 
 7.50144000e-01  1.78181663e-10  7.50144000e-01  7.50000000e-01  4.75205128e-06 
 7.50145000e-01  1.82997000e-10  7.50145000e-01  7.50000000e-01  4.88050694e-06 
 7.50146000e-01  1.87942673e-10  7.50146000e-01  7.50000000e-01  5.01244515e-06 
 7.50147000e-01  1.93021887e-10  7.50147000e-01  7.50000000e-01  5.14784943e-06 
 7.50148000e-01  1.98238370e-10  7.50148000e-01  7.50000000e-01  5.28697070e-06 
 7.50149000e-01  2.03595829e-10  7.50149000e-01  7.50000000e-01  5.42984004e-06 
 7.50150000e-01  2.09098052e-10  7.50150000e-01  7.50000000e-01  5.57658180e-06 
 7.50151000e-01  2.14748996e-10  7.50151000e-01  7.50000000e-01  5.72731586e-06 
 7.50152000e-01  2.20552689e-10  7.50152000e-01  7.50000000e-01  5.88213098e-06 
 7.50153000e-01  2.26513257e-10  7.50153000e-01  7.50000000e-01  6.04111292e-06 
 7.50154000e-01  2.32634916e-10  7.50154000e-01  7.50000000e-01  6.20432476e-06 
 7.50155000e-01  2.38921909e-10  7.50155000e-01  7.50000000e-01  6.37195328e-06 
 7.50156000e-01  2.45378817e-10  7.50156000e-01  7.50000000e-01  6.54424455e-06 
 7.50157000e-01  2.52010395e-10  7.50157000e-01  7.50000000e-01  6.72113764e-06 
 7.50158000e-01  2.58821091e-10  7.50158000e-01  7.50000000e-01  6.90269139e-06 
 7.50159000e-01  2.65815778e-10  7.50159000e-01  7.50000000e-01  7.08921334e-06 
 7.50160000e-01  2.72999521e-10  7.50160000e-01  7.50000000e-01  7.28087428e-06 
 7.50161000e-01  2.80377521e-10  7.50161000e-01  7.50000000e-01  7.47760253e-06 
 7.50162000e-01  2.87954722e-10  7.50162000e-01  7.50000000e-01  7.67962969e-06 
 7.50163000e-01  2.95736791e-10  7.50163000e-01  7.50000000e-01  7.88726923e-06 
 7.50164000e-01  3.03729262e-10  7.50164000e-01  7.50000000e-01  8.10044458e-06 
 7.50165000e-01  3.11937671e-10  7.50165000e-01  7.50000000e-01  8.31933220e-06 
 7.50166000e-01  3.20367932e-10  7.50166000e-01  7.50000000e-01  8.54412990e-06 
 7.50167000e-01  3.29025940e-10  7.50167000e-01  7.50000000e-01  8.77506690e-06 
 7.50168000e-01  3.37918065e-10  7.50168000e-01  7.50000000e-01  9.01225472e-06 
 7.50169000e-01  3.47050437e-10  7.50169000e-01  7.50000000e-01  9.25582311e-06 
 7.50170000e-01  3.56429701e-10  7.50170000e-01  7.50000000e-01  9.50593470e-06 
 7.50171000e-01  3.66062314e-10  7.50171000e-01  7.50000000e-01  9.76278656e-06 
 7.50172000e-01  3.75955285e-10  7.50172000e-01  7.50000000e-01  1.00266912e-05 
 7.50173000e-01  3.86115695e-10  7.50173000e-01  7.50000000e-01  1.02976663e-05 
 7.50174000e-01  3.96550619e-10  7.50174000e-01  7.50000000e-01  1.05759243e-05 
 7.50175000e-01  4.07267549e-10  7.50175000e-01  7.50000000e-01  1.08617354e-05 
 7.50176000e-01  4.18274082e-10  7.50176000e-01  7.50000000e-01  1.11552301e-05 
 7.50177000e-01  4.29578004e-10  7.50177000e-01  7.50000000e-01  1.14567262e-05 
 7.50178000e-01  4.41187533e-10  7.50178000e-01  7.50000000e-01  1.17664533e-05 
 7.50179000e-01  4.53110913e-10  7.50179000e-01  7.50000000e-01  1.20844394e-05 
 7.50180000e-01  4.65356418e-10  7.50180000e-01  7.50000000e-01  1.24109277e-05 
 7.50181000e-01  4.77932760e-10  7.50181000e-01  7.50000000e-01  1.27463598e-05 
 7.50182000e-01  4.90849133e-10  7.50182000e-01  7.50000000e-01  1.30908867e-05 
 7.50183000e-01  5.04114532e-10  7.50183000e-01  7.50000000e-01  1.34446440e-05 
 7.50184000e-01  5.17738423e-10  7.50184000e-01  7.50000000e-01  1.38079890e-05 
 7.50185000e-01  5.31730517e-10  7.50185000e-01  7.50000000e-01  1.41811754e-05 
 7.50186000e-01  5.46100765e-10  7.50186000e-01  7.50000000e-01  1.45644212e-05 
 7.50187000e-01  5.60859355e-10  7.50187000e-01  7.50000000e-01  1.49580686e-05 
 7.50188000e-01  5.76016901e-10  7.50188000e-01  7.50000000e-01  1.53622386e-05 
 7.50189000e-01  5.91583835e-10  7.50189000e-01  7.50000000e-01  1.57773774e-05 
 7.50190000e-01  6.07571664e-10  7.50190000e-01  7.50000000e-01  1.62038715e-05 
 7.50191000e-01  6.23991592e-10  7.50191000e-01  7.50000000e-01  1.66417297e-05 
 7.50192000e-01  6.40855118e-10  7.50192000e-01  7.50000000e-01  1.70914908e-05 
 7.50193000e-01  6.58174573e-10  7.50193000e-01  7.50000000e-01  1.75534431e-05 
 7.50194000e-01  6.75962009e-10  7.50194000e-01  7.50000000e-01  1.80278209e-05 
 7.50195000e-01  6.94230198e-10  7.50195000e-01  7.50000000e-01  1.85149927e-05 
 7.50196000e-01  7.12992010e-10  7.50196000e-01  7.50000000e-01  1.90153523e-05 
 7.50197000e-01  7.32260896e-10  7.50197000e-01  7.50000000e-01  1.95293184e-05 
 7.50198000e-01  7.52050646e-10  7.50198000e-01  7.50000000e-01  2.00570621e-05 
 7.50199000e-01  7.72375026e-10  7.50199000e-01  7.50000000e-01  2.05990251e-05 
 7.50200000e-01  7.93248678e-10  7.50200000e-01  7.50000000e-01  2.11558033e-05 
 7.50201000e-01  8.14686652e-10  7.50201000e-01  7.50000000e-01  2.17275486e-05 
 7.50202000e-01  8.36703769e-10  7.50202000e-01  7.50000000e-01  2.23147367e-05 
 7.50203000e-01  8.59316125e-10  7.50203000e-01  7.50000000e-01  2.29178486e-05 
 7.50204000e-01  8.82539473e-10  7.50204000e-01  7.50000000e-01  2.35372025e-05 
 7.50205000e-01  9.06390509e-10  7.50205000e-01  7.50000000e-01  2.41732702e-05 
 7.50206000e-01  9.30886035e-10  7.50206000e-01  7.50000000e-01  2.48265864e-05 
 7.50207000e-01  9.56043675e-10  7.50207000e-01  7.50000000e-01  2.54975304e-05 
 7.50208000e-01  9.81881097e-10  7.50208000e-01  7.50000000e-01  2.61864932e-05 
 7.50209000e-01  1.00841667e-09  7.50209000e-01  7.50000000e-01  2.68943127e-05 
 7.50210000e-01  1.03566970e-09  7.50210000e-01  7.50000000e-01  2.76212214e-05 
 7.50211000e-01  1.06365914e-09  7.50211000e-01  7.50000000e-01  2.83675730e-05 
 7.50212000e-01  1.09240484e-09  7.50212000e-01  7.50000000e-01  2.91342588e-05 
 7.50213000e-01  1.12192766e-09  7.50213000e-01  7.50000000e-01  2.99216178e-05 
 7.50214000e-01  1.15224808e-09  7.50214000e-01  7.50000000e-01  3.07302356e-05 
 7.50215000e-01  1.18338810e-09  7.50215000e-01  7.50000000e-01  3.15607358e-05 
 7.50216000e-01  1.21536954e-09  7.50216000e-01  7.50000000e-01  3.24136977e-05 
 7.50217000e-01  1.24821549e-09  7.50217000e-01  7.50000000e-01  3.32897087e-05 
 7.50218000e-01  1.28194896e-09  7.50218000e-01  7.50000000e-01  3.41893473e-05 
 7.50219000e-01  1.31659420e-09  7.50219000e-01  7.50000000e-01  3.51133804e-05 
 7.50220000e-01  1.35217574e-09  7.50220000e-01  7.50000000e-01  3.60623024e-05 
 7.50221000e-01  1.38871878e-09  7.50221000e-01  7.50000000e-01  3.70368508e-05 
 7.50222000e-01  1.42624944e-09  7.50222000e-01  7.50000000e-01  3.80378245e-05 
 7.50223000e-01  1.46479444e-09  7.50223000e-01  7.50000000e-01  3.90658540e-05 
 7.50224000e-01  1.50438116e-09  7.50224000e-01  7.50000000e-01  4.01215922e-05 
 7.50225000e-01  1.54503765e-09  7.50225000e-01  7.50000000e-01  4.12058344e-05 
 7.50226000e-01  1.58679281e-09  7.50226000e-01  7.50000000e-01  4.23194652e-05 
 7.50227000e-01  1.62967657e-09  7.50227000e-01  7.50000000e-01  4.34632050e-05 
 7.50228000e-01  1.67371922e-09  7.50228000e-01  7.50000000e-01  4.46378486e-05 
 7.50229000e-01  1.71895229e-09  7.50229000e-01  7.50000000e-01  4.58441821e-05 
 7.50230000e-01  1.76540762e-09  7.50230000e-01  7.50000000e-01  4.70830840e-05 
 7.50231000e-01  1.81311843e-09  7.50231000e-01  7.50000000e-01  4.83555947e-05 
 7.50232000e-01  1.86211880e-09  7.50232000e-01  7.50000000e-01  4.96623997e-05 
 7.50233000e-01  1.91244324e-09  7.50233000e-01  7.50000000e-01  5.10044818e-05 
 7.50234000e-01  1.96412771e-09  7.50234000e-01  7.50000000e-01  5.23829730e-05 
 7.50235000e-01  2.01720915e-09  7.50235000e-01  7.50000000e-01  5.37986177e-05 
 7.50236000e-01  2.07172500e-09  7.50236000e-01  7.50000000e-01  5.52525221e-05 
 7.50237000e-01  2.12771418e-09  7.50237000e-01  7.50000000e-01  5.67457215e-05 
 7.50238000e-01  2.18521645e-09  7.50238000e-01  7.50000000e-01  5.82793036e-05 
 7.50239000e-01  2.24427282e-09  7.50239000e-01  7.50000000e-01  5.98543809e-05 
 7.50240000e-01  2.30492517e-09  7.50240000e-01  7.50000000e-01  6.14720271e-05 
 7.50241000e-01  2.36721685e-09  7.50241000e-01  7.50000000e-01  6.31333502e-05 
 7.50242000e-01  2.43119187e-09  7.50242000e-01  7.50000000e-01  6.48394414e-05 
 7.50243000e-01  2.49689574e-09  7.50243000e-01  7.50000000e-01  6.65917317e-05 
 7.50244000e-01  2.56437536e-09  7.50244000e-01  7.50000000e-01  6.83914236e-05 
