 time            v(clk)          v(vout)         v(vinp)         v(vinn)        
 0.00000000e+00  0.00000000e+00  0.00000000e+00  7.25000000e-01  7.50000000e-01 
 2.00000000e-11  0.00000000e+00  9.26928782e-08  7.25000000e-01  7.50000000e-01 
 4.00000000e-11  0.00000000e+00  1.21641360e-07  7.25000000e-01  7.50000000e-01 
 8.00000000e-11  0.00000000e+00  1.38340856e-07  7.25000000e-01  7.50000000e-01 
 1.60000000e-10  0.00000000e+00  1.38890692e-07  7.25000000e-01  7.50000000e-01 
 3.20000000e-10  0.00000000e+00  1.36544152e-07  7.25000000e-01  7.50000000e-01 
 6.40000000e-10  0.00000000e+00  1.36091076e-07  7.25000000e-01  7.50000000e-01 
 1.28000000e-09  0.00000000e+00  1.36151141e-07  7.25000000e-01  7.50000000e-01 
 2.00000000e-09  0.00000000e+00  1.36165759e-07  7.25000000e-01  7.50000000e-01 
 2.00100000e-09  1.50000000e-01  9.74451659e-06  7.25000005e-01  7.50000000e-01 
 2.00300000e-09  4.50000000e-01  1.48020034e-05  7.25000015e-01  7.50000000e-01 
 2.00351778e-09  5.27667431e-01  1.27451471e-05  7.25000018e-01  7.50000000e-01 
 2.00455335e-09  6.83002293e-01  6.26695573e-06  7.25000023e-01  7.50000000e-01 
 2.00554498e-09  8.31747066e-01 -2.11769507e-06  7.25000028e-01  7.50000000e-01 
 2.00648654e-09  9.72980560e-01 -1.16477723e-05  7.25000032e-01  7.50000000e-01 
 2.00750533e-09  1.12579946e+00 -2.30518363e-05  7.25000038e-01  7.50000000e-01 
 2.00850066e-09  1.27509846e+00 -3.50485217e-05  7.25000043e-01  7.50000000e-01 
 2.00933942e-09  1.40091236e+00 -4.41670234e-05  7.25000047e-01  7.50000000e-01 
 2.01000000e-09  1.50000000e+00 -4.94043726e-05  7.25000050e-01  7.50000000e-01 
 2.01007736e-09  1.50000000e+00 -5.02854062e-05  7.25000050e-01  7.50000000e-01 
 2.01023209e-09  1.50000000e+00 -5.27372172e-05  7.25000051e-01  7.50000000e-01 
 2.01045879e-09  1.50000000e+00 -5.70580209e-05  7.25000052e-01  7.50000000e-01 
 2.01072619e-09  1.50000000e+00 -6.15495048e-05  7.25000054e-01  7.50000000e-01 
 2.01100946e-09  1.50000000e+00 -6.44425585e-05  7.25000055e-01  7.50000000e-01 
 2.01140872e-09  1.50000000e+00 -6.49155545e-05  7.25000057e-01  7.50000000e-01 
 2.01197582e-09  1.50000000e+00 -6.01782559e-05  7.25000060e-01  7.50000000e-01 
 2.01311001e-09  1.50000000e+00 -4.22721671e-05  7.25000066e-01  7.50000000e-01 
 2.01405856e-09  1.50000000e+00 -2.50762412e-05  7.25000070e-01  7.50000000e-01 
 2.01489771e-09  1.50000000e+00 -1.14036933e-05  7.25000074e-01  7.50000000e-01 
 2.01576946e-09  1.50000000e+00 -3.24628614e-07  7.25000079e-01  7.50000000e-01 
 2.01672300e-09  1.50000000e+00  7.68464540e-06  7.25000084e-01  7.50000000e-01 
 2.01775769e-09  1.50000000e+00  1.18975361e-05  7.25000089e-01  7.50000000e-01 
 2.01899488e-09  1.50000000e+00  1.21199591e-05  7.25000095e-01  7.50000000e-01 
 2.02045955e-09  1.50000000e+00  8.32279252e-06  7.25000102e-01  7.50000000e-01 
 2.02230987e-09  1.50000000e+00  3.54938977e-06  7.25000112e-01  7.50000000e-01 
 2.02398720e-09  1.50000000e+00  6.50127720e-06  7.25000120e-01  7.50000000e-01 
 2.02581072e-09  1.50000000e+00  2.15250501e-05  7.25000129e-01  7.50000000e-01 
 2.02753114e-09  1.50000000e+00  3.71137771e-05  7.25000138e-01  7.50000000e-01 
 2.02935697e-09  1.50000000e+00  4.71859322e-05  7.25000147e-01  7.50000000e-01 
 2.03128264e-09  1.50000000e+00  4.84584992e-05  7.25000156e-01  7.50000000e-01 
 2.03343687e-09  1.50000000e+00  4.08606193e-05  7.25000167e-01  7.50000000e-01 
 2.03573179e-09  1.50000000e+00  2.74209075e-05  7.25000179e-01  7.50000000e-01 
 2.03836351e-09  1.50000000e+00  1.14911350e-05  7.25000192e-01  7.50000000e-01 
 2.04150677e-09  1.50000000e+00 -3.06120350e-06  7.25000208e-01  7.50000000e-01 
 2.04556581e-09  1.50000000e+00 -1.29104351e-05  7.25000228e-01  7.50000000e-01 
 2.05116415e-09  1.50000000e+00 -1.52150700e-05  7.25000256e-01  7.50000000e-01 
 2.05986867e-09  1.50000000e+00 -9.67308431e-06  7.25000299e-01  7.50000000e-01 
 2.07632784e-09  1.50000000e+00 -4.81130852e-07  7.25000382e-01  7.50000000e-01 
 2.10582008e-09  1.50000000e+00  2.89465560e-06  7.25000529e-01  7.50000000e-01 
 2.15459577e-09  1.50000000e+00  1.06408939e-06  7.25000773e-01  7.50000000e-01 
 2.22139183e-09  1.50000000e+00 -4.68397645e-09  7.25001107e-01  7.50000000e-01 
 2.29448259e-09  1.50000000e+00  3.76918045e-08  7.25001472e-01  7.50000000e-01 
 2.37992620e-09  1.50000000e+00  1.32627731e-07  7.25001900e-01  7.50000000e-01 
 2.47091778e-09  1.50000000e+00  1.42617223e-07  7.25002355e-01  7.50000000e-01 
 2.57392216e-09  1.50000000e+00  1.37410653e-07  7.25002870e-01  7.50000000e-01 
 2.68457654e-09  1.50000000e+00  1.35954877e-07  7.25003423e-01  7.50000000e-01 
 2.80836677e-09  1.50000000e+00  1.36055973e-07  7.25004042e-01  7.50000000e-01 
 2.94228119e-09  1.50000000e+00  1.36157957e-07  7.25004711e-01  7.50000000e-01 
 3.09108453e-09  1.50000000e+00  1.36168437e-07  7.25005455e-01  7.50000000e-01 
 3.25288479e-09  1.50000000e+00  1.36165300e-07  7.25006264e-01  7.50000000e-01 
 3.43211146e-09  1.50000000e+00  1.36164759e-07  7.25007161e-01  7.50000000e-01 
 3.62792055e-09  1.50000000e+00  1.36165165e-07  7.25008140e-01  7.50000000e-01 
 3.84470944e-09  1.50000000e+00  1.36165523e-07  7.25009224e-01  7.50000000e-01 
 4.08266346e-09  1.50000000e+00  1.36165792e-07  7.25010413e-01  7.50000000e-01 
 4.34640927e-09  1.50000000e+00  1.36165996e-07  7.25011732e-01  7.50000000e-01 
 4.63719939e-09  1.50000000e+00  1.36166165e-07  7.25013186e-01  7.50000000e-01 
 4.96013604e-09  1.50000000e+00  1.36166286e-07  7.25014801e-01  7.50000000e-01 
 5.31762268e-09  1.50000000e+00  1.36166364e-07  7.25016588e-01  7.50000000e-01 
 5.71547862e-09  1.50000000e+00  1.36166408e-07  7.25018577e-01  7.50000000e-01 
 6.15740079e-09  1.50000000e+00  1.36166415e-07  7.25020787e-01  7.50000000e-01 
 6.65023410e-09  1.50000000e+00  1.36166389e-07  7.25023251e-01  7.50000000e-01 
 7.19929609e-09  1.50000000e+00  1.36166331e-07  7.25025996e-01  7.50000000e-01 
 7.81304268e-09  1.50000000e+00  1.36166249e-07  7.25029065e-01  7.50000000e-01 
 8.49916847e-09  1.50000000e+00  1.36166146e-07  7.25032496e-01  7.50000000e-01 
 9.26884164e-09  1.50000000e+00  1.36166027e-07  7.25036344e-01  7.50000000e-01 
 1.01334649e-08  1.50000000e+00  1.36165903e-07  7.25040667e-01  7.50000000e-01 
 1.11085709e-08  1.50000000e+00  1.36165786e-07  7.25045543e-01  7.50000000e-01 
 1.22111181e-08  1.50000000e+00  1.36165685e-07  7.25051056e-01  7.50000000e-01 
 1.34631480e-08  1.50000000e+00  1.36165564e-07  7.25057316e-01  7.50000000e-01 
 1.48895639e-08  1.50000000e+00  1.36164930e-07  7.25064448e-01  7.50000000e-01 
 1.65217166e-08  1.50000000e+00  1.36156473e-07  7.25072609e-01  7.50000000e-01 
 1.83956954e-08  1.50000000e+00  1.35971164e-07  7.25081978e-01  7.50000000e-01 
 1.92591645e-08  1.50000000e+00  1.34365126e-07  7.25086296e-01  7.50000000e-01 
 2.01163098e-08  1.50000000e+00  1.32045820e-07  7.25090582e-01  7.50000000e-01 
 2.10664203e-08  1.50000000e+00  1.31348992e-07  7.25095332e-01  7.50000000e-01 
 2.18559786e-08  1.50000000e+00  1.27885170e-07  7.25099280e-01  7.50000000e-01 
 2.26832474e-08  1.50000000e+00  1.20535034e-07  7.25103416e-01  7.50000000e-01 
 2.32441523e-08  1.50000000e+00  1.05248374e-07  7.25106221e-01  7.50000000e-01 
 2.36486209e-08  1.50000000e+00  7.94713440e-08  7.25108243e-01  7.50000000e-01 
 2.39818687e-08  1.50000000e+00  5.03733495e-08  7.25109909e-01  7.50000000e-01 
 2.43156266e-08  1.50000000e+00  1.22341730e-07  7.25111578e-01  7.50000000e-01 
 2.47181628e-08  1.50000000e+00  2.89835033e-06  7.25113591e-01  7.50000000e-01 
 2.51252733e-08  1.50000000e+00  2.72617437e-05  7.25115626e-01  7.50000000e-01 
 2.52971782e-08  1.50000000e+00  6.93613386e-05  7.25116486e-01  7.50000000e-01 
 2.53775069e-08  1.50000000e+00  1.09726737e-04  7.25116888e-01  7.50000000e-01 
 2.54801496e-08  1.50000000e+00  1.91987285e-04  7.25117401e-01  7.50000000e-01 
 2.55398356e-08  1.50000000e+00  2.91105923e-04  7.25117699e-01  7.50000000e-01 
 2.55864880e-08  1.50000000e+00  4.27844618e-04  7.25117932e-01  7.50000000e-01 
 2.56286247e-08  1.50000000e+00  6.22520740e-04  7.25118143e-01  7.50000000e-01 
 2.56756264e-08  1.50000000e+00  9.28446664e-04  7.25118378e-01  7.50000000e-01 
 2.57331032e-08  1.50000000e+00  1.36368003e-03  7.25118666e-01  7.50000000e-01 
 2.57780528e-08  1.50000000e+00  1.73538117e-03  7.25118890e-01  7.50000000e-01 
 2.58233168e-08  1.50000000e+00  2.06226371e-03  7.25119117e-01  7.50000000e-01 
 2.58711902e-08  1.50000000e+00  2.11729925e-03  7.25119356e-01  7.50000000e-01 
 2.59105372e-08  1.50000000e+00  2.01631506e-03  7.25119553e-01  7.50000000e-01 
 2.59371734e-08  1.50000000e+00  1.91345191e-03  7.25119686e-01  7.50000000e-01 
 2.59638845e-08  1.50000000e+00  1.74174046e-03  7.25119819e-01  7.50000000e-01 
 2.59859035e-08  1.50000000e+00  1.48579179e-03  7.25119930e-01  7.50000000e-01 
 2.60092644e-08  1.50000000e+00  1.12008622e-03  7.25120046e-01  7.50000000e-01 
 2.60350036e-08  1.50000000e+00  7.21311330e-04  7.25120175e-01  7.50000000e-01 
 2.60667253e-08  1.50000000e+00  3.73036393e-04  7.25120334e-01  7.50000000e-01 
 2.60939587e-08  1.50000000e+00  2.15862743e-04  7.25120470e-01  7.50000000e-01 
 2.61262313e-08  1.50000000e+00  1.29087617e-04  7.25120631e-01  7.50000000e-01 
 2.61582719e-08  1.50000000e+00  9.02315353e-05  7.25120791e-01  7.50000000e-01 
 2.62021460e-08  1.50000000e+00  6.13874606e-05  7.25121011e-01  7.50000000e-01 
 2.62554608e-08  1.50000000e+00  4.18650705e-05  7.25121277e-01  7.50000000e-01 
 2.63331180e-08  1.50000000e+00  2.57329212e-05  7.25121666e-01  7.50000000e-01 
 2.64338615e-08  1.50000000e+00  1.28167768e-05  7.25122169e-01  7.50000000e-01 
 2.65836913e-08  1.50000000e+00  2.03469523e-06  7.25122918e-01  7.50000000e-01 
 2.67653545e-08  1.50000000e+00  6.47698128e-08  7.25123827e-01  7.50000000e-01 
 2.69754173e-08  1.50000000e+00  1.48472192e-06  7.25124877e-01  7.50000000e-01 
 2.72935086e-08  1.50000000e+00  1.94893576e-06  7.25126468e-01  7.50000000e-01 
 2.76380145e-08  1.50000000e+00  1.68484765e-06  7.25128190e-01  7.50000000e-01 
 2.79540105e-08  1.50000000e+00  1.50550159e-06  7.25129770e-01  7.50000000e-01 
 2.82535307e-08  1.50000000e+00  1.47803689e-06  7.25131268e-01  7.50000000e-01 
 2.86843628e-08  1.50000000e+00  1.42147795e-06  7.25133422e-01  7.50000000e-01 
 2.92489275e-08  1.50000000e+00  1.33157968e-06  7.25136245e-01  7.50000000e-01 
 2.99862262e-08  1.50000000e+00  1.23795478e-06  7.25139931e-01  7.50000000e-01 
 3.09207565e-08  1.50000000e+00  1.14000916e-06  7.25144604e-01  7.50000000e-01 
 3.21501508e-08  1.50000000e+00  1.03377744e-06  7.25150751e-01  7.50000000e-01 
 3.37291275e-08  1.50000000e+00  9.24204412e-07  7.25158646e-01  7.50000000e-01 
 3.57132670e-08  1.50000000e+00  8.16594630e-07  7.25168566e-01  7.50000000e-01 
 3.76666845e-08  1.50000000e+00  7.34788566e-07  7.25178333e-01  7.50000000e-01 
 3.87807550e-08  1.50000000e+00  6.95933704e-07  7.25183904e-01  7.50000000e-01 
 3.97192273e-08  1.50000000e+00  6.66353306e-07  7.25188596e-01  7.50000000e-01 
 4.09562289e-08  1.50000000e+00  6.31337497e-07  7.25194781e-01  7.50000000e-01 
 4.17127952e-08  1.50000000e+00  6.11856775e-07  7.25198564e-01  7.50000000e-01 
 4.27220711e-08  1.50000000e+00  5.87830268e-07  7.25203610e-01  7.50000000e-01 
 4.38831789e-08  1.50000000e+00  5.62656518e-07  7.25209416e-01  7.50000000e-01 
 4.56435471e-08  1.50000000e+00  5.28718150e-07  7.25218218e-01  7.50000000e-01 
 4.86269664e-08  1.50000000e+00  4.80442037e-07  7.25233135e-01  7.50000000e-01 
 5.30099264e-08  1.50000000e+00  4.24911277e-07  7.25255050e-01  7.50000000e-01 
 5.87158460e-08  1.50000000e+00  3.71091938e-07  7.25283579e-01  7.50000000e-01 
 6.45100000e-08  1.50000000e+00  3.30499079e-07  7.25312550e-01  7.50000000e-01 
 6.45110000e-08  1.35000000e+00 -6.34624680e-06  7.25312555e-01  7.50000000e-01 
 6.45130000e-08  1.05000000e+00 -1.03931101e-05  7.25312565e-01  7.50000000e-01 
 6.45135851e-08  9.62234925e-01 -9.09404210e-06  7.25312568e-01  7.50000000e-01 
 6.45145828e-08  8.12578510e-01 -5.36474304e-06  7.25312573e-01  7.50000000e-01 
 6.45156450e-08  6.53247008e-01 -7.21616588e-07  7.25312578e-01  7.50000000e-01 
 6.45171397e-08  4.29047398e-01  6.09070976e-06  7.25312586e-01  7.50000000e-01 
 6.45181741e-08  2.73879113e-01  1.18856687e-05  7.25312591e-01  7.50000000e-01 
 6.45194631e-08  8.05306079e-02  2.06762307e-05  7.25312597e-01  7.50000000e-01 
 6.45200000e-08  0.00000000e+00  2.40934420e-05  7.25312600e-01  7.50000000e-01 
 6.45200261e-08  0.00000000e+00  2.42954691e-05  7.25312600e-01  7.50000000e-01 
 6.45200784e-08  0.00000000e+00  2.48220912e-05  7.25312600e-01  7.50000000e-01 
 6.45201830e-08  0.00000000e+00  2.63279117e-05  7.25312601e-01  7.50000000e-01 
 6.45202877e-08  0.00000000e+00  2.82068990e-05  7.25312601e-01  7.50000000e-01 
 6.45204971e-08  0.00000000e+00  3.21296397e-05  7.25312602e-01  7.50000000e-01 
 6.45207316e-08  0.00000000e+00  3.59331515e-05  7.25312604e-01  7.50000000e-01 
 6.45211211e-08  0.00000000e+00  3.99218549e-05  7.25312606e-01  7.50000000e-01 
 6.45216746e-08  0.00000000e+00  4.11528024e-05  7.25312608e-01  7.50000000e-01 
 6.45227817e-08  0.00000000e+00  3.47094905e-05  7.25312614e-01  7.50000000e-01 
 6.45249960e-08  0.00000000e+00  1.25547785e-05  7.25312625e-01  7.50000000e-01 
 6.45294245e-08  0.00000000e+00 -1.96383097e-05  7.25312647e-01  7.50000000e-01 
 6.45327818e-08  0.00000000e+00 -3.69881331e-05  7.25312664e-01  7.50000000e-01 
 6.45358617e-08  0.00000000e+00 -5.40953254e-05  7.25312679e-01  7.50000000e-01 
 6.45393811e-08  0.00000000e+00 -6.92563618e-05  7.25312697e-01  7.50000000e-01 
 6.45429903e-08  0.00000000e+00 -7.37110270e-05  7.25312715e-01  7.50000000e-01 
 6.45479040e-08  0.00000000e+00 -6.65180054e-05  7.25312740e-01  7.50000000e-01 
 6.45511601e-08  0.00000000e+00 -6.12579147e-05  7.25312756e-01  7.50000000e-01 
 6.45539493e-08  0.00000000e+00 -4.73367197e-05  7.25312770e-01  7.50000000e-01 
 6.45564315e-08  0.00000000e+00 -1.13914737e-05  7.25312782e-01  7.50000000e-01 
 6.45585734e-08  0.00000000e+00  4.60856487e-05  7.25312793e-01  7.50000000e-01 
 6.45611532e-08  0.00000000e+00  1.59159812e-04  7.25312806e-01  7.50000000e-01 
 6.45638695e-08  0.00000000e+00  3.48221225e-04  7.25312819e-01  7.50000000e-01 
 6.45658607e-08  0.00000000e+00  5.49047308e-04  7.25312829e-01  7.50000000e-01 
 6.45676760e-08  0.00000000e+00  7.91148888e-04  7.25312838e-01  7.50000000e-01 
 6.45696220e-08  0.00000000e+00  1.09013513e-03  7.25312848e-01  7.50000000e-01 
 6.45719415e-08  0.00000000e+00  1.43460943e-03  7.25312860e-01  7.50000000e-01 
 6.45740312e-08  0.00000000e+00  1.71018162e-03  7.25312870e-01  7.50000000e-01 
 6.45770203e-08  0.00000000e+00  2.00040067e-03  7.25312885e-01  7.50000000e-01 
 6.45796767e-08  0.00000000e+00  1.96117646e-03  7.25312898e-01  7.50000000e-01 
 6.45823449e-08  0.00000000e+00  1.29119125e-03  7.25312912e-01  7.50000000e-01 
 6.45847203e-08  0.00000000e+00 -1.29232524e-04  7.25312924e-01  7.50000000e-01 
 6.45874899e-08  0.00000000e+00 -2.92440826e-03  7.25312937e-01  7.50000000e-01 
 6.45900636e-08  0.00000000e+00 -6.63675741e-03  7.25312950e-01  7.50000000e-01 
 6.45927996e-08  0.00000000e+00 -1.15834467e-02  7.25312964e-01  7.50000000e-01 
 6.45955953e-08  0.00000000e+00 -1.70468585e-02  7.25312978e-01  7.50000000e-01 
 6.45977902e-08  0.00000000e+00 -2.12703794e-02  7.25312989e-01  7.50000000e-01 
 6.46000263e-08  0.00000000e+00 -2.53060527e-02  7.25313000e-01  7.50000000e-01 
 6.46024651e-08  0.00000000e+00 -2.93866039e-02  7.25313012e-01  7.50000000e-01 
 6.46048308e-08  0.00000000e+00 -3.26750437e-02  7.25313024e-01  7.50000000e-01 
 6.46066785e-08  0.00000000e+00 -3.42149997e-02  7.25313033e-01  7.50000000e-01 
 6.46086610e-08  0.00000000e+00 -3.41735795e-02  7.25313043e-01  7.50000000e-01 
 6.46104733e-08  0.00000000e+00 -3.27783936e-02  7.25313052e-01  7.50000000e-01 
 6.46124248e-08  0.00000000e+00 -3.01496603e-02  7.25313062e-01  7.50000000e-01 
 6.46148728e-08  0.00000000e+00 -2.58630974e-02  7.25313074e-01  7.50000000e-01 
 6.46171487e-08  0.00000000e+00 -2.15903214e-02  7.25313086e-01  7.50000000e-01 
 6.46195347e-08  0.00000000e+00 -1.73935202e-02  7.25313098e-01  7.50000000e-01 
 6.46222793e-08  0.00000000e+00 -1.32914747e-02  7.25313111e-01  7.50000000e-01 
 6.46250907e-08  0.00000000e+00 -9.96579789e-03  7.25313125e-01  7.50000000e-01 
 6.46286230e-08  0.00000000e+00 -6.87837097e-03  7.25313143e-01  7.50000000e-01 
 6.46327529e-08  0.00000000e+00 -4.42998073e-03  7.25313164e-01  7.50000000e-01 
 6.46384905e-08  0.00000000e+00 -2.36711987e-03  7.25313192e-01  7.50000000e-01 
 6.46446901e-08  0.00000000e+00 -1.18499627e-03  7.25313223e-01  7.50000000e-01 
 6.46529065e-08  0.00000000e+00 -4.49287819e-04  7.25313265e-01  7.50000000e-01 
 6.46625855e-08  0.00000000e+00 -1.21261314e-04  7.25313313e-01  7.50000000e-01 
 6.46764533e-08  0.00000000e+00  1.24956697e-05  7.25313382e-01  7.50000000e-01 
 6.46950769e-08  0.00000000e+00  3.38269793e-05  7.25313475e-01  7.50000000e-01 
 6.47255508e-08  0.00000000e+00  2.12329215e-05  7.25313628e-01  7.50000000e-01 
 6.47787637e-08  0.00000000e+00  6.52284678e-06  7.25313894e-01  7.50000000e-01 
 6.48851896e-08  0.00000000e+00 -2.94260129e-07  7.25314426e-01  7.50000000e-01 
 6.49337986e-08  0.00000000e+00 -1.48405235e-07  7.25314669e-01  7.50000000e-01 
 6.49809001e-08  0.00000000e+00  3.82188579e-08  7.25314905e-01  7.50000000e-01 
 6.50238737e-08  0.00000000e+00  1.11750499e-07  7.25315119e-01  7.50000000e-01 
 6.50678927e-08  0.00000000e+00  1.35392753e-07  7.25315339e-01  7.50000000e-01 
 6.51121977e-08  0.00000000e+00  1.39459644e-07  7.25315561e-01  7.50000000e-01 
 6.51561263e-08  0.00000000e+00  1.38510369e-07  7.25315781e-01  7.50000000e-01 
 6.51991999e-08  0.00000000e+00  1.37436035e-07  7.25315996e-01  7.50000000e-01 
 6.52455838e-08  0.00000000e+00  1.36972528e-07  7.25316228e-01  7.50000000e-01 
 6.52878166e-08  0.00000000e+00  1.36900086e-07  7.25316439e-01  7.50000000e-01 
 6.53317853e-08  0.00000000e+00  1.36916916e-07  7.25316659e-01  7.50000000e-01 
 6.53727058e-08  0.00000000e+00  1.36934808e-07  7.25316864e-01  7.50000000e-01 
 6.54147845e-08  0.00000000e+00  1.36941687e-07  7.25317074e-01  7.50000000e-01 
 6.54549506e-08  0.00000000e+00  1.36942802e-07  7.25317275e-01  7.50000000e-01 
 6.54959479e-08  0.00000000e+00  1.36942447e-07  7.25317480e-01  7.50000000e-01 
 6.55357182e-08  0.00000000e+00  1.36942168e-07  7.25317679e-01  7.50000000e-01 
 6.55760524e-08  0.00000000e+00  1.36942022e-07  7.25317880e-01  7.50000000e-01 
 6.56155676e-08  0.00000000e+00  1.36942002e-07  7.25318078e-01  7.50000000e-01 
 6.56554510e-08  0.00000000e+00  1.36941976e-07  7.25318277e-01  7.50000000e-01 
 6.56947786e-08  0.00000000e+00  1.36941964e-07  7.25318474e-01  7.50000000e-01 
 6.57354664e-08  0.00000000e+00  1.36941932e-07  7.25318677e-01  7.50000000e-01 
 6.57775555e-08  0.00000000e+00  1.36941921e-07  7.25318888e-01  7.50000000e-01 
 6.58216044e-08  0.00000000e+00  1.36941892e-07  7.25319108e-01  7.50000000e-01 
 6.58675044e-08  0.00000000e+00  1.36941861e-07  7.25319338e-01  7.50000000e-01 
 6.59156025e-08  0.00000000e+00  1.36941830e-07  7.25319578e-01  7.50000000e-01 
 6.59658831e-08  0.00000000e+00  1.36941794e-07  7.25319829e-01  7.50000000e-01 
 6.60187181e-08  0.00000000e+00  1.36941765e-07  7.25320094e-01  7.50000000e-01 
 6.60742196e-08  0.00000000e+00  1.36941719e-07  7.25320371e-01  7.50000000e-01 
 6.61328119e-08  0.00000000e+00  1.36941676e-07  7.25320664e-01  7.50000000e-01 
 6.61947329e-08  0.00000000e+00  1.36941637e-07  7.25320974e-01  7.50000000e-01 
 6.62604898e-08  0.00000000e+00  1.36941575e-07  7.25321302e-01  7.50000000e-01 
 6.63304769e-08  0.00000000e+00  1.36941525e-07  7.25321652e-01  7.50000000e-01 
 6.64053475e-08  0.00000000e+00  1.36941466e-07  7.25322027e-01  7.50000000e-01 
 6.64857238e-08  0.00000000e+00  1.36941394e-07  7.25322429e-01  7.50000000e-01 
