 frequency       v(Cinp)         v(Cinp)         v(Cinn)         v(Cinn)        
 1.00000000e+00  1.80526448e-13  0.00000000e+00  2.58009943e-12  0.00000000e+00 
 1.02305973e+00  1.76454150e-13  0.00000000e+00  2.52196235e-12  0.00000000e+00 
 1.04665121e+00  1.72473186e-13  0.00000000e+00  2.46513572e-12  0.00000000e+00 
 1.07078670e+00  1.68582036e-13  0.00000000e+00  2.40959028e-12  0.00000000e+00 
 1.09547876e+00  1.64778169e-13  0.00000000e+00  2.35529763e-12  0.00000000e+00 
 1.12074020e+00  1.61060626e-13  0.00000000e+00  2.30222902e-12  0.00000000e+00 
 1.14658417e+00  1.57426231e-13  0.00000000e+00  2.25035706e-12  0.00000000e+00 
 1.17302409e+00  1.53873847e-13  0.00000000e+00  2.19965455e-12  0.00000000e+00 
 1.20007371e+00  1.50401164e-13  0.00000000e+00  2.15009556e-12  0.00000000e+00 
 1.22774708e+00  1.47007079e-13  0.00000000e+00  2.10165407e-12  0.00000000e+00 
 1.25605860e+00  1.43689147e-13  0.00000000e+00  2.05430509e-12  0.00000000e+00 
 1.28502297e+00  1.40445886e-13  0.00000000e+00  2.00802353e-12  0.00000000e+00 
 1.31465525e+00  1.37275830e-13  0.00000000e+00  1.96278595e-12  0.00000000e+00 
 1.34497085e+00  1.34177121e-13  0.00000000e+00  1.91856860e-12  0.00000000e+00 
 1.37598551e+00  1.31147957e-13  0.00000000e+00  1.87534823e-12  0.00000000e+00 
 1.40771537e+00  1.28187179e-13  0.00000000e+00  1.83310257e-12  0.00000000e+00 
 1.44017690e+00  1.25292860e-13  0.00000000e+00  1.79180999e-12  0.00000000e+00 
 1.47338699e+00  1.22463890e-13  0.00000000e+00  1.75144843e-12  0.00000000e+00 
 1.50736290e+00  1.19698430e-13  0.00000000e+00  1.71199743e-12  0.00000000e+00 
 1.54212228e+00  1.16995060e-13  0.00000000e+00  1.67343607e-12  0.00000000e+00 
 1.57768320e+00  1.14352745e-13  0.00000000e+00  1.63574463e-12  0.00000000e+00 
 1.61406415e+00  1.11769764e-13  0.00000000e+00  1.59890330e-12  0.00000000e+00 
 1.65128404e+00  1.09244792e-13  0.00000000e+00  1.56289322e-12  0.00000000e+00 
 1.68936220e+00  1.06776698e-13  0.00000000e+00  1.52769531e-12  0.00000000e+00 
 1.72831844e+00  1.04364204e-13  0.00000000e+00  1.49329154e-12  0.00000000e+00 
 1.76817299e+00  1.02005748e-13  0.00000000e+00  1.45966382e-12  0.00000000e+00 
 1.80894658e+00  9.97005901e-14  0.00000000e+00  1.42679495e-12  0.00000000e+00 
 1.85066040e+00  9.74470765e-14  0.00000000e+00  1.39466747e-12  0.00000000e+00 
 1.89333613e+00  9.52443525e-14  0.00000000e+00  1.36326496e-12  0.00000000e+00 
 1.93699595e+00  9.30911343e-14  0.00000000e+00  1.33257102e-12  0.00000000e+00 
 1.98166255e+00  9.09861761e-14  0.00000000e+00  1.30256980e-12  0.00000000e+00 
 2.02735916e+00  8.89285422e-14  0.00000000e+00  1.27324550e-12  0.00000000e+00 
 2.07410951e+00  8.69173078e-14  0.00000000e+00  1.24458296e-12  0.00000000e+00 
 2.12193792e+00  8.49510392e-14  0.00000000e+00  1.21656751e-12  0.00000000e+00 
 2.17086923e+00  8.30291246e-14  0.00000000e+00  1.18918412e-12  0.00000000e+00 
 2.22092889e+00  8.11503177e-14  0.00000000e+00  1.16241902e-12  0.00000000e+00 
 2.27214291e+00  7.93137815e-14  0.00000000e+00  1.13625785e-12  0.00000000e+00 
 2.32453791e+00  7.75184518e-14  0.00000000e+00  1.11068746e-12  0.00000000e+00 
 2.37814113e+00  7.57635281e-14  0.00000000e+00  1.08569447e-12  0.00000000e+00 
 2.43298042e+00  7.40478794e-14  0.00000000e+00  1.06126560e-12  0.00000000e+00 
 2.48908429e+00  7.23707480e-14  0.00000000e+00  1.03738844e-12  0.00000000e+00 
 2.54648190e+00  7.07312766e-14  0.00000000e+00  1.01405027e-12  0.00000000e+00 
 2.60520309e+00  6.91286270e-14  0.00000000e+00  9.91239335e-13  0.00000000e+00 
 2.66527837e+00  6.75619794e-14  0.00000000e+00  9.68943601e-13  0.00000000e+00 
 2.72673897e+00  6.60303296e-14  0.00000000e+00  9.47151403e-13  0.00000000e+00 
 2.78961683e+00  6.45331052e-14  0.00000000e+00  9.25851547e-13  0.00000000e+00 
 2.85394464e+00  6.30695394e-14  0.00000000e+00  9.05032881e-13  0.00000000e+00 
 2.91975583e+00  6.16386927e-14  0.00000000e+00  8.84684702e-13  0.00000000e+00 
 2.98708461e+00  6.02401221e-14  0.00000000e+00  8.64796254e-13  0.00000000e+00 
 3.05596598e+00  5.88727420e-14  0.00000000e+00  8.45357218e-13  0.00000000e+00 
 3.12643573e+00  5.75360459e-14  0.00000000e+00  8.26357766e-13  0.00000000e+00 
 3.19853049e+00  5.62292671e-14  0.00000000e+00  8.07787666e-13  0.00000000e+00 
 3.27228774e+00  5.49518303e-14  0.00000000e+00  7.89637443e-13  0.00000000e+00 
 3.34774581e+00  5.37030016e-14  0.00000000e+00  7.71897574e-13  0.00000000e+00 
 3.42494392e+00  5.24821501e-14  0.00000000e+00  7.54558914e-13  0.00000000e+00 
 3.50392221e+00  5.12886580e-14  0.00000000e+00  7.37612438e-13  0.00000000e+00 
 3.58472171e+00  5.01219213e-14  0.00000000e+00  7.21049397e-13  0.00000000e+00 
 3.66738442e+00  4.89812738e-14  0.00000000e+00  7.04861082e-13  0.00000000e+00 
 3.75195331e+00  4.78661424e-14  0.00000000e+00  6.89039056e-13  0.00000000e+00 
 3.83847234e+00  4.67760384e-14  0.00000000e+00  6.73575216e-13  0.00000000e+00 
 3.92698648e+00  4.57102678e-14  0.00000000e+00  6.58461346e-13  0.00000000e+00 
 4.01754173e+00  4.46683675e-14  0.00000000e+00  6.43689838e-13  0.00000000e+00 
 4.11018515e+00  4.36498124e-14  0.00000000e+00  6.29252761e-13  0.00000000e+00 
 4.20496491e+00  4.26540231e-14  0.00000000e+00  6.15142773e-13  0.00000000e+00 
 4.30193027e+00  4.16805656e-14  0.00000000e+00  6.01352489e-13  0.00000000e+00 
 4.40113162e+00  4.07288224e-14  0.00000000e+00  5.87874688e-13  0.00000000e+00 
 4.50262052e+00  3.97985050e-14  0.00000000e+00  5.74702435e-13  0.00000000e+00 
 4.60644974e+00  3.88888383e-14  0.00000000e+00  5.61828882e-13  0.00000000e+00 
 4.71267322e+00  3.79996711e-14  0.00000000e+00  5.49247273e-13  0.00000000e+00 
 4.82134619e+00  3.71303764e-14  0.00000000e+00  5.36951058e-13  0.00000000e+00 
 4.93252513e+00  3.62804648e-14  0.00000000e+00  5.24933946e-13  0.00000000e+00 
 5.04626783e+00  3.54496255e-14  0.00000000e+00  5.13189610e-13  0.00000000e+00 
 5.16263340e+00  3.46373861e-14  0.00000000e+00  5.01711974e-13  0.00000000e+00 
 5.28168234e+00  3.38432881e-14  0.00000000e+00  4.90495038e-13  0.00000000e+00 
 5.40347650e+00  3.30670907e-14  0.00000000e+00  4.79532935e-13  0.00000000e+00 
 5.52807921e+00  3.23081480e-14  0.00000000e+00  4.68820077e-13  0.00000000e+00 
 5.65555523e+00  3.15662851e-14  0.00000000e+00  4.58350795e-13  0.00000000e+00 
 5.78597080e+00  3.08409825e-14  0.00000000e+00  4.48119689e-13  0.00000000e+00 
 5.91939372e+00  3.01319755e-14  0.00000000e+00  4.38121429e-13  0.00000000e+00 
 6.05589334e+00  2.94389072e-14  0.00000000e+00  4.28350750e-13  0.00000000e+00 
 6.19554061e+00  2.87613389e-14  0.00000000e+00  4.18802687e-13  0.00000000e+00 
 6.33840810e+00  2.80990222e-14  0.00000000e+00  4.09472151e-13  0.00000000e+00 
 6.48457008e+00  2.74515374e-14  0.00000000e+00  4.00354385e-13  0.00000000e+00 
 6.63410251e+00  2.68186461e-14  0.00000000e+00  3.91444600e-13  0.00000000e+00 
 6.78708313e+00  2.61999466e-14  0.00000000e+00  3.82738114e-13  0.00000000e+00 
 6.94359143e+00  2.55952104e-14  0.00000000e+00  3.74230463e-13  0.00000000e+00 
 7.10370877e+00  2.50040919e-14  0.00000000e+00  3.65917158e-13  0.00000000e+00 
 7.26751838e+00  2.44262555e-14  0.00000000e+00  3.57793921e-13  0.00000000e+00 
 7.43510539e+00  2.38615241e-14  0.00000000e+00  3.49856523e-13  0.00000000e+00 
 7.60655691e+00  2.33095351e-14  0.00000000e+00  3.42100751e-13  0.00000000e+00 
 7.78196206e+00  2.27700097e-14  0.00000000e+00  3.34522628e-13  0.00000000e+00 
 7.96141200e+00  2.22426752e-14  0.00000000e+00  3.27118217e-13  0.00000000e+00 
 8.14500001e+00  2.17272988e-14  0.00000000e+00  3.19883629e-13  0.00000000e+00 
 8.33282151e+00  2.12236170e-14  0.00000000e+00  3.12815059e-13  0.00000000e+00 
 8.52497412e+00  2.07314046e-14  0.00000000e+00  3.05908876e-13  0.00000000e+00 
 8.72155772e+00  2.02503758e-14  0.00000000e+00  2.99161425e-13  0.00000000e+00 
 8.92267449e+00  1.97802839e-14  0.00000000e+00  2.92569221e-13  0.00000000e+00 
 9.12842895e+00  1.93209183e-14  0.00000000e+00  2.86128819e-13  0.00000000e+00 
 9.33892805e+00  1.88720705e-14  0.00000000e+00  2.79836840e-13  0.00000000e+00 
 9.55428121e+00  1.84334771e-14  0.00000000e+00  2.73689974e-13  0.00000000e+00 
 9.77460036e+00  1.80049389e-14  0.00000000e+00  2.67685009e-13  0.00000000e+00 
 1.00000000e+01  1.75862038e-14  0.00000000e+00  2.61818875e-13  0.00000000e+00 
 1.02305973e+01  1.71771353e-14  0.00000000e+00  2.56088398e-13  0.00000000e+00 
 1.04665121e+01  1.67774889e-14  0.00000000e+00  2.50490630e-13  0.00000000e+00 
 1.07078670e+01  1.63870532e-14  0.00000000e+00  2.45022625e-13  0.00000000e+00 
 1.09547876e+01  1.60056214e-14  0.00000000e+00  2.39681520e-13  0.00000000e+00 
 1.12074020e+01  1.56330407e-14  0.00000000e+00  2.34464481e-13  0.00000000e+00 
 1.14658417e+01  1.52690861e-14  0.00000000e+00  2.29368801e-13  0.00000000e+00 
 1.17302409e+01  1.49136101e-14  0.00000000e+00  2.24391753e-13  0.00000000e+00 
 1.20007371e+01  1.45663963e-14  0.00000000e+00  2.19530754e-13  0.00000000e+00 
 1.22774708e+01  1.42272795e-14  0.00000000e+00  2.14783222e-13  0.00000000e+00 
 1.25605860e+01  1.38960751e-14  0.00000000e+00  2.10146667e-13  0.00000000e+00 
 1.28502297e+01  1.35726241e-14  0.00000000e+00  2.05618580e-13  0.00000000e+00 
 1.31465525e+01  1.32567488e-14  0.00000000e+00  2.01196646e-13  0.00000000e+00 
 1.34497085e+01  1.29482958e-14  0.00000000e+00  1.96878443e-13  0.00000000e+00 
 1.37598551e+01  1.26470941e-14  0.00000000e+00  1.92661697e-13  0.00000000e+00 
 1.40771537e+01  1.23529962e-14  0.00000000e+00  1.88544192e-13  0.00000000e+00 
 1.44017690e+01  1.20658184e-14  0.00000000e+00  1.84523691e-13  0.00000000e+00 
 1.47338699e+01  1.17854387e-14  0.00000000e+00  1.80598055e-13  0.00000000e+00 
 1.50736290e+01  1.15116622e-14  0.00000000e+00  1.76765179e-13  0.00000000e+00 
 1.54212228e+01  1.12444084e-14  0.00000000e+00  1.73023031e-13  0.00000000e+00 
 1.57768320e+01  1.09834714e-14  0.00000000e+00  1.69369521e-13  0.00000000e+00 
 1.61406415e+01  1.07287392e-14  0.00000000e+00  1.65802754e-13  0.00000000e+00 
 1.65128404e+01  1.04800668e-14  0.00000000e+00  1.62320744e-13  0.00000000e+00 
 1.68936220e+01  1.02373124e-14  0.00000000e+00  1.58921603e-13  0.00000000e+00 
 1.72831844e+01  1.00003377e-14  0.00000000e+00  1.55603493e-13  0.00000000e+00 
 1.76817299e+01  9.76902337e-15  0.00000000e+00  1.52364568e-13  0.00000000e+00 
 1.80894658e+01  9.54323636e-15  0.00000000e+00  1.49203063e-13  0.00000000e+00 
 1.85066040e+01  9.32283208e-15  0.00000000e+00  1.46117219e-13  0.00000000e+00 
 1.89333613e+01  9.10769945e-15  0.00000000e+00  1.43105340e-13  0.00000000e+00 
 1.93699595e+01  8.89772901e-15  0.00000000e+00  1.40165707e-13  0.00000000e+00 
 1.98166255e+01  8.69277133e-15  0.00000000e+00  1.37296702e-13  0.00000000e+00 
 2.02735916e+01  8.49273669e-15  0.00000000e+00  1.34496688e-13  0.00000000e+00 
 2.07410951e+01  8.29749591e-15  0.00000000e+00  1.31764093e-13  0.00000000e+00 
 2.12193792e+01  8.10693676e-15  0.00000000e+00  1.29097355e-13  0.00000000e+00 
 2.17086923e+01  7.92094970e-15  0.00000000e+00  1.26494899e-13  0.00000000e+00 
 2.22092889e+01  7.73942782e-15  0.00000000e+00  1.23955274e-13  0.00000000e+00 
 2.27214291e+01  7.56226677e-15  0.00000000e+00  1.21476950e-13  0.00000000e+00 
 2.32453791e+01  7.38935292e-15  0.00000000e+00  1.19058508e-13  0.00000000e+00 
 2.37814113e+01  7.22058770e-15  0.00000000e+00  1.16698502e-13  0.00000000e+00 
 2.43298042e+01  7.05590873e-15  0.00000000e+00  1.14395509e-13  0.00000000e+00 
 2.48908429e+01  6.89516471e-15  0.00000000e+00  1.12148173e-13  0.00000000e+00 
 2.54648190e+01  6.73828709e-15  0.00000000e+00  1.09955105e-13  0.00000000e+00 
 2.60520309e+01  6.58517597e-15  0.00000000e+00  1.07814962e-13  0.00000000e+00 
 2.66527837e+01  6.43576535e-15  0.00000000e+00  1.05726431e-13  0.00000000e+00 
 2.72673897e+01  6.28992925e-15  0.00000000e+00  1.03688213e-13  0.00000000e+00 
 2.78961683e+01  6.14761607e-15  0.00000000e+00  1.01699003e-13  0.00000000e+00 
 2.85394464e+01  6.00871601e-15  0.00000000e+00  9.97575475e-14  0.00000000e+00 
 2.91975583e+01  5.87317063e-15  0.00000000e+00  9.78625993e-14  0.00000000e+00 
 2.98708461e+01  5.74088509e-15  0.00000000e+00  9.60129340e-14  0.00000000e+00 
 3.05596598e+01  5.61178594e-15  0.00000000e+00  9.42073165e-14  0.00000000e+00 
 3.12643573e+01  5.48580150e-15  0.00000000e+00  9.24445739e-14  0.00000000e+00 
 3.19853049e+01  5.36284479e-15  0.00000000e+00  9.07235063e-14  0.00000000e+00 
 3.27228774e+01  5.24285706e-15  0.00000000e+00  8.90429510e-14  0.00000000e+00 
 3.34774581e+01  5.12576414e-15  0.00000000e+00  8.74017809e-14  0.00000000e+00 
 3.42494392e+01  5.01150215e-15  0.00000000e+00  8.57988485e-14  0.00000000e+00 
 3.50392221e+01  4.90000872e-15  0.00000000e+00  8.42330447e-14  0.00000000e+00 
 3.58472171e+01  4.79120035e-15  0.00000000e+00  8.27032528e-14  0.00000000e+00 
 3.66738442e+01  4.68503401e-15  0.00000000e+00  8.12084184e-14  0.00000000e+00 
 3.75195331e+01  4.58143065e-15  0.00000000e+00  7.97474522e-14  0.00000000e+00 
 3.83847234e+01  4.48034980e-15  0.00000000e+00  7.83193145e-14  0.00000000e+00 
 3.92698648e+01  4.38172349e-15  0.00000000e+00  7.69229646e-14  0.00000000e+00 
 4.01754173e+01  4.28549976e-15  0.00000000e+00  7.55573982e-14  0.00000000e+00 
 4.11018515e+01  4.19162137e-15  0.00000000e+00  7.42215937e-14  0.00000000e+00 
 4.20496491e+01  4.10003291e-15  0.00000000e+00  7.29145949e-14  0.00000000e+00 
 4.30193027e+01  4.01068695e-15  0.00000000e+00  7.16354193e-14  0.00000000e+00 
 4.40113162e+01  3.92353723e-15  0.00000000e+00  7.03831376e-14  0.00000000e+00 
 4.50262052e+01  3.83852669e-15  0.00000000e+00  6.91568061e-14  0.00000000e+00 
 4.60644974e+01  3.75560631e-15  0.00000000e+00  6.79555412e-14  0.00000000e+00 
 4.71267322e+01  3.67474557e-15  0.00000000e+00  6.67784484e-14  0.00000000e+00 
 4.82134619e+01  3.59588629e-15  0.00000000e+00  6.56246598e-14  0.00000000e+00 
 4.93252513e+01  3.51898902e-15  0.00000000e+00  6.44933402e-14  0.00000000e+00 
 5.04626783e+01  3.44401000e-15  0.00000000e+00  6.33836765e-14  0.00000000e+00 
 5.16263340e+01  3.37091709e-15  0.00000000e+00  6.22948732e-14  0.00000000e+00 
 5.28168234e+01  3.29965859e-15  0.00000000e+00  6.12261485e-14  0.00000000e+00 
 5.40347650e+01  3.23019971e-15  0.00000000e+00  6.01767561e-14  0.00000000e+00 
 5.52807921e+01  3.16251121e-15  0.00000000e+00  5.91459891e-14  0.00000000e+00 
 5.65555523e+01  3.09654565e-15  0.00000000e+00  5.81331363e-14  0.00000000e+00 
 5.78597080e+01  3.03227578e-15  0.00000000e+00  5.71375317e-14  0.00000000e+00 
 5.91939372e+01  2.96967022e-15  0.00000000e+00  5.61585385e-14  0.00000000e+00 
 6.05589334e+01  2.90868547e-15  0.00000000e+00  5.51955317e-14  0.00000000e+00 
 6.19554061e+01  2.84929666e-15  0.00000000e+00  5.42479288e-14  0.00000000e+00 
 6.33840810e+01  2.79147508e-15  0.00000000e+00  5.33151668e-14  0.00000000e+00 
 6.48457008e+01  2.73518473e-15  0.00000000e+00  5.23967065e-14  0.00000000e+00 
 6.63410251e+01  2.68040258e-15  0.00000000e+00  5.14920522e-14  0.00000000e+00 
 6.78708313e+01  2.62709075e-15  0.00000000e+00  5.06007212e-14  0.00000000e+00 
 6.94359143e+01  2.57523134e-15  0.00000000e+00  4.97222673e-14  0.00000000e+00 
 7.10370877e+01  2.52479905e-15  0.00000000e+00  4.88562635e-14  0.00000000e+00 
 7.26751838e+01  2.47575871e-15  0.00000000e+00  4.80023234e-14  0.00000000e+00 
 7.43510539e+01  2.42808682e-15  0.00000000e+00  4.71600768e-14  0.00000000e+00 
 7.60655691e+01  2.38176680e-15  0.00000000e+00  4.63291828e-14  0.00000000e+00 
 7.78196206e+01  2.33676907e-15  0.00000000e+00  4.55093310e-14  0.00000000e+00 
 7.96141200e+01  2.29306819e-15  0.00000000e+00  4.47002331e-14  0.00000000e+00 
 8.14500001e+01  2.25064842e-15  0.00000000e+00  4.39016267e-14  0.00000000e+00 
 8.33282151e+01  2.20948199e-15  0.00000000e+00  4.31132740e-14  0.00000000e+00 
 8.52497412e+01  2.16954774e-15  0.00000000e+00  4.23349592e-14  0.00000000e+00 
 8.72155772e+01  2.13082751e-15  0.00000000e+00  4.15664895e-14  0.00000000e+00 
 8.92267449e+01  2.09329773e-15  0.00000000e+00  4.08076959e-14  0.00000000e+00 
 9.12842895e+01  2.05694051e-15  0.00000000e+00  4.00584248e-14  0.00000000e+00 
 9.33892805e+01  2.02173030e-15  0.00000000e+00  3.93185451e-14  0.00000000e+00 
 9.55428121e+01  1.98765692e-15  0.00000000e+00  3.85879486e-14  0.00000000e+00 
 9.77460036e+01  1.95469022e-15  0.00000000e+00  3.78665304e-14  0.00000000e+00 
 1.00000000e+02  1.92281736e-15  0.00000000e+00  3.71542212e-14  0.00000000e+00 
 1.02305973e+02  1.89201585e-15  0.00000000e+00  3.64509431e-14  0.00000000e+00 
 1.04665121e+02  1.86226781e-15  0.00000000e+00  3.57566520e-14  0.00000000e+00 
 1.07078670e+02  1.83355723e-15  0.00000000e+00  3.50713002e-14  0.00000000e+00 
 1.09547876e+02  1.80585951e-15  0.00000000e+00  3.43948590e-14  0.00000000e+00 
 1.12074020e+02  1.77915838e-15  0.00000000e+00  3.37273111e-14  0.00000000e+00 
 1.14658417e+02  1.75343517e-15  0.00000000e+00  3.30686373e-14  0.00000000e+00 
 1.17302409e+02  1.72866909e-15  0.00000000e+00  3.24188345e-14  0.00000000e+00 
 1.20007371e+02  1.70483934e-15  0.00000000e+00  3.17779020e-14  0.00000000e+00 
 1.22774708e+02  1.68193189e-15  0.00000000e+00  3.11458435e-14  0.00000000e+00 
 1.25605860e+02  1.65992351e-15  0.00000000e+00  3.05226698e-14  0.00000000e+00 
 1.28502297e+02  1.63879275e-15  0.00000000e+00  2.99083871e-14  0.00000000e+00 
 1.31465525e+02  1.61852119e-15  0.00000000e+00  2.93030097e-14  0.00000000e+00 
 1.34497085e+02  1.59909143e-15  0.00000000e+00  2.87065521e-14  0.00000000e+00 
 1.37598551e+02  1.58047970e-15  0.00000000e+00  2.81190248e-14  0.00000000e+00 
 1.40771537e+02  1.56266659e-15  0.00000000e+00  2.75404361e-14  0.00000000e+00 
 1.44017690e+02  1.54563095e-15  0.00000000e+00  2.69707994e-14  0.00000000e+00 
 1.47338699e+02  1.52935277e-15  0.00000000e+00  2.64101247e-14  0.00000000e+00 
 1.50736290e+02  1.51381170e-15  0.00000000e+00  2.58584116e-14  0.00000000e+00 
 1.54212228e+02  1.49898476e-15  0.00000000e+00  2.53156619e-14  0.00000000e+00 
 1.57768320e+02  1.48485137e-15  0.00000000e+00  2.47818726e-14  0.00000000e+00 
 1.61406415e+02  1.47138965e-15  0.00000000e+00  2.42570356e-14  0.00000000e+00 
 1.65128404e+02  1.45857983e-15  0.00000000e+00  2.37411397e-14  0.00000000e+00 
 1.68936220e+02  1.44639782e-15  0.00000000e+00  2.32341641e-14  0.00000000e+00 
 1.72831844e+02  1.43482480e-15  0.00000000e+00  2.27360887e-14  0.00000000e+00 
 1.76817299e+02  1.42383697e-15  0.00000000e+00  2.22468844e-14  0.00000000e+00 
 1.80894658e+02  1.41341545e-15  0.00000000e+00  2.17665138e-14  0.00000000e+00 
 1.85066040e+02  1.40353858e-15  0.00000000e+00  2.12949407e-14  0.00000000e+00 
 1.89333613e+02  1.39418332e-15  0.00000000e+00  2.08321166e-14  0.00000000e+00 
 1.93699595e+02  1.38533034e-15  0.00000000e+00  2.03779950e-14  0.00000000e+00 
 1.98166255e+02  1.37696037e-15  0.00000000e+00  1.99325140e-14  0.00000000e+00 
 2.02735916e+02  1.36905136e-15  0.00000000e+00  1.94956126e-14  0.00000000e+00 
 2.07410951e+02  1.36158398e-15  0.00000000e+00  1.90672232e-14  0.00000000e+00 
 2.12193792e+02  1.35453855e-15  0.00000000e+00  1.86472739e-14  0.00000000e+00 
 2.17086923e+02  1.34789522e-15  0.00000000e+00  1.82356857e-14  0.00000000e+00 
 2.22092889e+02  1.34163652e-15  0.00000000e+00  1.78323767e-14  0.00000000e+00 
 2.27214291e+02  1.33574412e-15  0.00000000e+00  1.74372600e-14  0.00000000e+00 
 2.32453791e+02  1.33020020e-15  0.00000000e+00  1.70502430e-14  0.00000000e+00 
 2.37814113e+02  1.32498644e-15  0.00000000e+00  1.66712291e-14  0.00000000e+00 
 2.43298042e+02  1.32008673e-15  0.00000000e+00  1.63001226e-14  0.00000000e+00 
 2.48908429e+02  1.31548498e-15  0.00000000e+00  1.59368191e-14  0.00000000e+00 
 2.54648190e+02  1.31116517e-15  0.00000000e+00  1.55812124e-14  0.00000000e+00 
 2.60520309e+02  1.30711236e-15  0.00000000e+00  1.52331950e-14  0.00000000e+00 
