 frequency       v(Cinp)         v(Cinp)         v(Cinn)         v(Cinn)        
 1.00000000e+00  2.00184156e-13  0.00000000e+00  2.52560270e-12  0.00000000e+00 
 1.02305973e+00  1.95671835e-13  0.00000000e+00  2.46869613e-12  0.00000000e+00 
 1.04665121e+00  1.91261494e-13  0.00000000e+00  2.41307282e-12  0.00000000e+00 
 1.07078670e+00  1.86950306e-13  0.00000000e+00  2.35870380e-12  0.00000000e+00 
 1.09547876e+00  1.82736552e-13  0.00000000e+00  2.30556052e-12  0.00000000e+00 
 1.12074020e+00  1.78617532e-13  0.00000000e+00  2.25361585e-12  0.00000000e+00 
 1.14658417e+00  1.74591604e-13  0.00000000e+00  2.20284224e-12  0.00000000e+00 
 1.17302409e+00  1.70656186e-13  0.00000000e+00  2.15321401e-12  0.00000000e+00 
 1.20007371e+00  1.66809711e-13  0.00000000e+00  2.10470460e-12  0.00000000e+00 
 1.22774708e+00  1.63049713e-13  0.00000000e+00  2.05728923e-12  0.00000000e+00 
 1.25605860e+00  1.59374472e-13  0.00000000e+00  2.01094299e-12  0.00000000e+00 
 1.28502297e+00  1.55782294e-13  0.00000000e+00  1.96564221e-12  0.00000000e+00 
 1.31465525e+00  1.52270666e-13  0.00000000e+00  1.92136307e-12  0.00000000e+00 
 1.34497085e+00  1.48838613e-13  0.00000000e+00  1.87808272e-12  0.00000000e+00 
 1.37598551e+00  1.45483720e-13  0.00000000e+00  1.83577821e-12  0.00000000e+00 
 1.40771537e+00  1.42204454e-13  0.00000000e+00  1.79442794e-12  0.00000000e+00 
 1.44017690e+00  1.38999110e-13  0.00000000e+00  1.75401055e-12  0.00000000e+00 
 1.47338699e+00  1.35866209e-13  0.00000000e+00  1.71450479e-12  0.00000000e+00 
 1.50736290e+00  1.32803743e-13  0.00000000e+00  1.67588991e-12  0.00000000e+00 
 1.54212228e+00  1.29810312e-13  0.00000000e+00  1.63814651e-12  0.00000000e+00 
 1.57768320e+00  1.26884361e-13  0.00000000e+00  1.60125422e-12  0.00000000e+00 
 1.61406415e+00  1.24024368e-13  0.00000000e+00  1.56519433e-12  0.00000000e+00 
 1.65128404e+00  1.21228678e-13  0.00000000e+00  1.52994789e-12  0.00000000e+00 
 1.68936220e+00  1.18496178e-13  0.00000000e+00  1.49549686e-12  0.00000000e+00 
 1.72831844e+00  1.15825276e-13  0.00000000e+00  1.46182310e-12  0.00000000e+00 
 1.76817299e+00  1.13214583e-13  0.00000000e+00  1.42890891e-12  0.00000000e+00 
 1.80894658e+00  1.10662589e-13  0.00000000e+00  1.39673760e-12  0.00000000e+00 
 1.85066040e+00  1.08168128e-13  0.00000000e+00  1.36529224e-12  0.00000000e+00 
 1.89333613e+00  1.05730049e-13  0.00000000e+00  1.33455642e-12  0.00000000e+00 
 1.93699595e+00  1.03346788e-13  0.00000000e+00  1.30451440e-12  0.00000000e+00 
 1.98166255e+00  1.01017536e-13  0.00000000e+00  1.27515036e-12  0.00000000e+00 
 2.02735916e+00  9.87405158e-14  0.00000000e+00  1.24644899e-12  0.00000000e+00 
 2.07410951e+00  9.65148304e-14  0.00000000e+00  1.21839570e-12  0.00000000e+00 
 2.12193792e+00  9.43393222e-14  0.00000000e+00  1.19097546e-12  0.00000000e+00 
 2.17086923e+00  9.22128602e-14  0.00000000e+00  1.16417434e-12  0.00000000e+00 
 2.22092889e+00  9.01342145e-14  0.00000000e+00  1.13797834e-12  0.00000000e+00 
 2.27214291e+00  8.81025561e-14  0.00000000e+00  1.11237377e-12  0.00000000e+00 
 2.32453791e+00  8.61168202e-14  0.00000000e+00  1.08734726e-12  0.00000000e+00 
 2.37814113e+00  8.41756181e-14  0.00000000e+00  1.06288610e-12  0.00000000e+00 
 2.43298042e+00  8.22781834e-14  0.00000000e+00  1.03897736e-12  0.00000000e+00 
 2.48908429e+00  8.04236406e-14  0.00000000e+00  1.01560854e-12  0.00000000e+00 
 2.54648190e+00  7.86108009e-14  0.00000000e+00  9.92767554e-13  0.00000000e+00 
 2.60520309e+00  7.68388353e-14  0.00000000e+00  9.70442652e-13  0.00000000e+00 
 2.66527837e+00  7.51069259e-14  0.00000000e+00  9.48622253e-13  0.00000000e+00 
 2.72673897e+00  7.34138615e-14  0.00000000e+00  9.27294726e-13  0.00000000e+00 
 2.78961683e+00  7.17590725e-14  0.00000000e+00  9.06449311e-13  0.00000000e+00 
 2.85394464e+00  7.01414982e-14  0.00000000e+00  8.86074887e-13  0.00000000e+00 
 2.91975583e+00  6.85604933e-14  0.00000000e+00  8.66161070e-13  0.00000000e+00 
 2.98708461e+00  6.70150443e-14  0.00000000e+00  8.46697418e-13  0.00000000e+00 
 3.05596598e+00  6.55044443e-14  0.00000000e+00  8.27673907e-13  0.00000000e+00 
 3.12643573e+00  6.40279961e-14  0.00000000e+00  8.09080552e-13  0.00000000e+00 
 3.19853049e+00  6.25846668e-14  0.00000000e+00  7.90907682e-13  0.00000000e+00 
 3.27228774e+00  6.11739711e-14  0.00000000e+00  7.73145844e-13  0.00000000e+00 
 3.34774581e+00  5.97950043e-14  0.00000000e+00  7.55785872e-13  0.00000000e+00 
 3.42494392e+00  5.84471358e-14  0.00000000e+00  7.38818724e-13  0.00000000e+00 
 3.50392221e+00  5.71297434e-14  0.00000000e+00  7.22235554e-13  0.00000000e+00 
 3.58472171e+00  5.58419053e-14  0.00000000e+00  7.06027794e-13  0.00000000e+00 
 3.66738442e+00  5.45831884e-14  0.00000000e+00  6.90186983e-13  0.00000000e+00 
 3.75195331e+00  5.33527119e-14  0.00000000e+00  6.74704852e-13  0.00000000e+00 
 3.83847234e+00  5.21501337e-14  0.00000000e+00  6.59573314e-13  0.00000000e+00 
 3.92698648e+00  5.09745372e-14  0.00000000e+00  6.44784676e-13  0.00000000e+00 
 4.01754173e+00  4.98254580e-14  0.00000000e+00  6.30331126e-13  0.00000000e+00 
 4.11018515e+00  4.87023656e-14  0.00000000e+00  6.16205099e-13  0.00000000e+00 
 4.20496491e+00  4.76045397e-14  0.00000000e+00  6.02399397e-13  0.00000000e+00 
 4.30193027e+00  4.65314139e-14  0.00000000e+00  5.88906713e-13  0.00000000e+00 
 4.40113162e+00  4.54824969e-14  0.00000000e+00  5.75720097e-13  0.00000000e+00 
 4.50262052e+00  4.44572432e-14  0.00000000e+00  5.62832745e-13  0.00000000e+00 
 4.60644974e+00  4.34550593e-14  0.00000000e+00  5.50237760e-13  0.00000000e+00 
 4.71267322e+00  4.24754866e-14  0.00000000e+00  5.37928817e-13  0.00000000e+00 
 4.82134619e+00  4.15180152e-14  0.00000000e+00  5.25899371e-13  0.00000000e+00 
 4.93252513e+00  4.05820911e-14  0.00000000e+00  5.14143253e-13  0.00000000e+00 
 5.04626783e+00  3.96672311e-14  0.00000000e+00  5.02654256e-13  0.00000000e+00 
 5.16263340e+00  3.87730163e-14  0.00000000e+00  4.91426475e-13  0.00000000e+00 
 5.28168234e+00  3.78990337e-14  0.00000000e+00  4.80454076e-13  0.00000000e+00 
 5.40347650e+00  3.70446713e-14  0.00000000e+00  4.69731298e-13  0.00000000e+00 
 5.52807921e+00  3.62095417e-14  0.00000000e+00  4.59252609e-13  0.00000000e+00 
 5.65555523e+00  3.53933111e-14  0.00000000e+00  4.49012493e-13  0.00000000e+00 
 5.78597080e+00  3.45954558e-14  0.00000000e+00  4.39005700e-13  0.00000000e+00 
 5.91939372e+00  3.38155639e-14  0.00000000e+00  4.29226996e-13  0.00000000e+00 
 6.05589334e+00  3.30532324e-14  0.00000000e+00  4.19671302e-13  0.00000000e+00 
 6.19554061e+00  3.23081123e-14  0.00000000e+00  4.10333560e-13  0.00000000e+00 
 6.33840810e+00  3.15797719e-14  0.00000000e+00  4.01209041e-13  0.00000000e+00 
 6.48457008e+00  3.08678349e-14  0.00000000e+00  3.92292895e-13  0.00000000e+00 
 6.63410251e+00  3.01719752e-14  0.00000000e+00  3.83580548e-13  0.00000000e+00 
 6.78708313e+00  2.94917897e-14  0.00000000e+00  3.75067393e-13  0.00000000e+00 
 6.94359143e+00  2.88269268e-14  0.00000000e+00  3.66749085e-13  0.00000000e+00 
 7.10370877e+00  2.81770818e-14  0.00000000e+00  3.58621168e-13  0.00000000e+00 
 7.26751838e+00  2.75418403e-14  0.00000000e+00  3.50679517e-13  0.00000000e+00 
 7.43510539e+00  2.69209506e-14  0.00000000e+00  3.42919896e-13  0.00000000e+00 
 7.60655691e+00  2.63140168e-14  0.00000000e+00  3.35338383e-13  0.00000000e+00 
 7.78196206e+00  2.57207985e-14  0.00000000e+00  3.27930879e-13  0.00000000e+00 
 7.96141200e+00  2.51409518e-14  0.00000000e+00  3.20693621e-13  0.00000000e+00 
 8.14500001e+00  2.45741430e-14  0.00000000e+00  3.13622814e-13  0.00000000e+00 
 8.33282151e+00  2.40201143e-14  0.00000000e+00  3.06714708e-13  0.00000000e+00 
 8.52497412e+00  2.34786116e-14  0.00000000e+00  2.99965795e-13  0.00000000e+00 
 8.72155772e+00  2.29492892e-14  0.00000000e+00  2.93372472e-13  0.00000000e+00 
 8.92267449e+00  2.24319064e-14  0.00000000e+00  2.86931305e-13  0.00000000e+00 
 9.12842895e+00  2.19261954e-14  0.00000000e+00  2.80638958e-13  0.00000000e+00 
 9.33892805e+00  2.14318649e-14  0.00000000e+00  2.74492069e-13  0.00000000e+00 
 9.55428121e+00  2.09486900e-14  0.00000000e+00  2.68487493e-13  0.00000000e+00 
 9.77460036e+00  2.04764205e-14  0.00000000e+00  2.62622025e-13  0.00000000e+00 
 1.00000000e+01  2.00147844e-14  0.00000000e+00  2.56892639e-13  0.00000000e+00 
 1.02305973e+01  1.95635443e-14  0.00000000e+00  2.51296309e-13  0.00000000e+00 
 1.04665121e+01  1.91224685e-14  0.00000000e+00  2.45830067e-13  0.00000000e+00 
 1.07078670e+01  1.86913818e-14  0.00000000e+00  2.40491081e-13  0.00000000e+00 
 1.09547876e+01  1.82699834e-14  0.00000000e+00  2.35276518e-13  0.00000000e+00 
 1.12074020e+01  1.78581076e-14  0.00000000e+00  2.30183601e-13  0.00000000e+00 
 1.14658417e+01  1.74554929e-14  0.00000000e+00  2.25209700e-13  0.00000000e+00 
 1.17302409e+01  1.70619572e-14  0.00000000e+00  2.20352184e-13  0.00000000e+00 
 1.20007371e+01  1.66772982e-14  0.00000000e+00  2.15608423e-13  0.00000000e+00 
 1.22774708e+01  1.63013177e-14  0.00000000e+00  2.10975974e-13  0.00000000e+00 
 1.25605860e+01  1.59338223e-14  0.00000000e+00  2.06452322e-13  0.00000000e+00 
 1.28502297e+01  1.55746013e-14  0.00000000e+00  2.02035106e-13  0.00000000e+00 
 1.31465525e+01  1.52234711e-14  0.00000000e+00  1.97721922e-13  0.00000000e+00 
 1.34497085e+01  1.48802933e-14  0.00000000e+00  1.93510512e-13  0.00000000e+00 
 1.37598551e+01  1.45448294e-14  0.00000000e+00  1.89398613e-13  0.00000000e+00 
 1.40771537e+01  1.42169485e-14  0.00000000e+00  1.85384001e-13  0.00000000e+00 
 1.44017690e+01  1.38964432e-14  0.00000000e+00  1.81464549e-13  0.00000000e+00 
 1.47338699e+01  1.35831882e-14  0.00000000e+00  1.77638123e-13  0.00000000e+00 
 1.50736290e+01  1.32769853e-14  0.00000000e+00  1.73902664e-13  0.00000000e+00 
 1.54212228e+01  1.29776967e-14  0.00000000e+00  1.70256145e-13  0.00000000e+00 
 1.57768320e+01  1.26851518e-14  0.00000000e+00  1.66696552e-13  0.00000000e+00 
 1.61406415e+01  1.23992189e-14  0.00000000e+00  1.63221993e-13  0.00000000e+00 
 1.65128404e+01  1.21197346e-14  0.00000000e+00  1.59830533e-13  0.00000000e+00 
 1.68936220e+01  1.18465568e-14  0.00000000e+00  1.56520303e-13  0.00000000e+00 
 1.72831844e+01  1.15795464e-14  0.00000000e+00  1.53289460e-13  0.00000000e+00 
 1.76817299e+01  1.13185519e-14  0.00000000e+00  1.50136240e-13  0.00000000e+00 
 1.80894658e+01  1.10634565e-14  0.00000000e+00  1.47058869e-13  0.00000000e+00 
 1.85066040e+01  1.08141154e-14  0.00000000e+00  1.44055619e-13  0.00000000e+00 
 1.89333613e+01  1.05704024e-14  0.00000000e+00  1.41124770e-13  0.00000000e+00 
 1.93699595e+01  1.03321942e-14  0.00000000e+00  1.38264702e-13  0.00000000e+00 
 1.98166255e+01  1.00993561e-14  0.00000000e+00  1.35473772e-13  0.00000000e+00 
 2.02735916e+01  9.87178482e-15  0.00000000e+00  1.32750349e-13  0.00000000e+00 
 2.07410951e+01  9.64935161e-15  0.00000000e+00  1.30092868e-13  0.00000000e+00 
 2.12193792e+01  9.43193160e-15  0.00000000e+00  1.27499786e-13  0.00000000e+00 
 2.17086923e+01  9.21944151e-15  0.00000000e+00  1.24969568e-13  0.00000000e+00 
 2.22092889e+01  9.01173627e-15  0.00000000e+00  1.22500716e-13  0.00000000e+00 
 2.27214291e+01  8.80873702e-15  0.00000000e+00  1.20091777e-13  0.00000000e+00 
 2.32453791e+01  8.61032950e-15  0.00000000e+00  1.17741275e-13  0.00000000e+00 
 2.37814113e+01  8.41639126e-15  0.00000000e+00  1.15447788e-13  0.00000000e+00 
 2.43298042e+01  8.22684924e-15  0.00000000e+00  1.13209920e-13  0.00000000e+00 
 2.48908429e+01  8.04159732e-15  0.00000000e+00  1.11026282e-13  0.00000000e+00 
 2.54648190e+01  7.86053248e-15  0.00000000e+00  1.08895499e-13  0.00000000e+00 
 2.60520309e+01  7.68356523e-15  0.00000000e+00  1.06816231e-13  0.00000000e+00 
 2.66527837e+01  7.51059775e-15  0.00000000e+00  1.04787149e-13  0.00000000e+00 
 2.72673897e+01  7.34156519e-15  0.00000000e+00  1.02806948e-13  0.00000000e+00 
 2.78961683e+01  7.17634382e-15  0.00000000e+00  1.00874338e-13  0.00000000e+00 
 2.85394464e+01  7.01487289e-15  0.00000000e+00  9.89880532e-14  0.00000000e+00 
 2.91975583e+01  6.85707290e-15  0.00000000e+00  9.71468440e-14  0.00000000e+00 
 2.98708461e+01  6.70283858e-15  0.00000000e+00  9.53494495e-14  0.00000000e+00 
 3.05596598e+01  6.55211362e-15  0.00000000e+00  9.35946733e-14  0.00000000e+00 
 3.12643573e+01  6.40480671e-15  0.00000000e+00  9.18812929e-14  0.00000000e+00 
 3.19853049e+01  6.26084683e-15  0.00000000e+00  9.02081410e-14  0.00000000e+00 
 3.27228774e+01  6.12016448e-15  0.00000000e+00  8.85740288e-14  0.00000000e+00 
 3.34774581e+01  5.98268352e-15  0.00000000e+00  8.69777995e-14  0.00000000e+00 
 3.42494392e+01  5.84833004e-15  0.00000000e+00  8.54183280e-14  0.00000000e+00 
 3.50392221e+01  5.71704007e-15  0.00000000e+00  8.38944822e-14  0.00000000e+00 
 3.58472171e+01  5.58875100e-15  0.00000000e+00  8.24051649e-14  0.00000000e+00 
 3.66738442e+01  5.46338676e-15  0.00000000e+00  8.09492761e-14  0.00000000e+00 
 3.75195331e+01  5.34089570e-15  0.00000000e+00  7.95257529e-14  0.00000000e+00 
 3.83847234e+01  5.22120555e-15  0.00000000e+00  7.81335342e-14  0.00000000e+00 
 3.92698648e+01  5.10425352e-15  0.00000000e+00  7.67715839e-14  0.00000000e+00 
 4.01754173e+01  4.98999218e-15  0.00000000e+00  7.54388921e-14  0.00000000e+00 
 4.11018515e+01  4.87835484e-15  0.00000000e+00  7.41344497e-14  0.00000000e+00 
 4.20496491e+01  4.76929009e-15  0.00000000e+00  7.28572839e-14  0.00000000e+00 
 4.30193027e+01  4.66274766e-15  0.00000000e+00  7.16064328e-14  0.00000000e+00 
 4.40113162e+01  4.55865988e-15  0.00000000e+00  7.03809600e-14  0.00000000e+00 
 4.50262052e+01  4.45698594e-15  0.00000000e+00  6.91799438e-14  0.00000000e+00 
 4.60644974e+01  4.35767959e-15  0.00000000e+00  6.80024907e-14  0.00000000e+00 
 4.71267322e+01  4.26067843e-15  0.00000000e+00  6.68477359e-14  0.00000000e+00 
 4.82134619e+01  4.16594502e-15  0.00000000e+00  6.57148272e-14  0.00000000e+00 
 4.93252513e+01  4.07342595e-15  0.00000000e+00  6.46029274e-14  0.00000000e+00 
 5.04626783e+01  3.98308577e-15  0.00000000e+00  6.35112525e-14  0.00000000e+00 
 5.16263340e+01  3.89486863e-15  0.00000000e+00  6.24390286e-14  0.00000000e+00 
 5.28168234e+01  3.80874132e-15  0.00000000e+00  6.13854990e-14  0.00000000e+00 
 5.40347650e+01  3.72465616e-15  0.00000000e+00  6.03499548e-14  0.00000000e+00 
 5.52807921e+01  3.64257690e-15  0.00000000e+00  5.93316947e-14  0.00000000e+00 
 5.65555523e+01  3.56246339e-15  0.00000000e+00  5.83300503e-14  0.00000000e+00 
 5.78597080e+01  3.48427673e-15  0.00000000e+00  5.73443950e-14  0.00000000e+00 
 5.91939372e+01  3.40798368e-15  0.00000000e+00  5.63741191e-14  0.00000000e+00 
 6.05589334e+01  3.33354303e-15  0.00000000e+00  5.54186352e-14  0.00000000e+00 
 6.19554061e+01  3.26092365e-15  0.00000000e+00  5.44774047e-14  0.00000000e+00 
 6.33840810e+01  3.19009513e-15  0.00000000e+00  5.35498997e-14  0.00000000e+00 
 6.48457008e+01  3.12101959e-15  0.00000000e+00  5.26356377e-14  0.00000000e+00 
 6.63410251e+01  3.05367250e-15  0.00000000e+00  5.17341543e-14  0.00000000e+00 
 6.78708313e+01  2.98801416e-15  0.00000000e+00  5.08450108e-14  0.00000000e+00 
 6.94359143e+01  2.92402541e-15  0.00000000e+00  4.99678159e-14  0.00000000e+00 
 7.10370877e+01  2.86166862e-15  0.00000000e+00  4.91021884e-14  0.00000000e+00 
 7.26751838e+01  2.80092212e-15  0.00000000e+00  4.82477901e-14  0.00000000e+00 
 7.43510539e+01  2.74175746e-15  0.00000000e+00  4.74042973e-14  0.00000000e+00 
 7.60655691e+01  2.68415386e-15  0.00000000e+00  4.65714223e-14  0.00000000e+00 
 7.78196206e+01  2.62807746e-15  0.00000000e+00  4.57489052e-14  0.00000000e+00 
 7.96141200e+01  2.57351202e-15  0.00000000e+00  4.49365024e-14  0.00000000e+00 
 8.14500001e+01  2.52042852e-15  0.00000000e+00  4.41339996e-14  0.00000000e+00 
 8.33282151e+01  2.46881123e-15  0.00000000e+00  4.33412106e-14  0.00000000e+00 
 8.52497412e+01  2.41863229e-15  0.00000000e+00  4.25579681e-14  0.00000000e+00 
 8.72155772e+01  2.36987353e-15  0.00000000e+00  4.17841247e-14  0.00000000e+00 
 8.92267449e+01  2.32251117e-15  0.00000000e+00  4.10195575e-14  0.00000000e+00 
 9.12842895e+01  2.27652752e-15  0.00000000e+00  4.02641593e-14  0.00000000e+00 
 9.33892805e+01  2.23190220e-15  0.00000000e+00  3.95178385e-14  0.00000000e+00 
 9.55428121e+01  2.18862023e-15  0.00000000e+00  3.87805309e-14  0.00000000e+00 
 9.77460036e+01  2.14665628e-15  0.00000000e+00  3.80521754e-14  0.00000000e+00 
 1.00000000e+02  2.10599303e-15  0.00000000e+00  3.73327342e-14  0.00000000e+00 
 1.02305973e+02  2.06661544e-15  0.00000000e+00  3.66221746e-14  0.00000000e+00 
 1.04665121e+02  2.02850110e-15  0.00000000e+00  3.59204754e-14  0.00000000e+00 
 1.07078670e+02  1.99163690e-15  0.00000000e+00  3.52276352e-14  0.00000000e+00 
 1.09547876e+02  1.95600032e-15  0.00000000e+00  3.45436560e-14  0.00000000e+00 
 1.12074020e+02  1.92157751e-15  0.00000000e+00  3.38685358e-14  0.00000000e+00 
 1.14658417e+02  1.88834573e-15  0.00000000e+00  3.32022980e-14  0.00000000e+00 
 1.17302409e+02  1.85629028e-15  0.00000000e+00  3.25449591e-14  0.00000000e+00 
 1.20007371e+02  1.82539186e-15  0.00000000e+00  3.18965441e-14  0.00000000e+00 
 1.22774708e+02  1.79563086e-15  0.00000000e+00  3.12570783e-14  0.00000000e+00 
 1.25605860e+02  1.76698726e-15  0.00000000e+00  3.06265878e-14  0.00000000e+00 
 1.28502297e+02  1.73944589e-15  0.00000000e+00  3.00051021e-14  0.00000000e+00 
 1.31465525e+02  1.71298380e-15  0.00000000e+00  2.93926510e-14  0.00000000e+00 
 1.34497085e+02  1.68758275e-15  0.00000000e+00  2.87892625e-14  0.00000000e+00 
 1.37598551e+02  1.66321899e-15  0.00000000e+00  2.81949589e-14  0.00000000e+00 
 1.40771537e+02  1.63987610e-15  0.00000000e+00  2.76097673e-14  0.00000000e+00 
 1.44017690e+02  1.61752775e-15  0.00000000e+00  2.70337031e-14  0.00000000e+00 
 1.47338699e+02  1.59615465e-15  0.00000000e+00  2.64667830e-14  0.00000000e+00 
 1.50736290e+02  1.57573387e-15  0.00000000e+00  2.59090204e-14  0.00000000e+00 
 1.54212228e+02  1.55624196e-15  0.00000000e+00  2.53604231e-14  0.00000000e+00 
 1.57768320e+02  1.53765622e-15  0.00000000e+00  2.48209869e-14  0.00000000e+00 
 1.61406415e+02  1.51995217e-15  0.00000000e+00  2.42907114e-14  0.00000000e+00 
 1.65128404e+02  1.50310372e-15  0.00000000e+00  2.37695869e-14  0.00000000e+00 
 1.68936220e+02  1.48708688e-15  0.00000000e+00  2.32575955e-14  0.00000000e+00 
 1.72831844e+02  1.47187828e-15  0.00000000e+00  2.27547174e-14  0.00000000e+00 
 1.76817299e+02  1.45744879e-15  0.00000000e+00  2.22609187e-14  0.00000000e+00 
 1.80894658e+02  1.44377658e-15  0.00000000e+00  2.17761696e-14  0.00000000e+00 
 1.85066040e+02  1.43083332e-15  0.00000000e+00  2.13004255e-14  0.00000000e+00 
 1.89333613e+02  1.41859466e-15  0.00000000e+00  2.08336402e-14  0.00000000e+00 
 1.93699595e+02  1.40703243e-15  0.00000000e+00  2.03757561e-14  0.00000000e+00 
 1.98166255e+02  1.39612055e-15  0.00000000e+00  1.99267201e-14  0.00000000e+00 
 2.02735916e+02  1.38583470e-15  0.00000000e+00  1.94864589e-14  0.00000000e+00 
 2.07410951e+02  1.37614818e-15  0.00000000e+00  1.90549045e-14  0.00000000e+00 
 2.12193792e+02  1.36703546e-15  0.00000000e+00  1.86319761e-14  0.00000000e+00 
 2.17086923e+02  1.35847064e-15  0.00000000e+00  1.82175959e-14  0.00000000e+00 
 2.22092889e+02  1.35042899e-15  0.00000000e+00  1.78116741e-14  0.00000000e+00 
 2.27214291e+02  1.34288692e-15  0.00000000e+00  1.74141165e-14  0.00000000e+00 
 2.32453791e+02  1.33581930e-15  0.00000000e+00  1.70248267e-14  0.00000000e+00 
 2.37814113e+02  1.32920299e-15  0.00000000e+00  1.66437069e-14  0.00000000e+00 
 2.43298042e+02  1.32301482e-15  0.00000000e+00  1.62706488e-14  0.00000000e+00 
 2.48908429e+02  1.31723288e-15  0.00000000e+00  1.59055457e-14  0.00000000e+00 
 2.54648190e+02  1.31183432e-15  0.00000000e+00  1.55482862e-14  0.00000000e+00 
 2.60520309e+02  1.30679922e-15  0.00000000e+00  1.51987565e-14  0.00000000e+00 
