 time            v(clk)          v(voutp)        v(voutn)        v(vinp)         v(vinn)        
 0.00000000e+00  0.00000000e+00  1.42407438e-07  1.42407452e-07  7.25000000e-01  7.50000000e-01 
 2.00000000e-11  0.00000000e+00  1.42407438e-07  1.42407451e-07  7.25000000e-01  7.50000000e-01 
 4.00000000e-11  0.00000000e+00  1.42407438e-07  1.42407451e-07  7.25000000e-01  7.50000000e-01 
 8.00000000e-11  0.00000000e+00  1.42407438e-07  1.42407451e-07  7.25000000e-01  7.50000000e-01 
 1.60000000e-10  0.00000000e+00  1.42407438e-07  1.42407452e-07  7.25000000e-01  7.50000000e-01 
 3.20000000e-10  0.00000000e+00  1.42407438e-07  1.42407452e-07  7.25000000e-01  7.50000000e-01 
 6.40000000e-10  0.00000000e+00  1.42407438e-07  1.42407452e-07  7.25000000e-01  7.50000000e-01 
 1.28000000e-09  0.00000000e+00  1.42407438e-07  1.42407452e-07  7.25000000e-01  7.50000000e-01 
 2.00000000e-09  0.00000000e+00  1.42407438e-07  1.42407452e-07  7.25000000e-01  7.50000000e-01 
 2.00100000e-09  1.50000000e-01 -7.15102459e-03 -7.15102436e-03  7.25000005e-01  7.50000000e-01 
 2.00300000e-09  4.50000000e-01 -2.26178915e-02 -2.26178912e-02  7.25000015e-01  7.50000000e-01 
 2.00700000e-09  1.05000000e+00 -5.48344704e-02 -5.48344711e-02  7.25000035e-01  7.50000000e-01 
 2.01000000e-09  1.50000000e+00 -7.28689624e-02 -7.28689653e-02  7.25000050e-01  7.50000000e-01 
 2.01041868e-09  1.50000000e+00 -7.32858077e-02 -7.32858113e-02  7.25000052e-01  7.50000000e-01 
 2.01125605e-09  1.50000000e+00 -7.33147356e-02 -7.33147500e-02  7.25000056e-01  7.50000000e-01 
 2.01293078e-09  1.50000000e+00 -7.30515018e-02 -7.30517130e-02  7.25000065e-01  7.50000000e-01 
 2.01628023e-09  1.50000000e+00 -7.28400047e-02 -7.28418576e-02  7.25000081e-01  7.50000000e-01 
 2.02177021e-09  1.50000000e+00 -7.28128895e-02 -7.28192867e-02  7.25000109e-01  7.50000000e-01 
 2.02726673e-09  1.50000000e+00 -7.28662263e-02 -7.28779696e-02  7.25000136e-01  7.50000000e-01 
 2.03776923e-09  1.50000000e+00 -7.29473172e-02 -7.29693675e-02  7.25000189e-01  7.50000000e-01 
 2.05638366e-09  1.50000000e+00 -7.30524523e-02 -7.30924071e-02  7.25000282e-01  7.50000000e-01 
 2.09361250e-09  1.50000000e+00 -7.32455680e-02 -7.33205884e-02  7.25000468e-01  7.50000000e-01 
 2.16807018e-09  1.50000000e+00 -7.36143302e-02 -7.37571398e-02  7.25000840e-01  7.50000000e-01 
 2.31698554e-09  1.50000000e+00 -7.42827936e-02 -7.45524591e-02  7.25001585e-01  7.50000000e-01 
 2.61481626e-09  1.50000000e+00 -7.53970087e-02 -7.58892173e-02  7.25003074e-01  7.50000000e-01 
 3.19927364e-09  1.50000000e+00 -7.69888952e-02 -7.78065269e-02  7.25005996e-01  7.50000000e-01 
 3.87144556e-09  1.50000000e+00 -7.81428009e-02 -7.91222090e-02  7.25009357e-01  7.50000000e-01 
 4.89925474e-09  1.50000000e+00 -7.89329581e-02 -7.94452570e-02  7.25014496e-01  7.50000000e-01 
 6.15211576e-09  1.50000000e+00 -7.85713990e-02 -7.65261869e-02  7.25020761e-01  7.50000000e-01 
 8.03308756e-09  1.50000000e+00 -7.54559913e-02 -6.28449457e-02  7.25030165e-01  7.50000000e-01 
 1.04985294e-08  1.50000000e+00 -6.67979623e-02 -2.39300028e-02  7.25042493e-01  7.50000000e-01 
 1.42355850e-08  1.50000000e+00 -4.46177998e-02  8.20688741e-02  7.25061178e-01  7.50000000e-01 
 1.94438445e-08  1.50000000e+00  3.58676864e-04  3.00792774e-01  7.25087219e-01  7.50000000e-01 
 2.75990372e-08  1.50000000e+00  8.79952464e-04  7.02024880e-01  7.25127995e-01  7.50000000e-01 
 3.57888894e-08  1.50000000e+00  2.00134184e-04  1.10437311e+00  7.25168944e-01  7.50000000e-01 
 4.72378230e-08  1.50000000e+00  3.54995942e-05  1.47736260e+00  7.25226189e-01  7.50000000e-01 
 5.88469230e-08  1.50000000e+00 -7.70778870e-06  1.50750911e+00  7.25284235e-01  7.50000000e-01 
 6.45100000e-08  1.50000000e+00 -3.76284434e-07  1.50133049e+00  7.25312550e-01  7.50000000e-01 
 6.45110000e-08  1.35000000e+00  4.61366880e-03  1.50583628e+00  7.25312555e-01  7.50000000e-01 
 6.45130000e-08  1.05000000e+00  1.40124431e-02  1.51571273e+00  7.25312565e-01  7.50000000e-01 
 6.45170000e-08  4.50000000e-01  2.97779198e-02  1.50317033e+00  7.25312585e-01  7.50000000e-01 
 6.45200000e-08  0.00000000e+00  3.24988098e-02  1.43469306e+00  7.25312600e-01  7.50000000e-01 
 6.45205854e-08  0.00000000e+00  2.83855328e-02  1.41187897e+00  7.25312603e-01  7.50000000e-01 
 6.45217562e-08  0.00000000e+00  1.93194324e-02  1.36432419e+00  7.25312609e-01  7.50000000e-01 
 6.45240978e-08  0.00000000e+00  5.29631305e-03  1.26921150e+00  7.25312620e-01  7.50000000e-01 
 6.45284328e-08  0.00000000e+00 -9.15385129e-03  1.09762592e+00  7.25312642e-01  7.50000000e-01 
 6.45371027e-08  0.00000000e+00 -2.05501224e-02  7.83218002e-01  7.25312686e-01  7.50000000e-01 
 6.45522670e-08  0.00000000e+00 -2.24349841e-02  3.49449392e-01  7.25312761e-01  7.50000000e-01 
 6.45712142e-08  0.00000000e+00 -1.16378332e-02  7.13644194e-02  7.25312856e-01  7.50000000e-01 
 6.45912015e-08  0.00000000e+00 -2.62305601e-03 -1.12753957e-02  7.25312956e-01  7.50000000e-01 
 6.46121388e-08  0.00000000e+00  1.05325670e-03 -1.61228094e-02  7.25313061e-01  7.50000000e-01 
 6.46348007e-08  0.00000000e+00  1.37168562e-03 -6.60707004e-03  7.25313174e-01  7.50000000e-01 
 6.46679502e-08  0.00000000e+00  6.41934922e-04 -1.13737643e-04  7.25313340e-01  7.50000000e-01 
 6.47299785e-08  0.00000000e+00  9.57869980e-05  1.20084798e-03  7.25313650e-01  7.50000000e-01 
 6.48540352e-08  0.00000000e+00  4.81921833e-05  4.16780827e-04  7.25314270e-01  7.50000000e-01 
 6.50356601e-08  0.00000000e+00  7.42228913e-05  1.03965937e-04  7.25315178e-01  7.50000000e-01 
 6.52307682e-08  0.00000000e+00  5.41430950e-05  6.93565351e-05  7.25316154e-01  7.50000000e-01 
 6.53974108e-08  0.00000000e+00  3.68676590e-05  5.35539074e-05  7.25316987e-01  7.50000000e-01 
 6.55472493e-08  0.00000000e+00  2.63352267e-05  3.93589916e-05  7.25317736e-01  7.50000000e-01 
 6.56910318e-08  0.00000000e+00  1.91817852e-05  2.87169870e-05  7.25318455e-01  7.50000000e-01 
 6.58567590e-08  0.00000000e+00  1.32805791e-05  1.98998628e-05  7.25319284e-01  7.50000000e-01 
 6.60389953e-08  0.00000000e+00  8.82182458e-06  1.32333726e-05  7.25320195e-01  7.50000000e-01 
 6.62704650e-08  0.00000000e+00  5.18031605e-06  7.76543350e-06  7.25321352e-01  7.50000000e-01 
 6.65457353e-08  0.00000000e+00  2.68083073e-06  3.99644851e-06  7.25322729e-01  7.50000000e-01 
 6.69108327e-08  0.00000000e+00  1.03152378e-06  1.50056082e-06  7.25324554e-01  7.50000000e-01 
 6.73850471e-08  0.00000000e+00  2.12809443e-07  2.56717645e-07  7.25326925e-01  7.50000000e-01 
 6.80872449e-08  0.00000000e+00 -5.35840648e-08 -1.51401110e-07  7.25330436e-01  7.50000000e-01 
 6.92140845e-08  0.00000000e+00 -6.08537884e-10 -7.39678582e-08  7.25336070e-01  7.50000000e-01 
 7.14677638e-08  0.00000000e+00  1.16846871e-07  1.03244661e-07  7.25347339e-01  7.50000000e-01 
 7.59751224e-08  0.00000000e+00  1.52424605e-07  1.57437662e-07  7.25369876e-01  7.50000000e-01 
 8.44634300e-08  0.00000000e+00  1.45413243e-07  1.46959375e-07  7.25412317e-01  7.50000000e-01 
 1.01440045e-07  0.00000000e+00  1.42283592e-07  1.42219409e-07  7.25497200e-01  7.50000000e-01 
 1.27000000e-07  3.97046694e-12  1.42351971e-07  1.42322378e-07  7.25625000e-01  7.50000000e-01 
 1.27001000e-07  1.50000000e-01 -7.15102362e-03 -7.15102341e-03  7.25625005e-01  7.50000000e-01 
 1.27003000e-07  4.50000000e-01 -2.26178896e-02 -2.26178893e-02  7.25625015e-01  7.50000000e-01 
 1.27007000e-07  1.05000000e+00 -5.48344508e-02 -5.48344513e-02  7.25625035e-01  7.50000000e-01 
 1.27010000e-07  1.50000000e+00 -7.28689027e-02 -7.28689128e-02  7.25625050e-01  7.50000000e-01 
 1.27010423e-07  1.50000000e+00 -7.32860444e-02 -7.32860590e-02  7.25625052e-01  7.50000000e-01 
 1.27011270e-07  1.50000000e+00 -7.33124625e-02 -7.33125011e-02  7.25625056e-01  7.50000000e-01 
 1.27012962e-07  1.50000000e+00 -7.30493199e-02 -7.30496783e-02  7.25625065e-01  7.50000000e-01 
 1.27016348e-07  1.50000000e+00 -7.28412469e-02 -7.28434469e-02  7.25625082e-01  7.50000000e-01 
 1.27021505e-07  1.50000000e+00 -7.28168371e-02 -7.28233347e-02  7.25625108e-01  7.50000000e-01 
 1.27027555e-07  1.50000000e+00 -7.28713542e-02 -7.28836035e-02  7.25625138e-01  7.50000000e-01 
 1.27038558e-07  1.50000000e+00 -7.29540912e-02 -7.29768740e-02  7.25625193e-01  7.50000000e-01 
 1.27060566e-07  1.50000000e+00 -7.30781172e-02 -7.31215506e-02  7.25625303e-01  7.50000000e-01 
 1.27104582e-07  1.50000000e+00 -7.33066275e-02 -7.33904174e-02  7.25625523e-01  7.50000000e-01 
 1.27192614e-07  1.50000000e+00 -7.37387118e-02 -7.39000507e-02  7.25625963e-01  7.50000000e-01 
 1.27368677e-07  1.50000000e+00 -7.45089825e-02 -7.48137318e-02  7.25626843e-01  7.50000000e-01 
 1.27720804e-07  1.50000000e+00 -7.57580369e-02 -7.63081351e-02  7.25628604e-01  7.50000000e-01 
 1.28315584e-07  1.50000000e+00 -7.72600979e-02 -7.81044027e-02  7.25631578e-01  7.50000000e-01 
 1.29050409e-07  1.50000000e+00 -7.83890146e-02 -7.93357647e-02  7.25635252e-01  7.50000000e-01 
 1.30111764e-07  1.50000000e+00 -7.89924430e-02 -7.92325743e-02  7.25640559e-01  7.50000000e-01 
 1.31469262e-07  1.50000000e+00 -7.82441406e-02 -7.50621963e-02  7.25647346e-01  7.50000000e-01 
 1.33442143e-07  1.50000000e+00 -7.42286200e-02 -5.81092894e-02  7.25657211e-01  7.50000000e-01 
 1.36113121e-07  1.50000000e+00 -6.34017148e-02 -1.03170526e-02  7.25670566e-01  7.50000000e-01 
 1.40078319e-07  1.50000000e+00 -3.70932365e-02  1.12316671e-01  7.25690392e-01  7.50000000e-01 
 1.45745983e-07  1.50000000e+00  1.04390100e-02  3.61337742e-01  7.25718730e-01  7.50000000e-01 
 1.54510988e-07  1.50000000e+00  6.65406699e-04  7.92916062e-01  7.25762555e-01  7.50000000e-01 
 1.62711468e-07  1.50000000e+00  1.26972084e-04  1.18875152e+00  7.25803557e-01  7.50000000e-01 
 1.73698543e-07  1.50000000e+00  2.40488540e-05  1.48698419e+00  7.25858493e-01  7.50000000e-01 
 1.84382903e-07  1.50000000e+00 -6.24910779e-06  1.50642407e+00  7.25911915e-01  7.50000000e-01 
 1.89510000e-07  1.50000000e+00 -5.75788012e-09  1.50113649e+00  7.25937550e-01  7.50000000e-01 
 1.89511000e-07  1.35000000e+00  4.61415886e-03  1.50564344e+00  7.25937555e-01  7.50000000e-01 
 1.89513000e-07  1.05000000e+00  1.40131918e-02  1.51552265e+00  7.25937565e-01  7.50000000e-01 
 1.89517000e-07  4.50000000e-01  2.97790669e-02  1.50298208e+00  7.25937585e-01  7.50000000e-01 
 1.89520000e-07  2.26951791e-12  3.25002803e-02  1.43449980e+00  7.25937600e-01  7.50000000e-01 
 1.89520585e-07  0.00000000e+00  2.83872292e-02  1.41168491e+00  7.25937603e-01  7.50000000e-01 
 1.89521756e-07  0.00000000e+00  1.93216015e-02  1.36412926e+00  7.25937609e-01  7.50000000e-01 
 1.89524098e-07  0.00000000e+00  5.29892756e-03  1.26901608e+00  7.25937620e-01  7.50000000e-01 
 1.89528433e-07  0.00000000e+00 -9.15176336e-03  1.09743101e+00  7.25937642e-01  7.50000000e-01 
 1.89537103e-07  0.00000000e+00 -2.05496796e-02  7.83033045e-01  7.25937686e-01  7.50000000e-01 
 1.89552268e-07  0.00000000e+00 -2.24322033e-02  3.49280338e-01  7.25937761e-01  7.50000000e-01 
 1.89571219e-07  0.00000000e+00 -1.16312065e-02  7.12565459e-02  7.25937856e-01  7.50000000e-01 
 1.89591209e-07  0.00000000e+00 -2.61592730e-03 -1.13142132e-02  7.25937956e-01  7.50000000e-01 
 1.89612154e-07  0.00000000e+00  1.05908090e-03 -1.61347540e-02  7.25938061e-01  7.50000000e-01 
 1.89634815e-07  0.00000000e+00  1.37509442e-03 -6.61177301e-03  7.25938174e-01  7.50000000e-01 
 1.89667981e-07  0.00000000e+00  6.43818008e-04 -1.15963785e-04  7.25938340e-01  7.50000000e-01 
 1.89730038e-07  0.00000000e+00  9.70590223e-05  1.19876840e-03  7.25938650e-01  7.50000000e-01 
 1.89854152e-07  0.00000000e+00  4.90984740e-05  4.15930717e-04  7.25939271e-01  7.50000000e-01 
 1.90035820e-07  0.00000000e+00  7.48075328e-05  1.03713348e-04  7.25940179e-01  7.50000000e-01 
 1.90230930e-07  0.00000000e+00  5.45329014e-05  6.91866376e-05  7.25941155e-01  7.50000000e-01 
 1.90397563e-07  0.00000000e+00  3.71471726e-05  5.34212424e-05  7.25941988e-01  7.50000000e-01 
 1.90547394e-07  0.00000000e+00  2.65402122e-05  3.92602174e-05  7.25942737e-01  7.50000000e-01 
 1.90691175e-07  0.00000000e+00  1.93322771e-05  2.86441000e-05  7.25943456e-01  7.50000000e-01 
 1.90856898e-07  0.00000000e+00  1.33852558e-05  1.98490777e-05  7.25944284e-01  7.50000000e-01 
 1.91039141e-07  0.00000000e+00  8.89127505e-06  1.31992265e-05  7.25945196e-01  7.50000000e-01 
 1.91270611e-07  0.00000000e+00  5.22086808e-06  7.74534518e-06  7.25946353e-01  7.50000000e-01 
 1.91545891e-07  0.00000000e+00  2.70132262e-06  3.98607399e-06  7.25947729e-01  7.50000000e-01 
 1.91910991e-07  0.00000000e+00  1.03876125e-06  1.49679987e-06  7.25949555e-01  7.50000000e-01 
 1.92385221e-07  0.00000000e+00  2.13415210e-07  2.56289812e-07  7.25951926e-01  7.50000000e-01 
 1.93087431e-07  0.00000000e+00 -5.51460073e-08 -1.50669681e-07  7.25955437e-01  7.50000000e-01 
 1.94214321e-07  0.00000000e+00 -1.75681942e-09 -7.33946858e-08  7.25961072e-01  7.50000000e-01 
 1.96468102e-07  0.00000000e+00  1.16640581e-07  1.03358394e-07  7.25972341e-01  7.50000000e-01 
 2.00975663e-07  0.00000000e+00  1.52504406e-07  1.57399867e-07  7.25994878e-01  7.50000000e-01 
 2.09464360e-07  0.00000000e+00  1.45437173e-07  1.46946920e-07  7.26037322e-01  7.50000000e-01 
 2.26441754e-07  0.00000000e+00  1.42282570e-07  1.42219887e-07  7.26122209e-01  7.50000000e-01 
 2.52000000e-07  0.00000000e+00  1.42351525e-07  1.42322631e-07  7.26250000e-01  7.50000000e-01 
 2.52001000e-07  1.50000000e-01 -7.15102361e-03 -7.15102341e-03  7.26250005e-01  7.50000000e-01 
 2.52003000e-07  4.50000000e-01 -2.26178896e-02 -2.26178893e-02  7.26250015e-01  7.50000000e-01 
 2.52007000e-07  1.05000000e+00 -5.48344509e-02 -5.48344514e-02  7.26250035e-01  7.50000000e-01 
 2.52010000e-07  1.50000000e+00 -7.28689031e-02 -7.28689130e-02  7.26250050e-01  7.50000000e-01 
 2.52010423e-07  1.50000000e+00 -7.32860444e-02 -7.32860587e-02  7.26250052e-01  7.50000000e-01 
 2.52011270e-07  1.50000000e+00 -7.33124675e-02 -7.33125052e-02  7.26250056e-01  7.50000000e-01 
 2.52012962e-07  1.50000000e+00 -7.30493367e-02 -7.30496865e-02  7.26250065e-01  7.50000000e-01 
 2.52016348e-07  1.50000000e+00 -7.28413143e-02 -7.28434608e-02  7.26250082e-01  7.50000000e-01 
 2.52021506e-07  1.50000000e+00 -7.28170046e-02 -7.28233433e-02  7.26250108e-01  7.50000000e-01 
 2.52027555e-07  1.50000000e+00 -7.28716515e-02 -7.28835999e-02  7.26250138e-01  7.50000000e-01 
 2.52038560e-07  1.50000000e+00 -7.29546253e-02 -7.29768488e-02  7.26250193e-01  7.50000000e-01 
 2.52060571e-07  1.50000000e+00 -7.30791094e-02 -7.31214768e-02  7.26250303e-01  7.50000000e-01 
 2.52104593e-07  1.50000000e+00 -7.33085081e-02 -7.33902413e-02  7.26250523e-01  7.50000000e-01 
 2.52192637e-07  1.50000000e+00 -7.37422629e-02 -7.38996405e-02  7.26250963e-01  7.50000000e-01 
 2.52368724e-07  1.50000000e+00 -7.45155057e-02 -7.48127654e-02  7.26251844e-01  7.50000000e-01 
 2.52720898e-07  1.50000000e+00 -7.57693517e-02 -7.63058950e-02  7.26253604e-01  7.50000000e-01 
 2.53315327e-07  1.50000000e+00 -7.72759624e-02 -7.80991189e-02  7.26256577e-01  7.50000000e-01 
 2.54049953e-07  1.50000000e+00 -7.84076970e-02 -7.93302140e-02  7.26260250e-01  7.50000000e-01 
 2.55110699e-07  1.50000000e+00 -7.90073718e-02 -7.92395131e-02  7.26265553e-01  7.50000000e-01 
 2.56467736e-07  1.50000000e+00 -7.82381911e-02 -7.51313949e-02  7.26272339e-01  7.50000000e-01 
 2.58439679e-07  1.50000000e+00 -7.41542870e-02 -5.84389219e-02  7.26282198e-01  7.50000000e-01 
 2.61109858e-07  1.50000000e+00 -6.31565966e-02 -1.14282985e-02  7.26295549e-01  7.50000000e-01 
 2.65073327e-07  1.50000000e+00 -3.64386562e-02  1.09152140e-01  7.26315367e-01  7.50000000e-01 
 2.70739008e-07  1.50000000e+00  1.22822487e-02  3.54373716e-01  7.26343695e-01  7.50000000e-01 
 2.79500357e-07  1.50000000e+00  7.24528572e-04  7.80402044e-01  7.26387502e-01  7.50000000e-01 
 2.87777894e-07  1.50000000e+00  1.36685310e-04  1.17565969e+00  7.26428889e-01  7.50000000e-01 
 2.98435056e-07  1.50000000e+00  2.84780711e-05  1.48295430e+00  7.26482175e-01  7.50000000e-01 
 3.09753416e-07  1.50000000e+00 -7.07703861e-06  1.50708602e+00  7.26538767e-01  7.50000000e-01 
 3.14510000e-07  1.50000000e+00 -2.18754409e-07  1.50131422e+00  7.26562550e-01  7.50000000e-01 
 3.14511000e-07  1.35000000e+00  4.61398744e-03  1.50582164e+00  7.26562555e-01  7.50000000e-01 
 3.14513000e-07  1.05000000e+00  1.40128490e-02  1.51570207e+00  7.26562565e-01  7.50000000e-01 
 3.14517000e-07  4.50000000e-01  2.97776328e-02  1.50315772e+00  7.26562585e-01  7.50000000e-01 
 3.14520000e-07  0.00000000e+00  3.24980153e-02  1.43466334e+00  7.26562600e-01  7.50000000e-01 
 3.14520585e-07  0.00000000e+00  2.83848536e-02  1.41184529e+00  7.26562603e-01  7.50000000e-01 
 3.14521756e-07  0.00000000e+00  1.93192704e-02  1.36428407e+00  7.26562609e-01  7.50000000e-01 
 3.14524098e-07  0.00000000e+00  5.29715837e-03  1.26916114e+00  7.26562620e-01  7.50000000e-01 
 3.14528433e-07  0.00000000e+00 -9.15272331e-03  1.09755571e+00  7.26562642e-01  7.50000000e-01 
 3.14537103e-07  0.00000000e+00 -2.05499153e-02  7.83115979e-01  7.26562686e-01  7.50000000e-01 
 3.14552269e-07  0.00000000e+00 -2.24319213e-02  3.49338684e-01  7.26562761e-01  7.50000000e-01 
 3.14571203e-07  0.00000000e+00 -1.16387913e-02  7.13972839e-02  7.26562856e-01  7.50000000e-01 
 3.14591182e-07  0.00000000e+00 -2.62147405e-03 -1.12781534e-02  7.26562956e-01  7.50000000e-01 
 3.14612110e-07  0.00000000e+00  1.05834303e-03 -1.61494201e-02  7.26563061e-01  7.50000000e-01 
 3.14634770e-07  0.00000000e+00  1.37787122e-03 -6.63322778e-03  7.26563174e-01  7.50000000e-01 
 3.14667902e-07  0.00000000e+00  6.46998363e-04 -1.31126621e-04  7.26563340e-01  7.50000000e-01 
 3.14729888e-07  0.00000000e+00  9.87785056e-05  1.19490901e-03  7.26563649e-01  7.50000000e-01 
 3.14853860e-07  0.00000000e+00  4.97692412e-05  4.16124306e-04  7.26564269e-01  7.50000000e-01 
 3.15035380e-07  0.00000000e+00  7.53077598e-05  1.03623345e-04  7.26565177e-01  7.50000000e-01 
 3.15230712e-07  0.00000000e+00  5.48829357e-05  6.89435916e-05  7.26566154e-01  7.50000000e-01 
 3.15397420e-07  0.00000000e+00  3.73901086e-05  5.32378004e-05  7.26566987e-01  7.50000000e-01 
 3.15547264e-07  0.00000000e+00  2.67161263e-05  3.91265520e-05  7.26567736e-01  7.50000000e-01 
 3.15691025e-07  0.00000000e+00  1.94620341e-05  2.85467299e-05  7.26568455e-01  7.50000000e-01 
 3.15856775e-07  0.00000000e+00  1.34745320e-05  1.97795857e-05  7.26569284e-01  7.50000000e-01 
 3.16038866e-07  0.00000000e+00  8.95382056e-06  1.31574358e-05  7.26570194e-01  7.50000000e-01 
 3.16270290e-07  0.00000000e+00  5.25816978e-06  7.72190661e-06  7.26571351e-01  7.50000000e-01 
 3.16545324e-07  0.00000000e+00  2.72220892e-06  3.97700143e-06  7.26572727e-01  7.50000000e-01 
 3.16910269e-07  0.00000000e+00  1.04707112e-06  1.49486979e-06  7.26574551e-01  7.50000000e-01 
 3.17384023e-07  0.00000000e+00  2.15256715e-07  2.57708048e-07  7.26576920e-01  7.50000000e-01 
 3.18085649e-07  0.00000000e+00 -5.61673404e-08 -1.49193368e-07  7.26580428e-01  7.50000000e-01 
 3.19210746e-07  0.00000000e+00 -2.92684076e-09 -7.28923383e-08  7.26586054e-01  7.50000000e-01 
 3.21460939e-07  0.00000000e+00  1.16282394e-07  1.03240316e-07  7.26597305e-01  7.50000000e-01 
 3.25961325e-07  0.00000000e+00  1.52561090e-07  1.57330473e-07  7.26619807e-01  7.50000000e-01 
 3.34434681e-07  0.00000000e+00  1.45471711e-07  1.46951015e-07  7.26662173e-01  7.50000000e-01 
 3.51381394e-07  0.00000000e+00  1.42282966e-07  1.42222442e-07  7.26746907e-01  7.50000000e-01 
 3.77000000e-07  0.00000000e+00  1.42350762e-07  1.42322385e-07  7.26875000e-01  7.50000000e-01 
 3.77001000e-07  1.50000000e-01 -7.15102360e-03 -7.15102341e-03  7.26875005e-01  7.50000000e-01 
 3.77003000e-07  4.50000000e-01 -2.26178896e-02 -2.26178893e-02  7.26875015e-01  7.50000000e-01 
 3.77007000e-07  1.05000000e+00 -5.48344509e-02 -5.48344514e-02  7.26875035e-01  7.50000000e-01 
 3.77010000e-07  1.50000000e+00 -7.28689034e-02 -7.28689131e-02  7.26875050e-01  7.50000000e-01 
