 frequency       v(Cinp)         v(Cinp)         v(Cinn)         v(Cinn)        
 1.00000000e+00  2.00658621e-12  0.00000000e+00  7.90123124e-13  0.00000000e+00 
 1.02305973e+00  1.96135787e-12  0.00000000e+00  7.72354074e-13  0.00000000e+00 
 1.04665121e+00  1.91714898e-12  0.00000000e+00  7.54986241e-13  0.00000000e+00 
 1.07078670e+00  1.87393655e-12  0.00000000e+00  7.38011094e-13  0.00000000e+00 
 1.09547876e+00  1.83169813e-12  0.00000000e+00  7.21419506e-13  0.00000000e+00 
 1.12074020e+00  1.79041177e-12  0.00000000e+00  7.05202818e-13  0.00000000e+00 
 1.14658417e+00  1.75005600e-12  0.00000000e+00  6.89352569e-13  0.00000000e+00 
 1.17302409e+00  1.71060984e-12  0.00000000e+00  6.73860725e-13  0.00000000e+00 
 1.20007371e+00  1.67205281e-12  0.00000000e+00  6.58718958e-13  0.00000000e+00 
 1.22774708e+00  1.63436485e-12  0.00000000e+00  6.43919820e-13  0.00000000e+00 
 1.25605860e+00  1.59752637e-12  0.00000000e+00  6.29455123e-13  0.00000000e+00 
 1.28502297e+00  1.56151824e-12  0.00000000e+00  6.15317751e-13  0.00000000e+00 
 1.31465525e+00  1.52632172e-12  0.00000000e+00  6.01500305e-13  0.00000000e+00 
 1.34497085e+00  1.49191854e-12  0.00000000e+00  5.87995346e-13  0.00000000e+00 
 1.37598551e+00  1.45829081e-12  0.00000000e+00  5.74795821e-13  0.00000000e+00 
 1.40771537e+00  1.42542104e-12  0.00000000e+00  5.61895228e-13  0.00000000e+00 
 1.44017690e+00  1.39329216e-12  0.00000000e+00  5.49286803e-13  0.00000000e+00 
 1.47338699e+00  1.36188746e-12  0.00000000e+00  5.36963751e-13  0.00000000e+00 
 1.50736290e+00  1.33119063e-12  0.00000000e+00  5.24919809e-13  0.00000000e+00 
 1.54212228e+00  1.30118570e-12  0.00000000e+00  5.13148666e-13  0.00000000e+00 
 1.57768320e+00  1.27185709e-12  0.00000000e+00  5.01644154e-13  0.00000000e+00 
 1.61406415e+00  1.24318954e-12  0.00000000e+00  4.90400418e-13  0.00000000e+00 
 1.65128404e+00  1.21516816e-12  0.00000000e+00  4.79411558e-13  0.00000000e+00 
 1.68936220e+00  1.18777838e-12  0.00000000e+00  4.68671971e-13  0.00000000e+00 
 1.72831844e+00  1.16100596e-12  0.00000000e+00  4.58175853e-13  0.00000000e+00 
 1.76817299e+00  1.13483700e-12  0.00000000e+00  4.47918012e-13  0.00000000e+00 
 1.80894658e+00  1.10925789e-12  0.00000000e+00  4.37892895e-13  0.00000000e+00 
 1.85066040e+00  1.08425533e-12  0.00000000e+00  4.28095237e-13  0.00000000e+00 
 1.89333613e+00  1.05981633e-12  0.00000000e+00  4.18520184e-13  0.00000000e+00 
 1.93699595e+00  1.03592819e-12  0.00000000e+00  4.09162689e-13  0.00000000e+00 
 1.98166255e+00  1.01257848e-12  0.00000000e+00  4.00017822e-13  0.00000000e+00 
 2.02735916e+00  9.89755082e-13  0.00000000e+00  3.91080765e-13  0.00000000e+00 
 2.07410951e+00  9.67446122e-13  0.00000000e+00  3.82346944e-13  0.00000000e+00 
 2.12193792e+00  9.45640007e-13  0.00000000e+00  3.73811883e-13  0.00000000e+00 
 2.17086923e+00  9.24325402e-13  0.00000000e+00  3.65471198e-13  0.00000000e+00 
 2.22092889e+00  9.03491230e-13  0.00000000e+00  3.57320351e-13  0.00000000e+00 
 2.27214291e+00  8.83126662e-13  0.00000000e+00  3.49355159e-13  0.00000000e+00 
 2.32453791e+00  8.63221112e-13  0.00000000e+00  3.41571646e-13  0.00000000e+00 
 2.37814113e+00  8.43764235e-13  0.00000000e+00  3.33965449e-13  0.00000000e+00 
 2.43298042e+00  8.24745918e-13  0.00000000e+00  3.26532889e-13  0.00000000e+00 
 2.48908429e+00  8.06156275e-13  0.00000000e+00  3.19270014e-13  0.00000000e+00 
 2.54648190e+00  7.87985644e-13  0.00000000e+00  3.12173076e-13  0.00000000e+00 
 2.60520309e+00  7.70224581e-13  0.00000000e+00  3.05238298e-13  0.00000000e+00 
 2.66527837e+00  7.52863854e-13  0.00000000e+00  2.98462199e-13  0.00000000e+00 
 2.72673897e+00  7.35894439e-13  0.00000000e+00  2.91841063e-13  0.00000000e+00 
 2.78961683e+00  7.19307518e-13  0.00000000e+00  2.85371660e-13  0.00000000e+00 
 2.85394464e+00  7.03094467e-13  0.00000000e+00  2.79050528e-13  0.00000000e+00 
 2.91975583e+00  6.87246861e-13  0.00000000e+00  2.72874286e-13  0.00000000e+00 
 2.98708461e+00  6.71756462e-13  0.00000000e+00  2.66839909e-13  0.00000000e+00 
 3.05596598e+00  6.56615218e-13  0.00000000e+00  2.60944152e-13  0.00000000e+00 
 3.12643573e+00  6.41815261e-13  0.00000000e+00  2.55183848e-13  0.00000000e+00 
 3.19853049e+00  6.27348897e-13  0.00000000e+00  2.49556250e-13  0.00000000e+00 
 3.27228774e+00  6.13208607e-13  0.00000000e+00  2.44058146e-13  0.00000000e+00 
 3.34774581e+00  5.99387042e-13  0.00000000e+00  2.38686906e-13  0.00000000e+00 
 3.42494392e+00  5.85877018e-13  0.00000000e+00  2.33439536e-13  0.00000000e+00 
 3.50392221e+00  5.72671513e-13  0.00000000e+00  2.28313436e-13  0.00000000e+00 
 3.58472171e+00  5.59763662e-13  0.00000000e+00  2.23305896e-13  0.00000000e+00 
 3.66738442e+00  5.47146757e-13  0.00000000e+00  2.18414340e-13  0.00000000e+00 
 3.75195331e+00  5.34814240e-13  0.00000000e+00  2.13636100e-13  0.00000000e+00 
 3.83847234e+00  5.22759701e-13  0.00000000e+00  2.08968856e-13  0.00000000e+00 
 3.92698648e+00  5.10976875e-13  0.00000000e+00  2.04410043e-13  0.00000000e+00 
 4.01754173e+00  4.99459636e-13  0.00000000e+00  1.99957298e-13  0.00000000e+00 
 4.11018515e+00  4.88202000e-13  0.00000000e+00  1.95608303e-13  0.00000000e+00 
 4.20496491e+00  4.77198114e-13  0.00000000e+00  1.91360853e-13  0.00000000e+00 
 4.30193027e+00  4.66442259e-13  0.00000000e+00  1.87212657e-13  0.00000000e+00 
 4.40113162e+00  4.55928845e-13  0.00000000e+00  1.83161596e-13  0.00000000e+00 
 4.50262052e+00  4.45652407e-13  0.00000000e+00  1.79205534e-13  0.00000000e+00 
 4.60644974e+00  4.35607604e-13  0.00000000e+00  1.75342317e-13  0.00000000e+00 
 4.71267322e+00  4.25789214e-13  0.00000000e+00  1.71570013e-13  0.00000000e+00 
 4.82134619e+00  4.16192135e-13  0.00000000e+00  1.67886610e-13  0.00000000e+00 
 4.93252513e+00  4.06811378e-13  0.00000000e+00  1.64290193e-13  0.00000000e+00 
 5.04626783e+00  3.97642068e-13  0.00000000e+00  1.60778934e-13  0.00000000e+00 
 5.16263340e+00  3.88679439e-13  0.00000000e+00  1.57350830e-13  0.00000000e+00 
 5.28168234e+00  3.79918831e-13  0.00000000e+00  1.54004232e-13  0.00000000e+00 
 5.40347650e+00  3.71355693e-13  0.00000000e+00  1.50737312e-13  0.00000000e+00 
 5.52807921e+00  3.62985572e-13  0.00000000e+00  1.47548378e-13  0.00000000e+00 
 5.65555523e+00  3.54804118e-13  0.00000000e+00  1.44435672e-13  0.00000000e+00 
 5.78597080e+00  3.46807080e-13  0.00000000e+00  1.41397660e-13  0.00000000e+00 
 5.91939372e+00  3.38990300e-13  0.00000000e+00  1.38432645e-13  0.00000000e+00 
 6.05589334e+00  3.31349715e-13  0.00000000e+00  1.35539057e-13  0.00000000e+00 
 6.19554061e+00  3.23881354e-13  0.00000000e+00  1.32715439e-13  0.00000000e+00 
 6.33840810e+00  3.16581336e-13  0.00000000e+00  1.29960183e-13  0.00000000e+00 
 6.48457008e+00  3.09445866e-13  0.00000000e+00  1.27271924e-13  0.00000000e+00 
 6.63410251e+00  3.02471235e-13  0.00000000e+00  1.24649150e-13  0.00000000e+00 
 6.78708313e+00  2.95653818e-13  0.00000000e+00  1.22090499e-13  0.00000000e+00 
 6.94359143e+00  2.88990072e-13  0.00000000e+00  1.19594587e-13  0.00000000e+00 
 7.10370877e+00  2.82476533e-13  0.00000000e+00  1.17160054e-13  0.00000000e+00 
 7.26751838e+00  2.76109816e-13  0.00000000e+00  1.14785598e-13  0.00000000e+00 
 7.43510539e+00  2.69886610e-13  0.00000000e+00  1.12469899e-13  0.00000000e+00 
 7.60655691e+00  2.63803683e-13  0.00000000e+00  1.10211801e-13  0.00000000e+00 
 7.78196206e+00  2.57857872e-13  0.00000000e+00  1.08009984e-13  0.00000000e+00 
 7.96141200e+00  2.52046086e-13  0.00000000e+00  1.05863252e-13  0.00000000e+00 
 8.14500001e+00  2.46365305e-13  0.00000000e+00  1.03770426e-13  0.00000000e+00 
 8.33282151e+00  2.40812576e-13  0.00000000e+00  1.01730372e-13  0.00000000e+00 
 8.52497412e+00  2.35385014e-13  0.00000000e+00  9.97419700e-14  0.00000000e+00 
 8.72155772e+00  2.30079796e-13  0.00000000e+00  9.78040802e-14  0.00000000e+00 
 8.92267449e+00  2.24894166e-13  0.00000000e+00  9.59155788e-14  0.00000000e+00 
 9.12842895e+00  2.19825428e-13  0.00000000e+00  9.40755012e-14  0.00000000e+00 
 9.33892805e+00  2.14870948e-13  0.00000000e+00  9.22827435e-14  0.00000000e+00 
 9.55428121e+00  2.10028150e-13  0.00000000e+00  9.05362444e-14  0.00000000e+00 
 9.77460036e+00  2.05294518e-13  0.00000000e+00  8.88350897e-14  0.00000000e+00 
 1.00000000e+01  2.00667591e-13  0.00000000e+00  8.71782079e-14  0.00000000e+00 
 1.02305973e+01  1.96144963e-13  0.00000000e+00  8.55646707e-14  0.00000000e+00 
 1.04665121e+01  1.91724285e-13  0.00000000e+00  8.39935282e-14  0.00000000e+00 
 1.07078670e+01  1.87403259e-13  0.00000000e+00  8.24638365e-14  0.00000000e+00 
 1.09547876e+01  1.83179639e-13  0.00000000e+00  8.09747054e-14  0.00000000e+00 
 1.12074020e+01  1.79051229e-13  0.00000000e+00  7.95252008e-14  0.00000000e+00 
 1.14658417e+01  1.75015884e-13  0.00000000e+00  7.81143956e-14  0.00000000e+00 
 1.17302409e+01  1.71071505e-13  0.00000000e+00  7.67415019e-14  0.00000000e+00 
 1.20007371e+01  1.67216044e-13  0.00000000e+00  7.54056194e-14  0.00000000e+00 
 1.22774708e+01  1.63447496e-13  0.00000000e+00  7.41058959e-14  0.00000000e+00 
 1.25605860e+01  1.59763903e-13  0.00000000e+00  7.28415220e-14  0.00000000e+00 
 1.28502297e+01  1.56163349e-13  0.00000000e+00  7.16116280e-14  0.00000000e+00 
 1.31465525e+01  1.52643964e-13  0.00000000e+00  7.04154268e-14  0.00000000e+00 
 1.34497085e+01  1.49203917e-13  0.00000000e+00  6.92521483e-14  0.00000000e+00 
 1.37598551e+01  1.45841422e-13  0.00000000e+00  6.81209644e-14  0.00000000e+00 
 1.40771537e+01  1.42554730e-13  0.00000000e+00  6.70211042e-14  0.00000000e+00 
 1.44017690e+01  1.39342133e-13  0.00000000e+00  6.59518126e-14  0.00000000e+00 
 1.47338699e+01  1.36201961e-13  0.00000000e+00  6.49123153e-14  0.00000000e+00 
 1.50736290e+01  1.33132582e-13  0.00000000e+00  6.39018544e-14  0.00000000e+00 
 1.54212228e+01  1.30132401e-13  0.00000000e+00  6.29197038e-14  0.00000000e+00 
 1.57768320e+01  1.27199859e-13  0.00000000e+00  6.19651184e-14  0.00000000e+00 
 1.61406415e+01  1.24333430e-13  0.00000000e+00  6.10373828e-14  0.00000000e+00 
 1.65128404e+01  1.21531626e-13  0.00000000e+00  6.01357640e-14  0.00000000e+00 
 1.68936220e+01  1.18792989e-13  0.00000000e+00  5.92595431e-14  0.00000000e+00 
 1.72831844e+01  1.16116098e-13  0.00000000e+00  5.84080425e-14  0.00000000e+00 
 1.76817299e+01  1.13499559e-13  0.00000000e+00  5.75805254e-14  0.00000000e+00 
 1.80894658e+01  1.10942013e-13  0.00000000e+00  5.67763243e-14  0.00000000e+00 
 1.85066040e+01  1.08442131e-13  0.00000000e+00  5.59947548e-14  0.00000000e+00 
 1.89333613e+01  1.05998614e-13  0.00000000e+00  5.52351319e-14  0.00000000e+00 
 1.93699595e+01  1.03610191e-13  0.00000000e+00  5.44967824e-14  0.00000000e+00 
 1.98166255e+01  1.01275621e-13  0.00000000e+00  5.37790333e-14  0.00000000e+00 
 2.02735916e+01  9.89936909e-14  0.00000000e+00  5.30812355e-14  0.00000000e+00 
 2.07410951e+01  9.67632141e-14  0.00000000e+00  5.24027283e-14  0.00000000e+00 
 2.12193792e+01  9.45830314e-14  0.00000000e+00  5.17428525e-14  0.00000000e+00 
 2.17086923e+01  9.24520097e-14  0.00000000e+00  5.11009954e-14  0.00000000e+00 
 2.22092889e+01  9.03690414e-14  0.00000000e+00  5.04765011e-14  0.00000000e+00 
 2.27214291e+01  8.83330438e-14  0.00000000e+00  4.98687292e-14  0.00000000e+00 
 2.32453791e+01  8.63429586e-14  0.00000000e+00  4.92770743e-14  0.00000000e+00 
 2.37814113e+01  8.43977515e-14  0.00000000e+00  4.87009241e-14  0.00000000e+00 
 2.43298042e+01  8.24964114e-14  0.00000000e+00  4.81396425e-14  0.00000000e+00 
 2.48908429e+01  8.06379502e-14  0.00000000e+00  4.75926488e-14  0.00000000e+00 
 2.54648190e+01  7.88214017e-14  0.00000000e+00  4.70593400e-14  0.00000000e+00 
 2.60520309e+01  7.70458218e-14  0.00000000e+00  4.65391220e-14  0.00000000e+00 
 2.66527837e+01  7.53102877e-14  0.00000000e+00  4.60314192e-14  0.00000000e+00 
 2.72673897e+01  7.36138973e-14  0.00000000e+00  4.55356485e-14  0.00000000e+00 
 2.78961683e+01  7.19557688e-14  0.00000000e+00  4.50512556e-14  0.00000000e+00 
 2.85394464e+01  7.03350404e-14  0.00000000e+00  4.45776735e-14  0.00000000e+00 
 2.91975583e+01  6.87508697e-14  0.00000000e+00  4.41143496e-14  0.00000000e+00 
 2.98708461e+01  6.72024334e-14  0.00000000e+00  4.36607539e-14  0.00000000e+00 
 3.05596598e+01  6.56889265e-14  0.00000000e+00  4.32163417e-14  0.00000000e+00 
 3.12643573e+01  6.42095624e-14  0.00000000e+00  4.27806012e-14  0.00000000e+00 
 3.19853049e+01  6.27635722e-14  0.00000000e+00  4.23530167e-14  0.00000000e+00 
 3.27228774e+01  6.13502044e-14  0.00000000e+00  4.19330716e-14  0.00000000e+00 
 3.34774581e+01  5.99687242e-14  0.00000000e+00  4.15202985e-14  0.00000000e+00 
 3.42494392e+01  5.86184136e-14  0.00000000e+00  4.11141840e-14  0.00000000e+00 
 3.50392221e+01  5.72985709e-14  0.00000000e+00  4.07142793e-14  0.00000000e+00 
 3.58472171e+01  5.60085099e-14  0.00000000e+00  4.03201206e-14  0.00000000e+00 
 3.66738442e+01  5.47475602e-14  0.00000000e+00  3.99312578e-14  0.00000000e+00 
 3.75195331e+01  5.35150664e-14  0.00000000e+00  3.95472583e-14  0.00000000e+00 
 3.83847234e+01  5.23103877e-14  0.00000000e+00  3.91676930e-14  0.00000000e+00 
 3.92698648e+01  5.11328982e-14  0.00000000e+00  3.87921632e-14  0.00000000e+00 
 4.01754173e+01  4.99819857e-14  0.00000000e+00  3.84202747e-14  0.00000000e+00 
 4.11018515e+01  4.88570521e-14  0.00000000e+00  3.80516262e-14  0.00000000e+00 
 4.20496491e+01  4.77575127e-14  0.00000000e+00  3.76858708e-14  0.00000000e+00 
 4.30193027e+01  4.66827958e-14  0.00000000e+00  3.73226460e-14  0.00000000e+00 
 4.40113162e+01  4.56323431e-14  0.00000000e+00  3.69616131e-14  0.00000000e+00 
 4.50262052e+01  4.46056083e-14  0.00000000e+00  3.66024574e-14  0.00000000e+00 
 4.60644974e+01  4.36020580e-14  0.00000000e+00  3.62448691e-14  0.00000000e+00 
 4.71267322e+01  4.26211704e-14  0.00000000e+00  3.58885542e-14  0.00000000e+00 
 4.82134619e+01  4.16624357e-14  0.00000000e+00  3.55332499e-14  0.00000000e+00 
 4.93252513e+01  4.07253556e-14  0.00000000e+00  3.51786866e-14  0.00000000e+00 
 5.04626783e+01  3.98094431e-14  0.00000000e+00  3.48246360e-14  0.00000000e+00 
 5.16263340e+01  3.89142220e-14  0.00000000e+00  3.44708645e-14  0.00000000e+00 
 5.28168234e+01  3.80392271e-14  0.00000000e+00  3.41171752e-14  0.00000000e+00 
 5.40347650e+01  3.71840035e-14  0.00000000e+00  3.37633798e-14  0.00000000e+00 
 5.52807921e+01  3.63481068e-14  0.00000000e+00  3.34093097e-14  0.00000000e+00 
 5.65555523e+01  3.55311024e-14  0.00000000e+00  3.30548103e-14  0.00000000e+00 
 5.78597080e+01  3.47325657e-14  0.00000000e+00  3.26997521e-14  0.00000000e+00 
 5.91939372e+01  3.39520816e-14  0.00000000e+00  3.23440171e-14  0.00000000e+00 
 6.05589334e+01  3.31892445e-14  0.00000000e+00  3.19875038e-14  0.00000000e+00 
 6.19554061e+01  3.24436578e-14  0.00000000e+00  3.16301372e-14  0.00000000e+00 
 6.33840810e+01  3.17149340e-14  0.00000000e+00  3.12718600e-14  0.00000000e+00 
 6.48457008e+01  3.10026943e-14  0.00000000e+00  3.09126137e-14  0.00000000e+00 
 6.63410251e+01  3.03065685e-14  0.00000000e+00  3.05523739e-14  0.00000000e+00 
 6.78708313e+01  2.96261948e-14  0.00000000e+00  3.01911337e-14  0.00000000e+00 
 6.94359143e+01  2.89612194e-14  0.00000000e+00  2.98288880e-14  0.00000000e+00 
 7.10370877e+01  2.83112969e-14  0.00000000e+00  2.94656611e-14  0.00000000e+00 
 7.26751838e+01  2.76760893e-14  0.00000000e+00  2.91014864e-14  0.00000000e+00 
 7.43510539e+01  2.70552664e-14  0.00000000e+00  2.87364120e-14  0.00000000e+00 
 7.60655691e+01  2.64485055e-14  0.00000000e+00  2.83704987e-14  0.00000000e+00 
 7.78196206e+01  2.58554914e-14  0.00000000e+00  2.80038245e-14  0.00000000e+00 
 7.96141200e+01  2.52759156e-14  0.00000000e+00  2.76364736e-14  0.00000000e+00 
 8.14500001e+01  2.47094769e-14  0.00000000e+00  2.72685463e-14  0.00000000e+00 
 8.33282151e+01  2.41558809e-14  0.00000000e+00  2.69001513e-14  0.00000000e+00 
 8.52497412e+01  2.36148398e-14  0.00000000e+00  2.65314098e-14  0.00000000e+00 
 8.72155772e+01  2.30860724e-14  0.00000000e+00  2.61624502e-14  0.00000000e+00 
 8.92267449e+01  2.25693038e-14  0.00000000e+00  2.57934080e-14  0.00000000e+00 
 9.12842895e+01  2.20642653e-14  0.00000000e+00  2.54244248e-14  0.00000000e+00 
 9.33892805e+01  2.15706944e-14  0.00000000e+00  2.50556482e-14  0.00000000e+00 
 9.55428121e+01  2.10883345e-14  0.00000000e+00  2.46872359e-14  0.00000000e+00 
 9.77460036e+01  2.06169349e-14  0.00000000e+00  2.43193488e-14  0.00000000e+00 
 1.00000000e+02  2.01562505e-14  0.00000000e+00  2.39521463e-14  0.00000000e+00 
 1.02305973e+02  1.97060417e-14  0.00000000e+00  2.35857940e-14  0.00000000e+00 
 1.04665121e+02  1.92660746e-14  0.00000000e+00  2.32204587e-14  0.00000000e+00 
 1.07078670e+02  1.88361204e-14  0.00000000e+00  2.28563123e-14  0.00000000e+00 
 1.09547876e+02  1.84159555e-14  0.00000000e+00  2.24935186e-14  0.00000000e+00 
 1.12074020e+02  1.80053614e-14  0.00000000e+00  2.21322469e-14  0.00000000e+00 
 1.14658417e+02  1.76041248e-14  0.00000000e+00  2.17726615e-14  0.00000000e+00 
 1.17302409e+02  1.72120369e-14  0.00000000e+00  2.14149290e-14  0.00000000e+00 
 1.20007371e+02  1.68288939e-14  0.00000000e+00  2.10592140e-14  0.00000000e+00 
 1.22774708e+02  1.64544965e-14  0.00000000e+00  2.07056649e-14  0.00000000e+00 
 1.25605860e+02  1.60886501e-14  0.00000000e+00  2.03544439e-14  0.00000000e+00 
 1.28502297e+02  1.57311643e-14  0.00000000e+00  2.00056968e-14  0.00000000e+00 
 1.31465525e+02  1.53818533e-14  0.00000000e+00  1.96595729e-14  0.00000000e+00 
 1.34497085e+02  1.50405353e-14  0.00000000e+00  1.93162083e-14  0.00000000e+00 
 1.37598551e+02  1.47070329e-14  0.00000000e+00  1.89757403e-14  0.00000000e+00 
 1.40771537e+02  1.43811726e-14  0.00000000e+00  1.86382968e-14  0.00000000e+00 
 1.44017690e+02  1.40627847e-14  0.00000000e+00  1.83040025e-14  0.00000000e+00 
 1.47338699e+02  1.37517038e-14  0.00000000e+00  1.79729709e-14  0.00000000e+00 
 1.50736290e+02  1.34477678e-14  0.00000000e+00  1.76453133e-14  0.00000000e+00 
 1.54212228e+02  1.31508187e-14  0.00000000e+00  1.73211344e-14  0.00000000e+00 
 1.57768320e+02  1.28607020e-14  0.00000000e+00  1.70005288e-14  0.00000000e+00 
 1.61406415e+02  1.25772665e-14  0.00000000e+00  1.66835882e-14  0.00000000e+00 
 1.65128404e+02  1.23003648e-14  0.00000000e+00  1.63703957e-14  0.00000000e+00 
 1.68936220e+02  1.20298528e-14  0.00000000e+00  1.60610261e-14  0.00000000e+00 
 1.72831844e+02  1.17655895e-14  0.00000000e+00  1.57555526e-14  0.00000000e+00 
 1.76817299e+02  1.15074373e-14  0.00000000e+00  1.54540385e-14  0.00000000e+00 
 1.80894658e+02  1.12552618e-14  0.00000000e+00  1.51565381e-14  0.00000000e+00 
 1.85066040e+02  1.10089315e-14  0.00000000e+00  1.48631038e-14  0.00000000e+00 
 1.89333613e+02  1.07683182e-14  0.00000000e+00  1.45737805e-14  0.00000000e+00 
 1.93699595e+02  1.05332963e-14  0.00000000e+00  1.42886054e-14  0.00000000e+00 
 1.98166255e+02  1.03037434e-14  0.00000000e+00  1.40076116e-14  0.00000000e+00 
 2.02735916e+02  1.00795398e-14  0.00000000e+00  1.37308262e-14  0.00000000e+00 
 2.07410951e+02  9.86056846e-15  0.00000000e+00  1.34582699e-14  0.00000000e+00 
 2.12193792e+02  9.64671512e-15  0.00000000e+00  1.31899590e-14  0.00000000e+00 
 2.17086923e+02  9.43786816e-15  0.00000000e+00  1.29259047e-14  0.00000000e+00 
 2.22092889e+02  9.23391849e-15  0.00000000e+00  1.26661132e-14  0.00000000e+00 
 2.27214291e+02  9.03475957e-15  0.00000000e+00  1.24105850e-14  0.00000000e+00 
 2.32453791e+02  8.84028729e-15  0.00000000e+00  1.21593179e-14  0.00000000e+00 
 2.37814113e+02  8.65039993e-15  0.00000000e+00  1.19123052e-14  0.00000000e+00 
 2.43298042e+02  8.46499813e-15  0.00000000e+00  1.16695362e-14  0.00000000e+00 
 2.48908429e+02  8.28398481e-15  0.00000000e+00  1.14309921e-14  0.00000000e+00 
 2.54648190e+02  8.10726513e-15  0.00000000e+00  1.11966593e-14  0.00000000e+00 
 2.60520309e+02  7.93474643e-15  0.00000000e+00  1.09665147e-14  0.00000000e+00 
