 time            v(clk)          v(voutp)        v(voutn)        v(vinp)         v(vinn)        
 0.00000000e+00  0.00000000e+00  1.42407438e-07  1.42407452e-07  7.25000000e-01  7.50000000e-01 
 2.00000000e-11  0.00000000e+00  1.42407438e-07  1.42407452e-07  7.25000000e-01  7.50000000e-01 
 4.00000000e-11  0.00000000e+00  1.42407438e-07  1.42407452e-07  7.25000000e-01  7.50000000e-01 
 8.00000000e-11  0.00000000e+00  1.42407438e-07  1.42407452e-07  7.25000000e-01  7.50000000e-01 
 1.60000000e-10  0.00000000e+00  1.42407438e-07  1.42407452e-07  7.25000000e-01  7.50000000e-01 
 3.20000000e-10  0.00000000e+00  1.42407438e-07  1.42407452e-07  7.25000000e-01  7.50000000e-01 
 6.40000000e-10  0.00000000e+00  1.42407438e-07  1.42407452e-07  7.25000000e-01  7.50000000e-01 
 1.28000000e-09  0.00000000e+00  1.42407438e-07  1.42407452e-07  7.25000000e-01  7.50000000e-01 
 2.00000000e-09  0.00000000e+00  1.42407438e-07  1.42407452e-07  7.25000000e-01  7.50000000e-01 
 2.00100000e-09  1.50000000e-01 -7.15102459e-03 -7.15102436e-03  7.25000005e-01  7.50000000e-01 
 2.00300000e-09  4.50000000e-01 -2.26178915e-02 -2.26178912e-02  7.25000015e-01  7.50000000e-01 
 2.00700000e-09  1.05000000e+00 -5.48344712e-02 -5.48344719e-02  7.25000035e-01  7.50000000e-01 
 2.01000000e-09  1.50000000e+00 -7.28689663e-02 -7.28689692e-02  7.25000050e-01  7.50000000e-01 
 2.01061410e-09  1.50000000e+00 -7.32866886e-02 -7.32866936e-02  7.25000053e-01  7.50000000e-01 
 2.01184231e-09  1.50000000e+00 -7.32211769e-02 -7.32212251e-02  7.25000059e-01  7.50000000e-01 
 2.01429873e-09  1.50000000e+00 -7.29390543e-02 -7.29398069e-02  7.25000071e-01  7.50000000e-01 
 2.01921157e-09  1.50000000e+00 -7.28024657e-02 -7.28066715e-02  7.25000096e-01  7.50000000e-01 
 2.02598631e-09  1.50000000e+00 -7.28458578e-02 -7.28565264e-02  7.25000130e-01  7.50000000e-01 
 2.03621939e-09  1.50000000e+00 -7.29370282e-02 -7.29580564e-02  7.25000181e-01  7.50000000e-01 
 2.05668556e-09  1.50000000e+00 -7.30681982e-02 -7.31097538e-02  7.25000283e-01  7.50000000e-01 
 2.09761789e-09  1.50000000e+00 -7.33022677e-02 -7.33845752e-02  7.25000488e-01  7.50000000e-01 
 2.17948256e-09  1.50000000e+00 -7.37709376e-02 -7.39346955e-02  7.25000897e-01  7.50000000e-01 
 2.34321190e-09  1.50000000e+00 -7.47087810e-02 -7.50349228e-02  7.25001716e-01  7.50000000e-01 
 2.67067057e-09  1.50000000e+00 -7.65709248e-02 -7.72131016e-02  7.25003353e-01  7.50000000e-01 
 3.32558792e-09  1.50000000e+00 -7.99043184e-02 -8.06501253e-02  7.25006628e-01  7.50000000e-01 
 4.10574084e-09  1.50000000e+00 -7.42191071e-02 -5.27559388e-02  7.25010529e-01  7.50000000e-01 
 4.75583362e-09  1.50000000e+00 -7.95448739e-03  1.34823152e-01  7.25013779e-01  7.50000000e-01 
 5.42608097e-09  1.50000000e+00  3.85019114e-02  6.47505051e-01  7.25017130e-01  7.50000000e-01 
 6.15844817e-09  1.50000000e+00  3.33124920e-03  1.39212301e+00  7.25020792e-01  7.50000000e-01 
 6.57604352e-09  1.50000000e+00  1.63313300e-04  1.49948984e+00  7.25022880e-01  7.50000000e-01 
 7.07109059e-09  1.50000000e+00 -1.05923273e-04  1.50451352e+00  7.25025355e-01  7.50000000e-01 
 7.70657196e-09  1.50000000e+00 -8.22042854e-06  1.49987824e+00  7.25028533e-01  7.50000000e-01 
 8.37922309e-09  1.50000000e+00  2.37478163e-05  1.49920695e+00  7.25031896e-01  7.50000000e-01 
 9.72452534e-09  1.50000000e+00  3.26316362e-05  1.49936582e+00  7.25038623e-01  7.50000000e-01 
 1.14556471e-08  1.50000000e+00  3.04019143e-05  1.49955721e+00  7.25047278e-01  7.50000000e-01 
 1.29123590e-08  1.50000000e+00  2.55614473e-05  1.49977120e+00  7.25054562e-01  7.50000000e-01 
 1.43662595e-08  1.50000000e+00  2.34299370e-05  1.49991518e+00  7.25061831e-01  7.50000000e-01 
 1.51098866e-08  1.50000000e+00  2.24406473e-05  1.49994808e+00  7.25065549e-01  7.50000000e-01 
 1.59602989e-08  1.50000000e+00  1.95611480e-05  1.49996897e+00  7.25069801e-01  7.50000000e-01 
 1.67528487e-08  1.50000000e+00  1.62233335e-05  1.49998032e+00  7.25073764e-01  7.50000000e-01 
 1.76288012e-08  1.50000000e+00  1.29446812e-05  1.49998756e+00  7.25078144e-01  7.50000000e-01 
 1.85762994e-08  1.50000000e+00  1.01987989e-05  1.49999170e+00  7.25082881e-01  7.50000000e-01 
 1.98339508e-08  1.50000000e+00  7.74088540e-06  1.49999424e+00  7.25089170e-01  7.50000000e-01 
 2.15575388e-08  1.50000000e+00  5.73157143e-06  1.49999566e+00  7.25097788e-01  7.50000000e-01 
 2.45554370e-08  1.50000000e+00  3.92552634e-06  1.49999672e+00  7.25112777e-01  7.50000000e-01 
 3.05512334e-08  1.50000000e+00  2.39374624e-06  1.49999776e+00  7.25142756e-01  7.50000000e-01 
 4.25428263e-08  1.50000000e+00  1.32654596e-06  1.49999862e+00  7.25202714e-01  7.50000000e-01 
 6.23252376e-08  1.50000000e+00  7.70196705e-07  1.49999908e+00  7.25301626e-01  7.50000000e-01 
 6.45100000e-08  1.50000000e+00  7.45276148e-07  1.49999910e+00  7.25312550e-01  7.50000000e-01 
 6.45110000e-08  1.35000000e+00  4.58357821e-03  1.50424213e+00  7.25312555e-01  7.50000000e-01 
 6.45130000e-08  1.05000000e+00  1.39804547e-02  1.51314231e+00  7.25312565e-01  7.50000000e-01 
 6.45170000e-08  4.50000000e-01  2.95546659e-02  1.50092229e+00  7.25312585e-01  7.50000000e-01 
 6.45200000e-08  0.00000000e+00  3.18334824e-02  1.44089665e+00  7.25312600e-01  7.50000000e-01 
 6.45206109e-08  0.00000000e+00  2.74410075e-02  1.42022862e+00  7.25312603e-01  7.50000000e-01 
 6.45218327e-08  0.00000000e+00  1.78696632e-02  1.37824802e+00  7.25312609e-01  7.50000000e-01 
 6.45242763e-08  0.00000000e+00  3.33038146e-03  1.29921014e+00  7.25312621e-01  7.50000000e-01 
 6.45287781e-08  0.00000000e+00 -1.04138520e-02  1.17021776e+00  7.25312644e-01  7.50000000e-01 
 6.45377815e-08  0.00000000e+00 -1.76105727e-02  9.57975018e-01  7.25312689e-01  7.50000000e-01 
 6.45527153e-08  0.00000000e+00 -1.52040966e-02  6.92214962e-01  7.25312764e-01  7.50000000e-01 
 6.45738086e-08  0.00000000e+00  3.50670401e-02  4.30541515e-01  7.25312869e-01  7.50000000e-01 
 6.45967236e-08  0.00000000e+00  1.10604767e-01  2.65584615e-01  7.25312984e-01  7.50000000e-01 
 6.46260529e-08  0.00000000e+00  1.59800616e-01  1.80054568e-01  7.25313130e-01  7.50000000e-01 
 6.46650702e-08  0.00000000e+00  1.68626221e-01  1.51922250e-01  7.25313325e-01  7.50000000e-01 
 6.47035146e-08  0.00000000e+00  1.56219693e-01  1.46967973e-01  7.25313518e-01  7.50000000e-01 
 6.47633083e-08  0.00000000e+00  1.35845168e-01  1.36467893e-01  7.25313817e-01  7.50000000e-01 
 6.48576727e-08  0.00000000e+00  1.09624555e-01  1.12941936e-01  7.25314288e-01  7.50000000e-01 
 6.50464014e-08  0.00000000e+00  6.53952391e-02  6.77224720e-02  7.25315232e-01  7.50000000e-01 
 6.53805989e-08  0.00000000e+00  1.44870329e-02  1.53764754e-02  7.25316903e-01  7.50000000e-01 
 6.60489941e-08  0.00000000e+00 -5.48569915e-04 -5.50623482e-04  7.25320245e-01  7.50000000e-01 
 6.68039229e-08  0.00000000e+00 -1.39000773e-04 -1.45278082e-04  7.25324020e-01  7.50000000e-01 
 6.76012956e-08  0.00000000e+00 -1.66429634e-05 -1.67859288e-05  7.25328006e-01  7.50000000e-01 
 6.85565899e-08  0.00000000e+00 -1.06943974e-05 -1.07777764e-05  7.25332783e-01  7.50000000e-01 
 6.97553605e-08  0.00000000e+00 -3.35880933e-06 -3.43026052e-06  7.25338777e-01  7.50000000e-01 
 7.18116067e-08  0.00000000e+00  6.48899494e-07  6.38265278e-07  7.25349058e-01  7.50000000e-01 
 7.59240991e-08  0.00000000e+00  7.32667643e-07  7.39011123e-07  7.25369620e-01  7.50000000e-01 
 8.32193328e-08  0.00000000e+00  2.03202754e-07  2.04908637e-07  7.25406097e-01  7.50000000e-01 
 9.76419241e-08  0.00000000e+00  1.24266047e-07  1.24164861e-07  7.25478210e-01  7.50000000e-01 
 1.26487107e-07  0.00000000e+00  1.40285180e-07  1.40242604e-07  7.25622436e-01  7.50000000e-01 
 1.27000000e-07  3.97046694e-12  1.41394396e-07  1.41375276e-07  7.25625000e-01  7.50000000e-01 
 1.27001000e-07  1.50000000e-01 -7.15102462e-03 -7.15102440e-03  7.25625005e-01  7.50000000e-01 
 1.27003000e-07  4.50000000e-01 -2.26178907e-02 -2.26178904e-02  7.25625015e-01  7.50000000e-01 
 1.27007000e-07  1.05000000e+00 -5.48344525e-02 -5.48344530e-02  7.25625035e-01  7.50000000e-01 
 1.27010000e-07  1.50000000e+00 -7.28689084e-02 -7.28689192e-02  7.25625050e-01  7.50000000e-01 
 1.27010614e-07  1.50000000e+00 -7.32866657e-02 -7.32866896e-02  7.25625053e-01  7.50000000e-01 
 1.27011842e-07  1.50000000e+00 -7.32215106e-02 -7.32216166e-02  7.25625059e-01  7.50000000e-01 
 1.27014299e-07  1.50000000e+00 -7.29412896e-02 -7.29422564e-02  7.25625071e-01  7.50000000e-01 
 1.27019212e-07  1.50000000e+00 -7.28054853e-02 -7.28100106e-02  7.25625096e-01  7.50000000e-01 
 1.27026127e-07  1.50000000e+00 -7.28487668e-02 -7.28597922e-02  7.25625131e-01  7.50000000e-01 
 1.27037279e-07  1.50000000e+00 -7.29457569e-02 -7.29677792e-02  7.25625186e-01  7.50000000e-01 
 1.27059582e-07  1.50000000e+00 -7.30873248e-02 -7.31311349e-02  7.25625298e-01  7.50000000e-01 
 1.27104189e-07  1.50000000e+00 -7.33431810e-02 -7.34303093e-02  7.25625521e-01  7.50000000e-01 
 1.27193402e-07  1.50000000e+00 -7.38558206e-02 -7.40295492e-02  7.25625967e-01  7.50000000e-01 
 1.27371830e-07  1.50000000e+00 -7.48811629e-02 -7.52274159e-02  7.25626859e-01  7.50000000e-01 
 1.27728684e-07  1.50000000e+00 -7.69127677e-02 -7.75911483e-02  7.25628643e-01  7.50000000e-01 
 1.28442393e-07  1.50000000e+00 -8.02908886e-02 -8.06361255e-02  7.25632212e-01  7.50000000e-01 
 1.29096157e-07  1.50000000e+00 -7.52003305e-02 -5.69124513e-02  7.25635481e-01  7.50000000e-01 
 1.29662190e-07  1.50000000e+00 -2.91076000e-02  7.80505974e-02  7.25638311e-01  7.50000000e-01 
 1.30258359e-07  1.50000000e+00  1.19038301e-01  4.70219662e-01  7.25641292e-01  7.50000000e-01 
 1.30685883e-07  1.50000000e+00  2.23362504e-02  9.10290921e-01  7.25643429e-01  7.50000000e-01 
 1.31125001e-07  1.50000000e+00  1.71995570e-03  1.39450799e+00  7.25645625e-01  7.50000000e-01 
 1.31520597e-07  1.50000000e+00 -3.46113139e-05  1.50430325e+00  7.25647603e-01  7.50000000e-01 
 1.31895939e-07  1.50000000e+00 -1.00804119e-04  1.50512908e+00  7.25649480e-01  7.50000000e-01 
 1.32387955e-07  1.50000000e+00 -4.66418713e-06  1.49989983e+00  7.25651940e-01  7.50000000e-01 
 1.32984169e-07  1.50000000e+00  2.70468903e-05  1.49909777e+00  7.25654921e-01  7.50000000e-01 
 1.34176598e-07  1.50000000e+00  3.44583532e-05  1.49930860e+00  7.25660883e-01  7.50000000e-01 
 1.36561455e-07  1.50000000e+00  3.06543559e-05  1.49956496e+00  7.25672807e-01  7.50000000e-01 
 1.38332451e-07  1.50000000e+00  2.41186361e-05  1.49981241e+00  7.25681662e-01  7.50000000e-01 
 1.39547132e-07  1.50000000e+00  2.31305354e-05  1.49991841e+00  7.25687736e-01  7.50000000e-01 
 1.40321048e-07  1.50000000e+00  2.17446092e-05  1.49995138e+00  7.25691605e-01  7.50000000e-01 
 1.41171746e-07  1.50000000e+00  1.86670827e-05  1.49997154e+00  7.25695859e-01  7.50000000e-01 
 1.41967283e-07  1.50000000e+00  1.53987961e-05  1.49998220e+00  7.25699836e-01  7.50000000e-01 
 1.42868735e-07  1.50000000e+00  1.21991953e-05  1.49998887e+00  7.25704344e-01  7.50000000e-01 
 1.43863831e-07  1.50000000e+00  9.56646563e-06  1.49999253e+00  7.25709319e-01  7.50000000e-01 
 1.45222213e-07  1.50000000e+00  7.20675495e-06  1.49999471e+00  7.25716111e-01  7.50000000e-01 
 1.47133544e-07  1.50000000e+00  5.28255190e-06  1.49999594e+00  7.25725668e-01  7.50000000e-01 
 1.50637535e-07  1.50000000e+00  3.52939604e-06  1.49999696e+00  7.25743188e-01  7.50000000e-01 
 1.57645515e-07  1.50000000e+00  2.10663995e-06  1.49999798e+00  7.25778228e-01  7.50000000e-01 
 1.71396570e-07  1.50000000e+00  1.16176509e-06  1.49999876e+00  7.25846983e-01  7.50000000e-01 
 1.89510000e-07  1.50000000e+00  7.48000026e-07  1.49999910e+00  7.25937550e-01  7.50000000e-01 
 1.89511000e-07  1.35000000e+00  4.58357716e-03  1.50424212e+00  7.25937555e-01  7.50000000e-01 
 1.89513000e-07  1.05000000e+00  1.39804414e-02  1.51314230e+00  7.25937565e-01  7.50000000e-01 
 1.89517000e-07  4.50000000e-01  2.95546283e-02  1.50092231e+00  7.25937585e-01  7.50000000e-01 
 1.89520000e-07  2.26951791e-12  3.18334404e-02  1.44089673e+00  7.25937600e-01  7.50000000e-01 
 1.89520611e-07  0.00000000e+00  2.74409951e-02  1.42022884e+00  7.25937603e-01  7.50000000e-01 
 1.89521833e-07  0.00000000e+00  1.78697020e-02  1.37824851e+00  7.25937609e-01  7.50000000e-01 
 1.89524276e-07  0.00000000e+00  3.33046947e-03  1.29921109e+00  7.25937621e-01  7.50000000e-01 
 1.89528778e-07  0.00000000e+00 -1.04137794e-02  1.17021912e+00  7.25937644e-01  7.50000000e-01 
 1.89537781e-07  0.00000000e+00 -1.76105631e-02  9.57976695e-01  7.25937689e-01  7.50000000e-01 
 1.89552715e-07  0.00000000e+00 -1.52039694e-02  6.92215542e-01  7.25937764e-01  7.50000000e-01 
 1.89573808e-07  0.00000000e+00  3.50705593e-02  4.30538965e-01  7.25937869e-01  7.50000000e-01 
 1.89596723e-07  0.00000000e+00  1.10606406e-01  2.65584137e-01  7.25937984e-01  7.50000000e-01 
 1.89626055e-07  0.00000000e+00  1.59804395e-01  1.80048422e-01  7.25938130e-01  7.50000000e-01 
 1.89665073e-07  0.00000000e+00  1.68627650e-01  1.51919589e-01  7.25938325e-01  7.50000000e-01 
 1.89703518e-07  0.00000000e+00  1.56220660e-01  1.46965992e-01  7.25938518e-01  7.50000000e-01 
 1.89763312e-07  0.00000000e+00  1.35846245e-01  1.36465394e-01  7.25938817e-01  7.50000000e-01 
 1.89857681e-07  0.00000000e+00  1.09624980e-01  1.12937948e-01  7.25939288e-01  7.50000000e-01 
 1.90046419e-07  0.00000000e+00  6.53940816e-02  6.77170103e-02  7.25940232e-01  7.50000000e-01 
 1.90380616e-07  0.00000000e+00  1.44866689e-02  1.53739166e-02  7.25941903e-01  7.50000000e-01 
 1.91049011e-07  0.00000000e+00 -5.48564449e-04 -5.50641748e-04  7.25945245e-01  7.50000000e-01 
 1.91803932e-07  0.00000000e+00 -1.38995109e-04 -1.45258483e-04  7.25949020e-01  7.50000000e-01 
 1.92601314e-07  0.00000000e+00 -1.66426780e-05 -1.67854766e-05  7.25953007e-01  7.50000000e-01 
 1.93556600e-07  0.00000000e+00 -1.06944307e-05 -1.07776779e-05  7.25957783e-01  7.50000000e-01 
 1.94755395e-07  0.00000000e+00 -3.35876352e-06 -3.43002801e-06  7.25963777e-01  7.50000000e-01 
 1.96811660e-07  0.00000000e+00  6.48896101e-07  6.38305719e-07  7.25974058e-01  7.50000000e-01 
 2.00924190e-07  0.00000000e+00  7.32656667e-07  7.38987158e-07  7.25994621e-01  7.50000000e-01 
 2.08219527e-07  0.00000000e+00  2.03200671e-07  2.04901390e-07  7.26031098e-01  7.50000000e-01 
 2.22642492e-07  0.00000000e+00  1.24266411e-07  1.24165312e-07  7.26103212e-01  7.50000000e-01 
 2.51488421e-07  0.00000000e+00  1.40285270e-07  1.40242862e-07  7.26247442e-01  7.50000000e-01 
 2.52000000e-07  0.00000000e+00  1.41393111e-07  1.41374013e-07  7.26250000e-01  7.50000000e-01 
 2.52001000e-07  1.50000000e-01 -7.15102461e-03 -7.15102440e-03  7.26250005e-01  7.50000000e-01 
 2.52003000e-07  4.50000000e-01 -2.26178907e-02 -2.26178904e-02  7.26250015e-01  7.50000000e-01 
 2.52007000e-07  1.05000000e+00 -5.48344526e-02 -5.48344530e-02  7.26250035e-01  7.50000000e-01 
 2.52010000e-07  1.50000000e+00 -7.28689088e-02 -7.28689194e-02  7.26250050e-01  7.50000000e-01 
 2.52010614e-07  1.50000000e+00 -7.32866664e-02 -7.32866898e-02  7.26250053e-01  7.50000000e-01 
 2.52011842e-07  1.50000000e+00 -7.32215137e-02 -7.32216172e-02  7.26250059e-01  7.50000000e-01 
 2.52014299e-07  1.50000000e+00 -7.29413195e-02 -7.29422631e-02  7.26250071e-01  7.50000000e-01 
 2.52019212e-07  1.50000000e+00 -7.28056088e-02 -7.28100234e-02  7.26250096e-01  7.50000000e-01 
 2.52026127e-07  1.50000000e+00 -7.28490372e-02 -7.28597911e-02  7.26250131e-01  7.50000000e-01 
 2.52037278e-07  1.50000000e+00 -7.29462619e-02 -7.29677407e-02  7.26250186e-01  7.50000000e-01 
 2.52059580e-07  1.50000000e+00 -7.30882971e-02 -7.31310250e-02  7.26250298e-01  7.50000000e-01 
 2.52104185e-07  1.50000000e+00 -7.33450861e-02 -7.34300612e-02  7.26250521e-01  7.50000000e-01 
 2.52193395e-07  1.50000000e+00 -7.38595915e-02 -7.40290262e-02  7.26250967e-01  7.50000000e-01 
 2.52371814e-07  1.50000000e+00 -7.48886558e-02 -7.52263492e-02  7.26251859e-01  7.50000000e-01 
 2.52728652e-07  1.50000000e+00 -7.69275079e-02 -7.75890727e-02  7.26253643e-01  7.50000000e-01 
 2.53442328e-07  1.50000000e+00 -8.03081053e-02 -8.06386536e-02  7.26257212e-01  7.50000000e-01 
 2.54097016e-07  1.50000000e+00 -7.49964355e-02 -5.69237923e-02  7.26260485e-01  7.50000000e-01 
 2.54663686e-07  1.50000000e+00 -2.74576191e-02  7.81992981e-02  7.26263318e-01  7.50000000e-01 
 2.55260741e-07  1.50000000e+00  1.24166187e-01  4.71018037e-01  7.26266304e-01  7.50000000e-01 
 2.55683022e-07  1.50000000e+00  2.34710223e-02  9.04324928e-01  7.26268415e-01  7.50000000e-01 
 2.56070448e-07  1.50000000e+00  2.12136364e-03  1.36270188e+00  7.26270352e-01  7.50000000e-01 
 2.56408094e-07  1.50000000e+00  1.48933731e-04  1.49648204e+00  7.26272040e-01  7.50000000e-01 
 2.56761958e-07  1.50000000e+00 -1.01816985e-04  1.50659968e+00  7.26273810e-01  7.50000000e-01 
 2.57273176e-07  1.50000000e+00 -2.53159399e-05  1.50064537e+00  7.26276366e-01  7.50000000e-01 
 2.57752927e-07  1.50000000e+00  2.04300937e-05  1.49916746e+00  7.26278765e-01  7.50000000e-01 
 2.58712430e-07  1.50000000e+00  3.39210708e-05  1.49923389e+00  7.26283562e-01  7.50000000e-01 
 2.60631434e-07  1.50000000e+00  3.40367921e-05  1.49945883e+00  7.26293157e-01  7.50000000e-01 
 2.62230091e-07  1.50000000e+00  2.78045145e-05  1.49966853e+00  7.26301150e-01  7.50000000e-01 
 2.63962193e-07  1.50000000e+00  2.31305936e-05  1.49988648e+00  7.26309811e-01  7.50000000e-01 
 2.64659939e-07  1.50000000e+00  2.30860825e-05  1.49992894e+00  7.26313300e-01  7.50000000e-01 
 2.65384544e-07  1.50000000e+00  2.14366095e-05  1.49995437e+00  7.26316923e-01  7.50000000e-01 
 2.66165591e-07  1.50000000e+00  1.83623304e-05  1.49997137e+00  7.26320828e-01  7.50000000e-01 
 2.67039924e-07  1.50000000e+00  1.48596287e-05  1.49998279e+00  7.26325200e-01  7.50000000e-01 
 2.67880977e-07  1.50000000e+00  1.19510320e-05  1.49998889e+00  7.26329405e-01  7.50000000e-01 
 2.68983285e-07  1.50000000e+00  9.17290700e-06  1.49999286e+00  7.26334916e-01  7.50000000e-01 
 2.70312519e-07  1.50000000e+00  7.00509861e-06  1.49999486e+00  7.26341563e-01  7.50000000e-01 
 2.72461670e-07  1.50000000e+00  5.00667310e-06  1.49999612e+00  7.26352308e-01  7.50000000e-01 
 2.76078057e-07  1.50000000e+00  3.37155137e-06  1.49999708e+00  7.26370390e-01  7.50000000e-01 
 2.83310830e-07  1.50000000e+00  2.02864019e-06  1.49999805e+00  7.26406554e-01  7.50000000e-01 
 2.97776377e-07  1.50000000e+00  1.11464937e-06  1.49999880e+00  7.26478882e-01  7.50000000e-01 
 3.14510000e-07  1.50000000e+00  7.53858190e-07  1.49999909e+00  7.26562550e-01  7.50000000e-01 
 3.14511000e-07  1.35000000e+00  4.58357896e-03  1.50424211e+00  7.26562555e-01  7.50000000e-01 
 3.14513000e-07  1.05000000e+00  1.39804304e-02  1.51314228e+00  7.26562565e-01  7.50000000e-01 
 3.14517000e-07  4.50000000e-01  2.95545937e-02  1.50092232e+00  7.26562585e-01  7.50000000e-01 
 3.14520000e-07  0.00000000e+00  3.18334043e-02  1.44089685e+00  7.26562600e-01  7.50000000e-01 
 3.14520611e-07  0.00000000e+00  2.74409897e-02  1.42022912e+00  7.26562603e-01  7.50000000e-01 
 3.14521833e-07  0.00000000e+00  1.78697497e-02  1.37824908e+00  7.26562609e-01  7.50000000e-01 
 3.14524276e-07  0.00000000e+00  3.33056836e-03  1.29921218e+00  7.26562621e-01  7.50000000e-01 
 3.14528778e-07  0.00000000e+00 -1.04136970e-02  1.17022068e+00  7.26562644e-01  7.50000000e-01 
 3.14537781e-07  0.00000000e+00 -1.76105554e-02  9.57978484e-01  7.26562689e-01  7.50000000e-01 
 3.14552715e-07  0.00000000e+00 -1.52036250e-02  6.92215568e-01  7.26562764e-01  7.50000000e-01 
 3.14573808e-07  0.00000000e+00  3.50785249e-02  4.30533287e-01  7.26562869e-01  7.50000000e-01 
 3.14596722e-07  0.00000000e+00  1.10609376e-01  2.65584328e-01  7.26562984e-01  7.50000000e-01 
 3.14626061e-07  0.00000000e+00  1.59811710e-01  1.80035545e-01  7.26563130e-01  7.50000000e-01 
 3.14665079e-07  0.00000000e+00  1.68628847e-01  1.51914935e-01  7.26563325e-01  7.50000000e-01 
 3.14703525e-07  0.00000000e+00  1.56220293e-01  1.46963137e-01  7.26563518e-01  7.50000000e-01 
