 time            v(a_1V5)        v(b_3V3)        v(x1t)          v(a_3V3)        v(b_1V5)        v(x2t)         
 0.00000000e+00  0.00000000e+00  1.11353528e-09  3.30000001e+00  0.00000000e+00  1.25448659e-07  1.49999949e+00 
 1.00000000e-12  1.50000000e-03  1.78618973e-08  3.30000915e+00  3.30000000e-03  1.86200509e-07  1.50003100e+00 
 2.00000000e-12  3.00000000e-03  3.20826603e-08  3.30001681e+00  6.60000000e-03  2.20822774e-07  1.50004663e+00 
 4.00000000e-12  6.00000000e-03  5.45920417e-08  3.30002893e+00  1.32000000e-02  2.59850153e-07  1.50006391e+00 
 8.00000000e-12  1.20000000e-02  7.34903569e-08  3.30003915e+00  2.64000000e-02  2.74598490e-07  1.50007124e+00 
 1.60000000e-11  2.40000000e-02  6.67968683e-08  3.30003570e+00  5.28000000e-02  2.60456609e-07  1.50006519e+00 
 3.20000000e-11  4.80000000e-02  2.62144103e-08  3.30001406e+00  1.05600000e-01  1.73488384e-07  1.50002519e+00 
 6.40000000e-11  9.60000000e-02 -1.20314759e-08  3.29999352e+00  2.11200000e-01  8.48997349e-08  1.49998350e+00 
 1.28000000e-10  1.92000000e-01 -1.32265532e-08  3.29999259e+00  4.22400000e-01  9.30162699e-08  1.49998529e+00 
 2.28000000e-10  3.42000000e-01 -3.92184127e-09  3.29999730e+00  7.52400000e-01  1.10601620e-07  1.49999153e+00 
 3.28000000e-10  4.92000000e-01 -9.93609879e-08  3.29994413e+00  1.08240000e+00  2.11631780e-08  1.49994369e+00 
 4.28000000e-10  6.42000000e-01 -4.22632266e-07  3.29976140e+00  1.41240000e+00  8.38340270e-09  1.49992796e+00 
 5.28000000e-10  7.92000000e-01 -1.61092296e-06  3.29908790e+00  1.74240000e+00 -8.49912750e-08  1.49986885e+00 
 6.28000000e-10  9.42000000e-01 -6.19952021e-06  3.29648801e+00  2.07240000e+00 -6.03862404e-07  1.49958063e+00 
 7.28000000e-10  1.09200000e+00  5.11029796e-06  3.30256873e+00  2.40240000e+00  5.65494141e-06  1.50277245e+00 
 7.94218006e-10  1.19132701e+00 -8.15373019e-04  2.85219516e+00  2.62091942e+00  2.69736544e-05  1.51387670e+00 
 8.68502131e-10  1.30275320e+00 -1.38597341e-03  1.94354376e+00  2.86605703e+00  1.56726000e-02  4.20343149e-01 
 9.38848637e-10  1.40827296e+00  5.26856931e-03  1.21104166e+00  3.09820050e+00  6.96901061e-02 -8.87788076e-04 
 1.00000000e-09  1.50000000e+00  2.16733736e-02  4.68243664e-01  3.30000000e+00  1.34442453e-01  1.18841821e-02 
 1.00656360e-09  1.50000000e+00  2.43118325e-02  3.79157219e-01  3.30000000e+00  1.41331676e-01  3.54767130e-03 
 1.01969081e-09  1.50000000e+00  2.99684881e-02  2.31641127e-01  3.30000000e+00  1.55148313e-01  2.31732044e-03 
 1.04594521e-09  1.50000000e+00  4.28883253e-02  8.37584148e-02  3.30000000e+00  1.82691690e-01  2.81370203e-03 
 1.08907296e-09  1.50000000e+00  6.60227015e-02  2.28601481e-02  3.30000000e+00  2.27654595e-01  2.59778496e-04 
 1.13263156e-09  1.50000000e+00  9.00319042e-02  6.04588917e-03  3.30000000e+00  2.72691337e-01  1.08239465e-03 
 1.19295094e-09  1.50000000e+00  1.23508304e-01  6.05151018e-04  3.30000000e+00  3.34309616e-01 -4.37410530e-04 
 1.25599322e-09  1.50000000e+00  1.58522147e-01  5.49499832e-04  3.30000000e+00  3.97746780e-01  6.85061077e-04 
 1.35599322e-09  1.50000000e+00  2.13971801e-01  6.59124649e-05  3.30000000e+00  4.96042073e-01 -4.88772623e-04 
 1.45599322e-09  1.50000000e+00  2.69302300e-01  2.89534786e-04  3.30000000e+00  5.91172554e-01  6.25900908e-04 
 1.55599322e-09  1.50000000e+00  3.24500227e-01  1.38993190e-04  3.30000000e+00  6.82730363e-01 -4.59856585e-04 
 1.65599322e-09  1.50000000e+00  3.79563221e-01  2.46393388e-04  3.30000000e+00  7.70263462e-01  5.90680046e-04 
 1.75599322e-09  1.50000000e+00  4.34482462e-01  1.72548858e-04  3.30000000e+00  8.53222737e-01 -4.33792870e-04 
 1.85599322e-09  1.50000000e+00  4.89252921e-01  2.26800401e-04  3.30000000e+00  9.31094391e-01  5.55516284e-04 
 1.95599322e-09  1.50000000e+00  5.43866223e-01  1.90593427e-04  3.30000000e+00  1.00334632e+00 -4.11474134e-04 
 2.05599322e-09  1.50000000e+00  5.98315620e-01  2.18664090e-04  3.30000000e+00  1.06958427e+00  5.19761842e-04 
 2.15599322e-09  1.50000000e+00  6.52592434e-01  2.01285245e-04  3.30000000e+00  1.12951308e+00 -3.93000553e-04 
 2.25599322e-09  1.50000000e+00  7.06688527e-01  2.16416306e-04  3.30000000e+00  1.18306604e+00  4.83643648e-04 
 2.35599322e-09  1.50000000e+00  7.60594496e-01  2.08587255e-04  3.30000000e+00  1.23033188e+00 -3.77412970e-04 
 2.45599322e-09  1.50000000e+00  8.14300902e-01  2.17362150e-04  3.30000000e+00  1.27161368e+00  4.48436328e-04 
 2.55599322e-09  1.50000000e+00  8.67797340e-01  2.14477752e-04  3.30000000e+00  1.30731687e+00 -3.63080639e-04 
 2.65599322e-09  1.50000000e+00  9.21073049e-01  2.20194516e-04  3.30000000e+00  1.33796422e+00  4.15551619e-04 
 2.75599322e-09  1.50000000e+00  9.74116412e-01  2.19962389e-04  3.30000000e+00  1.36408892e+00 -3.48739823e-04 
 2.85599322e-09  1.50000000e+00  1.02691526e+00  2.24285789e-04  3.30000000e+00  1.38625123e+00  3.85709215e-04 
 2.95599322e-09  1.50000000e+00  1.07945660e+00  2.25562571e-04  3.30000000e+00  1.40496183e+00 -3.33904991e-04 
 3.05599322e-09  1.50000000e+00  1.13172674e+00  2.29339368e-04  3.30000000e+00  1.42071294e+00  3.58931585e-04 
 3.15599322e-09  1.50000000e+00  1.18371115e+00  2.31552645e-04  3.30000000e+00  1.43392697e+00 -3.18620084e-04 
 3.25599322e-09  1.50000000e+00  1.23539451e+00  2.35214826e-04  3.30000000e+00  1.44499558e+00  3.34896415e-04 
 3.35599322e-09  1.50000000e+00  1.28676062e+00  2.38073555e-04  3.30000000e+00  1.45424229e+00 -3.03127222e-04 
 3.45599322e-09  1.50000000e+00  1.33779243e+00  2.41837435e-04  3.30000000e+00  1.46196275e+00  3.13200474e-04 
 3.55599322e-09  1.50000000e+00  1.38847197e+00  2.45184910e-04  3.30000000e+00  1.46839396e+00 -2.87685780e-04 
 3.65599322e-09  1.50000000e+00  1.43878038e+00  2.49148520e-04  3.30000000e+00  1.47375256e+00  2.93472773e-04 
 3.75599322e-09  1.50000000e+00  1.48869786e+00  2.52885985e-04  3.30000000e+00  1.47820733e+00 -2.72509403e-04 
 3.85599322e-09  1.50000000e+00  1.53820371e+00  2.57075551e-04  3.30000000e+00  1.48191443e+00  2.75405131e-04 
 3.95599322e-09  1.50000000e+00  1.58727631e+00  2.61121048e-04  3.30000000e+00  1.48499166e+00 -2.57754643e-04 
 4.05599322e-09  1.50000000e+00  1.63589317e+00  2.65512050e-04  3.30000000e+00  1.48755065e+00  2.58751984e-04 
 4.15599322e-09  1.50000000e+00  1.68403094e+00  2.69777275e-04  3.30000000e+00  1.48967230e+00 -2.43526783e-04 
 4.25599322e-09  1.50000000e+00  1.73166545e+00  2.74303267e-04  3.30000000e+00  1.49143619e+00  2.43320928e-04 
 4.35599322e-09  1.50000000e+00  1.77877183e+00  2.78680339e-04  3.30000000e+00  1.49289707e+00 -2.29890182e-04 
 4.45599322e-09  1.50000000e+00  1.82532451e+00  2.83236705e-04  3.30000000e+00  1.49411178e+00  2.28961573e-04 
 4.55599322e-09  1.50000000e+00  1.87129739e+00  2.87591425e-04  3.30000000e+00  1.49511672e+00 -2.16878637e-04 
 4.65599322e-09  1.50000000e+00  1.91666391e+00  2.92038344e-04  3.30000000e+00  1.49595274e+00  2.15555463e-04 
 4.75599322e-09  1.50000000e+00  1.96139721e+00  2.96208858e-04  3.30000000e+00  1.49664356e+00 -2.04504125e-04 
 4.85599322e-09  1.50000000e+00  2.00547028e+00  3.00376195e-04  3.30000000e+00  1.49721877e+00  2.03007929e-04 
 4.95599322e-09  1.50000000e+00  2.04885610e+00  3.04176931e-04  3.30000000e+00  1.49769336e+00 -1.92763598e-04 
 5.05599322e-09  1.50000000e+00  2.09152790e+00  3.07872708e-04  3.30000000e+00  1.49808909e+00  1.91241866e-04 
 5.15599322e-09  1.50000000e+00  2.13345928e+00  3.11103570e-04  3.30000000e+00  1.49841496e+00 -1.81644013e-04 
 5.25599322e-09  1.50000000e+00  2.17462447e+00  3.14126598e-04  3.30000000e+00  1.49868723e+00  1.80193145e-04 
 5.35599322e-09  1.50000000e+00  2.21499854e+00  3.16586820e-04  3.30000000e+00  1.49891086e+00 -1.71125932e-04 
 5.45599322e-09  1.50000000e+00  2.25455764e+00  3.18742904e-04  3.30000000e+00  1.49909824e+00  1.69807290e-04 
 5.55599322e-09  1.50000000e+00  2.29327918e+00  3.20248070e-04  3.30000000e+00  1.49925161e+00 -1.61186056e-04 
 5.65599322e-09  1.50000000e+00  2.33114210e+00  3.21368018e-04  3.30000000e+00  1.49938063e+00  1.60037104e-04 
 5.75599322e-09  1.50000000e+00  2.36812704e+00  3.21767807e-04  3.30000000e+00  1.49948574e+00 -1.51798965e-04 
 5.85599322e-09  1.50000000e+00  2.40421657e+00  3.21724587e-04  3.30000000e+00  1.49957464e+00  1.50840971e-04 
 5.95599322e-09  1.50000000e+00  2.43939531e+00  3.20918289e-04  3.30000000e+00  1.49964659e+00 -1.42938307e-04 
 6.05599322e-09  1.50000000e+00  2.47365014e+00  3.19640405e-04  3.30000000e+00  1.49970791e+00  1.42181642e-04 
 6.15599322e-09  1.50000000e+00  2.50697028e+00  3.17587398e-04  3.30000000e+00  1.49975710e+00 -1.34577590e-04 
 6.25599322e-09  1.50000000e+00  2.53934740e+00  3.15066109e-04  3.30000000e+00  1.49979945e+00  1.34025374e-04 
 6.35599322e-09  1.50000000e+00  2.57077569e+00  3.11789420e-04  3.30000000e+00  1.49983302e+00 -1.26690703e-04 
 6.45599322e-09  1.50000000e+00  2.60125186e+00  3.08078598e-04  3.30000000e+00  1.49986233e+00  1.26341298e-04 
 6.55599322e-09  1.50000000e+00  2.63077516e+00  3.03661098e-04  3.30000000e+00  1.49988518e+00 -1.19252248e-04 
 6.65599322e-09  1.50000000e+00  2.65934734e+00  2.98870057e-04  3.30000000e+00  1.49990552e+00  1.19100961e-04 
 6.75599322e-09  1.50000000e+00  2.68697259e+00  2.93444336e-04  3.30000000e+00  1.49992101e+00 -1.12237741e-04 
 6.85599322e-09  1.50000000e+00  2.71365743e+00  2.87725308e-04  3.30000000e+00  1.49993518e+00  1.12277985e-04 
 6.95599322e-09  1.50000000e+00  2.73941063e+00  2.81459364e-04  3.30000000e+00  1.49994563e+00 -1.05623730e-04 
 7.05599322e-09  1.50000000e+00  2.76424304e+00  2.74992078e-04  3.30000000e+00  1.49995555e+00  1.05847807e-04 
 7.15599322e-09  1.50000000e+00  2.78816746e+00  2.68073420e-04  3.30000000e+00  1.49996255e+00 -9.93878519e-05 
 7.25599322e-09  1.50000000e+00  2.81119848e+00  2.61049335e-04  3.30000000e+00  1.49996954e+00  9.97874814e-05 
 7.35599322e-09  1.50000000e+00  2.83335229e+00  2.53669876e-04  3.30000000e+00  1.49997418e+00 -9.35088462e-05 
 7.45599322e-09  1.50000000e+00  2.85464652e+00  2.46278158e-04  3.30000000e+00  1.49997914e+00  9.40755219e-05 
 7.55599322e-09  1.50000000e+00  2.87510006e+00  2.38621608e-04  3.30000000e+00  1.49998217e+00 -8.79665505e-05 
 7.65599322e-09  1.50000000e+00  2.89473287e+00  2.31038165e-04  3.30000000e+00  1.49998574e+00  8.86917695e-05 
 7.75599322e-09  1.50000000e+00  2.91356583e+00  2.23270814e-04  3.30000000e+00  1.49998766e+00 -8.27418728e-05 
 7.85599322e-09  1.50000000e+00  2.93162056e+00  2.15650868e-04  3.30000000e+00  1.49999026e+00  8.36172876e-05 
 7.95599322e-09  1.50000000e+00  2.94892181e+00  2.06769501e-04  3.30000000e+00  1.49999144e+00 -7.78169397e-05 
 8.05599322e-09  1.50000000e+00  2.96549187e+00  1.99012678e-04  3.30000000e+00  1.49999336e+00  7.88341068e-05 
 8.15599322e-09  1.50000000e+00  2.98135078e+00  1.91796203e-04  3.30000000e+00  1.49999404e+00 -7.31743054e-05 
 8.25599322e-09  1.50000000e+00  2.99652171e+00  1.84424583e-04  3.30000000e+00  1.49999549e+00  7.43258153e-05 
 8.35599322e-09  1.50000000e+00  3.01102786e+00  1.77310381e-04  3.30000000e+00  1.49999583e+00 -6.87980577e-05 
 8.45599322e-09  1.50000000e+00  3.02489238e+00  1.70271400e-04  3.30000000e+00  1.49999695e+00  7.00764587e-05 
 8.55599322e-09  1.50000000e+00  3.03813827e+00  1.63388267e-04  3.30000000e+00  1.49999706e+00 -6.46729923e-05 
 8.65599322e-09  1.50000000e+00  3.05078828e+00  1.56705240e-04  3.30000000e+00  1.49999795e+00  6.60711807e-05 
 8.75599322e-09  1.50000000e+00  3.06286487e+00  1.50131054e-04  3.30000000e+00  1.49999791e+00 -6.07847576e-05 
 8.85599322e-09  1.50000000e+00  3.07439013e+00  1.43826064e-04  3.30000000e+00  1.49999863e+00  6.22959855e-05 
 8.95599322e-09  1.50000000e+00  3.08538570e+00  1.37607428e-04  3.30000000e+00  1.49999850e+00 -5.71198144e-05 
 9.05599322e-09  1.50000000e+00  3.09587277e+00  1.31695078e-04  3.30000000e+00  1.49999910e+00  5.87376856e-05 
 9.15599322e-09  1.50000000e+00  3.10587204e+00  1.25856935e-04  3.30000000e+00  1.49999890e+00 -5.36653923e-05 
 9.25599322e-09  1.50000000e+00  3.11540365e+00  1.20343133e-04  3.30000000e+00  1.49999941e+00  5.53838527e-05 
 9.35599322e-09  1.50000000e+00  3.12448719e+00  1.14895049e-04  3.30000000e+00  1.49999918e+00 -5.04094477e-05 
 9.45599322e-09  1.50000000e+00  3.13314167e+00  1.09777725e-04  3.30000000e+00  1.49999963e+00  5.22227736e-05 
 9.55599322e-09  1.50000000e+00  3.14138553e+00  1.04718329e-04  3.30000000e+00  1.49999938e+00 -4.73406234e-05 
 9.65599322e-09  1.50000000e+00  3.14923659e+00  9.99888739e-05  3.30000000e+00  1.49999977e+00  4.92434071e-05 
 9.75599322e-09  1.50000000e+00  3.15671208e+00  9.53091161e-05  3.30000000e+00  1.49999952e+00 -4.44482100e-05 
 9.85599322e-09  1.50000000e+00  3.16382865e+00  9.09539515e-05  3.30000000e+00  1.49999987e+00  4.64353459e-05 
 9.95599322e-09  1.50000000e+00  3.17060233e+00  8.66395384e-05  3.30000000e+00  1.49999961e+00 -4.17221099e-05 
 1.00559932e-08  1.50000000e+00  3.17704856e+00  8.26415698e-05  3.30000000e+00  1.49999994e+00  4.37887790e-05 
 1.01559932e-08  1.50000000e+00  3.18318222e+00  7.86747882e-05  3.30000000e+00  1.49999968e+00 -3.91528019e-05 
 1.02559932e-08  1.50000000e+00  3.18901759e+00  7.50146367e-05  3.30000000e+00  1.49999998e+00  4.12944576e-05 
 1.03559932e-08  1.50000000e+00  3.19456839e+00  7.13757179e-05  3.30000000e+00  1.49999973e+00 -3.67313094e-05 
 1.04559932e-08  1.50000000e+00  3.19984781e+00  6.80327102e-05  3.30000000e+00  1.50000000e+00  3.89436628e-05 
 1.05559932e-08  1.50000000e+00  3.20486847e+00  6.47008403e-05  3.30000000e+00  1.49999977e+00 -3.44491688e-05 
 1.06559932e-08  1.50000000e+00  3.20964251e+00  6.16537739e-05  3.30000000e+00  1.50000002e+00  3.67281747e-05 
 1.07559932e-08  1.50000000e+00  3.21418152e+00  5.86078327e-05  3.30000000e+00  1.49999979e+00 -3.22984008e-05 
 1.08559932e-08  1.50000000e+00  3.21849661e+00  5.58355504e-05  3.30000000e+00  1.50000003e+00  3.46402442e-05 
 1.09559932e-08  1.50000000e+00  3.22259843e+00  5.30546404e-05  3.30000000e+00  1.49999981e+00 -3.02714821e-05 
 1.10559932e-08  1.50000000e+00  3.22649713e+00  5.05364457e-05  3.30000000e+00  1.50000004e+00  3.26725657e-05 
 1.11559932e-08  1.50000000e+00  3.23020245e+00  4.80002632e-05  3.30000000e+00  1.49999983e+00 -2.83613200e-05 
 1.12559932e-08  1.50000000e+00  3.23372368e+00  4.57162103e-05  3.30000000e+00  1.50000004e+00  3.08182519e-05 
 1.13559932e-08  1.50000000e+00  3.23706969e+00  4.34052938e-05  3.30000000e+00  1.49999984e+00 -2.65612275e-05 
 1.14559932e-08  1.50000000e+00  3.24024896e+00  4.13363789e-05  3.30000000e+00  1.50000004e+00  2.90708094e-05 
 1.15559932e-08  1.50000000e+00  3.24326958e+00  3.92322677e-05  3.30000000e+00  1.49999985e+00 -2.48649004e-05 
 1.16559932e-08  1.50000000e+00  3.24613927e+00  3.73605459e-05  3.30000000e+00  1.50000004e+00  2.74241168e-05 
 1.17559932e-08  1.50000000e+00  3.24886539e+00  3.54458689e-05  3.30000000e+00  1.49999986e+00 -2.32663948e-05 
 1.18559932e-08  1.50000000e+00  3.25145497e+00  3.37545140e-05  3.30000000e+00  1.50000003e+00  2.58724027e-05 
 1.19559932e-08  1.50000000e+00  3.25391469e+00  3.20130303e-05  3.30000000e+00  1.49999986e+00 -2.17601073e-05 
 1.20559932e-08  1.50000000e+00  3.25625096e+00  3.04863549e-05  3.30000000e+00  1.50000003e+00  2.44102261e-05 
 1.21559932e-08  1.50000000e+00  3.25846984e+00  2.89029581e-05  3.30000000e+00  1.49999987e+00 -2.03407548e-05 
 1.22559932e-08  1.50000000e+00  3.26057712e+00  2.75264023e-05  3.30000000e+00  1.50000003e+00  2.30324576e-05 
 1.23559932e-08  1.50000000e+00  3.26257833e+00  2.60871000e-05  3.30000000e+00  1.49999988e+00 -1.90033568e-05 
 1.24559932e-08  1.50000000e+00  3.26447872e+00  2.48472029e-05  3.30000000e+00  1.50000002e+00  2.17342609e-05 
 1.25559932e-08  1.50000000e+00  3.26628330e+00  2.35390794e-05  3.30000000e+00  1.49999988e+00 -1.77432177e-05 
 1.26559932e-08  1.50000000e+00  3.26799681e+00  2.24234342e-05  3.30000000e+00  1.50000002e+00  2.05110768e-05 
 1.27559932e-08  1.50000000e+00  3.26962381e+00  2.12346028e-05  3.30000000e+00  1.49999988e+00 -1.65559105e-05 
 1.28559932e-08  1.50000000e+00  3.27116860e+00  2.02318053e-05  3.30000000e+00  1.50000002e+00  1.93586070e-05 
 1.29559932e-08  1.50000000e+00  3.27263528e+00  1.91513529e-05  3.30000000e+00  1.49999989e+00 -1.54372617e-05 
 1.30559932e-08  1.50000000e+00  3.27402775e+00  1.82509450e-05  3.30000000e+00  1.50000001e+00  1.82727990e-05 
 1.31559932e-08  1.50000000e+00  3.27534974e+00  1.72688743e-05  3.30000000e+00  1.49999989e+00 -1.43833366e-05 
 1.32559932e-08  1.50000000e+00  3.27660477e+00  1.64612842e-05  3.30000000e+00  1.50000001e+00  1.72498325e-05 
 1.33559932e-08  1.50000000e+00  3.27779621e+00  1.55684540e-05  3.30000000e+00  1.49999990e+00 -1.33904255e-05 
 1.34559932e-08  1.50000000e+00  3.27892723e+00  1.48449364e-05  3.30000000e+00  1.50000001e+00  1.62861055e-05 
 1.35559932e-08  1.50000000e+00  3.28000089e+00  1.40330021e-05  3.30000000e+00  1.49999990e+00 -1.24550314e-05 
 1.36559932e-08  1.50000000e+00  3.28102006e+00  1.33855798e-05  3.30000000e+00  1.50000001e+00  1.53782224e-05 
 1.37559932e-08  1.50000000e+00  3.28198749e+00  1.26469349e-05  3.30000000e+00  1.49999990e+00 -1.15738569e-05 
 1.38559932e-08  1.50000000e+00  3.28290578e+00  1.20683406e-05  3.30000000e+00  1.50000000e+00  1.45229818e-05 
 1.39559932e-08  1.50000000e+00  3.28377742e+00  1.13960610e-05  3.30000000e+00  1.49999990e+00 -1.07437938e-05 
 1.40559932e-08  1.50000000e+00  3.28460476e+00  1.08796828e-05  3.30000000e+00  1.50000000e+00  1.37173656e-05 
 1.41559932e-08  1.50000000e+00  3.28539003e+00  1.02674722e-05  3.30000000e+00  1.49999991e+00 -9.96191153e-06 
 1.42559932e-08  1.50000000e+00  3.28613537e+00  9.80730091e-06  3.30000000e+00  1.50000000e+00  1.29585284e-05 
 1.43559932e-08  1.50000000e+00  3.28684278e+00  9.24944037e-06  3.30000000e+00  1.49999991e+00 -9.22544729e-06 
 1.44559932e-08  1.50000000e+00  3.28751420e+00  8.84001979e-06  3.30000000e+00  1.50000000e+00  1.22437876e-05 
 1.45559932e-08  1.50000000e+00  3.28815144e+00  8.33131920e-06  3.30000000e+00  1.49999991e+00 -8.53179642e-06 
 1.46559932e-08  1.50000000e+00  3.28875623e+00  7.96769974e-06  3.30000000e+00  1.49999999e+00  1.15706142e-05 
 1.47559932e-08  1.50000000e+00  3.28933022e+00  7.50345329e-06  3.30000000e+00  1.49999991e+00 -7.87850335e-06 
 1.48559932e-08  1.50000000e+00  3.28987497e+00  7.18114811e-06  3.30000000e+00  1.49999999e+00  1.09366240e-05 
 1.49559932e-08  1.50000000e+00  3.29039196e+00  6.75709181e-06  3.30000000e+00  1.49999992e+00 -7.26325304e-06 
 1.50559932e-08  1.50000000e+00  3.29088261e+00  6.47203702e-06  3.30000000e+00  1.49999999e+00  1.03395691e-05 
 1.51559932e-08  1.50000000e+00  3.29134824e+00  6.08430998e-06  3.30000000e+00  1.49999992e+00 -6.68386295e-06 
 1.52559932e-08  1.50000000e+00  3.29179014e+00  5.83282638e-06  3.30000000e+00  1.49999999e+00  9.77733040e-06 
 1.53559932e-08  1.50000000e+00  3.29220950e+00  5.47793481e-06  3.30000000e+00  1.49999992e+00 -6.13827548e-06 
 1.54559932e-08  1.50000000e+00  3.29260748e+00  5.25669390e-06  3.30000000e+00  1.49999999e+00  9.24791009e-06 
 1.55559932e-08  1.50000000e+00  3.29298515e+00  4.93147779e-06  3.30000000e+00  1.49999992e+00 -5.62455080e-06 
 1.56559932e-08  1.50000000e+00  3.29334356e+00  4.73746942e-06  3.30000000e+00  1.49999998e+00  8.74942465e-06 
 1.57559932e-08  1.50000000e+00  3.29368367e+00  4.43907227e-06  3.30000000e+00  1.49999992e+00 -5.14086012e-06 
 1.58559932e-08  1.50000000e+00  3.29400644e+00  4.26957561e-06  3.30000000e+00  1.49999998e+00  8.28009842e-06 
 1.59559932e-08  1.50000000e+00  3.29431272e+00  3.99541612e-06  3.30000000e+00  1.49999992e+00 -4.68547933e-06 
 1.60559932e-08  1.50000000e+00  3.29460338e+00  3.84797288e-06  3.30000000e+00  1.49999998e+00  7.83825736e-06 
 1.61559932e-08  1.50000000e+00  3.29487919e+00  3.59571923e-06  3.30000000e+00  1.49999992e+00 -4.25678302e-06 
