 frequency       v(Aol_dB)       v(Aol_arg)     
 1.00000000e-02  3.81506339e+01 -3.33167841e-04 
 1.02305973e-02  3.81506339e+01 -3.40850602e-04 
 1.04665121e-02  3.81506339e+01 -3.48710524e-04 
 1.07078670e-02  3.81506339e+01 -3.56751695e-04 
 1.09547876e-02  3.81506339e+01 -3.64978293e-04 
 1.12074020e-02  3.81506339e+01 -3.73394593e-04 
 1.14658417e-02  3.81506339e+01 -3.82004972e-04 
 1.17302409e-02  3.81506339e+01 -3.90813903e-04 
 1.20007371e-02  3.81506339e+01 -3.99825966e-04 
 1.22774708e-02  3.81506339e+01 -4.09045845e-04 
 1.25605860e-02  3.81506339e+01 -4.18478332e-04 
 1.28502297e-02  3.81506339e+01 -4.28128329e-04 
 1.31465525e-02  3.81506339e+01 -4.38000853e-04 
 1.34497085e-02  3.81506339e+01 -4.48101034e-04 
 1.37598551e-02  3.81506339e+01 -4.58434123e-04 
 1.40771537e-02  3.81506339e+01 -4.69005490e-04 
 1.44017690e-02  3.81506339e+01 -4.79820630e-04 
 1.47338699e-02  3.81506339e+01 -4.90885164e-04 
 1.50736290e-02  3.81506339e+01 -5.02204843e-04 
 1.54212228e-02  3.81506339e+01 -5.13785551e-04 
 1.57768320e-02  3.81506339e+01 -5.25633307e-04 
 1.61406415e-02  3.81506339e+01 -5.37754269e-04 
 1.65128404e-02  3.81506339e+01 -5.50154737e-04 
 1.68936220e-02  3.81506339e+01 -5.62841157e-04 
 1.72831844e-02  3.81506339e+01 -5.75820122e-04 
 1.76817299e-02  3.81506339e+01 -5.89098378e-04 
 1.80894658e-02  3.81506339e+01 -6.02682828e-04 
 1.85066040e-02  3.81506339e+01 -6.16580531e-04 
 1.89333613e-02  3.81506339e+01 -6.30798712e-04 
 1.93699595e-02  3.81506339e+01 -6.45344759e-04 
 1.98166255e-02  3.81506339e+01 -6.60226235e-04 
 2.02735916e-02  3.81506339e+01 -6.75450874e-04 
 2.07410951e-02  3.81506339e+01 -6.91026588e-04 
 2.12193792e-02  3.81506339e+01 -7.06961475e-04 
 2.17086923e-02  3.81506339e+01 -7.23263816e-04 
 2.22092889e-02  3.81506339e+01 -7.39942084e-04 
 2.27214291e-02  3.81506339e+01 -7.57004948e-04 
 2.32453791e-02  3.81506339e+01 -7.74461278e-04 
 2.37814113e-02  3.81506339e+01 -7.92320146e-04 
 2.43298042e-02  3.81506339e+01 -8.10590834e-04 
 2.48908429e-02  3.81506339e+01 -8.29282840e-04 
 2.54648190e-02  3.81506339e+01 -8.48405878e-04 
 2.60520309e-02  3.81506339e+01 -8.67969888e-04 
 2.66527837e-02  3.81506339e+01 -8.87985040e-04 
 2.72673897e-02  3.81506339e+01 -9.08461735e-04 
 2.78961683e-02  3.81506339e+01 -9.29410617e-04 
 2.85394464e-02  3.81506339e+01 -9.50842575e-04 
 2.91975583e-02  3.81506339e+01 -9.72768747e-04 
 2.98708461e-02  3.81506339e+01 -9.95200532e-04 
 3.05596598e-02  3.81506339e+01 -1.01814959e-03 
 3.12643573e-02  3.81506339e+01 -1.04162784e-03 
 3.19853049e-02  3.81506339e+01 -1.06564750e-03 
 3.27228774e-02  3.81506339e+01 -1.09022104e-03 
 3.34774581e-02  3.81506339e+01 -1.11536124e-03 
 3.42494392e-02  3.81506339e+01 -1.14108117e-03 
 3.50392221e-02  3.81506339e+01 -1.16739420e-03 
 3.58472171e-02  3.81506339e+01 -1.19431399e-03 
 3.66738442e-02  3.81506339e+01 -1.22185455e-03 
 3.75195331e-02  3.81506339e+01 -1.25003019e-03 
 3.83847234e-02  3.81506339e+01 -1.27885554e-03 
 3.92698648e-02  3.81506339e+01 -1.30834561e-03 
 4.01754173e-02  3.81506339e+01 -1.33851570e-03 
 4.11018515e-02  3.81506339e+01 -1.36938151e-03 
 4.20496491e-02  3.81506339e+01 -1.40095908e-03 
 4.30193027e-02  3.81506339e+01 -1.43326482e-03 
 4.40113162e-02  3.81506339e+01 -1.46631552e-03 
 4.50262052e-02  3.81506339e+01 -1.50012836e-03 
 4.60644974e-02  3.81506339e+01 -1.53472091e-03 
 4.71267322e-02  3.81506339e+01 -1.57011116e-03 
 4.82134619e-02  3.81506339e+01 -1.60631750e-03 
 4.93252513e-02  3.81506339e+01 -1.64335875e-03 
 5.04626783e-02  3.81506339e+01 -1.68125416e-03 
 5.16263340e-02  3.81506339e+01 -1.72002343e-03 
 5.28168234e-02  3.81506339e+01 -1.75968670e-03 
 5.40347650e-02  3.81506339e+01 -1.80026460e-03 
 5.52807921e-02  3.81506339e+01 -1.84177822e-03 
 5.65555523e-02  3.81506338e+01 -1.88424912e-03 
 5.78597080e-02  3.81506338e+01 -1.92769940e-03 
 5.91939372e-02  3.81506338e+01 -1.97215163e-03 
 6.05589334e-02  3.81506338e+01 -2.01762891e-03 
 6.19554061e-02  3.81506338e+01 -2.06415489e-03 
 6.33840810e-02  3.81506338e+01 -2.11175374e-03 
 6.48457008e-02  3.81506338e+01 -2.16045021e-03 
 6.63410251e-02  3.81506338e+01 -2.21026961e-03 
 6.78708313e-02  3.81506338e+01 -2.26123783e-03 
 6.94359143e-02  3.81506338e+01 -2.31338137e-03 
 7.10370877e-02  3.81506338e+01 -2.36672731e-03 
 7.26751838e-02  3.81506338e+01 -2.42130341e-03 
 7.43510539e-02  3.81506338e+01 -2.47713801e-03 
 7.60655691e-02  3.81506338e+01 -2.53426014e-03 
 7.78196206e-02  3.81506338e+01 -2.59269950e-03 
 7.96141200e-02  3.81506338e+01 -2.65248645e-03 
 8.14500001e-02  3.81506338e+01 -2.71365207e-03 
 8.33282151e-02  3.81506338e+01 -2.77622815e-03 
 8.52497412e-02  3.81506338e+01 -2.84024722e-03 
 8.72155772e-02  3.81506338e+01 -2.90574256e-03 
 8.92267449e-02  3.81506338e+01 -2.97274819e-03 
 9.12842895e-02  3.81506338e+01 -3.04129896e-03 
 9.33892805e-02  3.81506338e+01 -3.11143050e-03 
 9.55428121e-02  3.81506338e+01 -3.18317924e-03 
 9.77460036e-02  3.81506338e+01 -3.25658250e-03 
 1.00000000e-01  3.81506338e+01 -3.33167841e-03 
 1.02305973e-01  3.81506338e+01 -3.40850601e-03 
 1.04665121e-01  3.81506338e+01 -3.48710524e-03 
 1.07078670e-01  3.81506338e+01 -3.56751694e-03 
 1.09547876e-01  3.81506338e+01 -3.64978292e-03 
 1.12074020e-01  3.81506338e+01 -3.73394593e-03 
 1.14658417e-01  3.81506338e+01 -3.82004971e-03 
 1.17302409e-01  3.81506338e+01 -3.90813903e-03 
 1.20007371e-01  3.81506338e+01 -3.99825966e-03 
 1.22774708e-01  3.81506338e+01 -4.09045844e-03 
 1.25605860e-01  3.81506338e+01 -4.18478331e-03 
 1.28502297e-01  3.81506338e+01 -4.28128328e-03 
 1.31465525e-01  3.81506338e+01 -4.38000852e-03 
 1.34497085e-01  3.81506338e+01 -4.48101033e-03 
 1.37598551e-01  3.81506338e+01 -4.58434122e-03 
 1.40771537e-01  3.81506338e+01 -4.69005489e-03 
 1.44017690e-01  3.81506338e+01 -4.79820629e-03 
 1.47338699e-01  3.81506338e+01 -4.90885163e-03 
 1.50736290e-01  3.81506338e+01 -5.02204842e-03 
 1.54212228e-01  3.81506338e+01 -5.13785550e-03 
 1.57768320e-01  3.81506338e+01 -5.25633306e-03 
 1.61406415e-01  3.81506338e+01 -5.37754268e-03 
 1.65128404e-01  3.81506338e+01 -5.50154736e-03 
 1.68936220e-01  3.81506338e+01 -5.62841155e-03 
 1.72831844e-01  3.81506338e+01 -5.75820120e-03 
 1.76817299e-01  3.81506338e+01 -5.89098376e-03 
 1.80894658e-01  3.81506338e+01 -6.02682826e-03 
 1.85066040e-01  3.81506338e+01 -6.16580529e-03 
 1.89333613e-01  3.81506338e+01 -6.30798709e-03 
 1.93699595e-01  3.81506338e+01 -6.45344757e-03 
 1.98166255e-01  3.81506338e+01 -6.60226232e-03 
 2.02735916e-01  3.81506338e+01 -6.75450871e-03 
 2.07410951e-01  3.81506338e+01 -6.91026585e-03 
 2.12193792e-01  3.81506338e+01 -7.06961472e-03 
 2.17086923e-01  3.81506338e+01 -7.23263812e-03 
 2.22092889e-01  3.81506338e+01 -7.39942080e-03 
 2.27214291e-01  3.81506338e+01 -7.57004944e-03 
 2.32453791e-01  3.81506338e+01 -7.74461273e-03 
 2.37814113e-01  3.81506338e+01 -7.92320141e-03 
 2.43298042e-01  3.81506338e+01 -8.10590829e-03 
 2.48908429e-01  3.81506338e+01 -8.29282834e-03 
 2.54648190e-01  3.81506338e+01 -8.48405872e-03 
 2.60520309e-01  3.81506338e+01 -8.67969882e-03 
 2.66527837e-01  3.81506338e+01 -8.87985033e-03 
 2.72673897e-01  3.81506337e+01 -9.08461727e-03 
 2.78961683e-01  3.81506337e+01 -9.29410609e-03 
 2.85394464e-01  3.81506337e+01 -9.50842566e-03 
 2.91975583e-01  3.81506337e+01 -9.72768739e-03 
 2.98708461e-01  3.81506337e+01 -9.95200522e-03 
 3.05596598e-01  3.81506337e+01 -1.01814958e-02 
 3.12643573e-01  3.81506337e+01 -1.04162783e-02 
 3.19853049e-01  3.81506337e+01 -1.06564749e-02 
 3.27228774e-01  3.81506337e+01 -1.09022103e-02 
 3.34774581e-01  3.81506337e+01 -1.11536123e-02 
 3.42494392e-01  3.81506337e+01 -1.14108116e-02 
 3.50392221e-01  3.81506337e+01 -1.16739418e-02 
 3.58472171e-01  3.81506337e+01 -1.19431398e-02 
 3.66738442e-01  3.81506337e+01 -1.22185453e-02 
 3.75195331e-01  3.81506337e+01 -1.25003017e-02 
 3.83847234e-01  3.81506336e+01 -1.27885552e-02 
 3.92698648e-01  3.81506336e+01 -1.30834559e-02 
 4.01754173e-01  3.81506336e+01 -1.33851568e-02 
 4.11018515e-01  3.81506336e+01 -1.36938149e-02 
 4.20496491e-01  3.81506336e+01 -1.40095906e-02 
 4.30193027e-01  3.81506336e+01 -1.43326479e-02 
 4.40113162e-01  3.81506336e+01 -1.46631549e-02 
 4.50262052e-01  3.81506336e+01 -1.50012833e-02 
 4.60644974e-01  3.81506336e+01 -1.53472088e-02 
 4.71267322e-01  3.81506335e+01 -1.57011113e-02 
 4.82134619e-01  3.81506335e+01 -1.60631746e-02 
 4.93252513e-01  3.81506335e+01 -1.64335871e-02 
 5.04626783e-01  3.81506335e+01 -1.68125411e-02 
 5.16263340e-01  3.81506335e+01 -1.72002338e-02 
 5.28168234e-01  3.81506335e+01 -1.75968665e-02 
 5.40347650e-01  3.81506334e+01 -1.80026454e-02 
 5.52807921e-01  3.81506334e+01 -1.84177816e-02 
 5.65555523e-01  3.81506334e+01 -1.88424906e-02 
 5.78597080e-01  3.81506334e+01 -1.92769933e-02 
 5.91939372e-01  3.81506334e+01 -1.97215155e-02 
 6.05589334e-01  3.81506333e+01 -2.01762883e-02 
 6.19554061e-01  3.81506333e+01 -2.06415480e-02 
 6.33840810e-01  3.81506333e+01 -2.11175365e-02 
 6.48457008e-01  3.81506333e+01 -2.16045012e-02 
 6.63410251e-01  3.81506332e+01 -2.21026951e-02 
 6.78708313e-01  3.81506332e+01 -2.26123772e-02 
 6.94359143e-01  3.81506332e+01 -2.31338125e-02 
 7.10370877e-01  3.81506331e+01 -2.36672719e-02 
 7.26751838e-01  3.81506331e+01 -2.42130327e-02 
 7.43510539e-01  3.81506331e+01 -2.47713786e-02 
 7.60655691e-01  3.81506330e+01 -2.53425999e-02 
 7.78196206e-01  3.81506330e+01 -2.59269933e-02 
 7.96141200e-01  3.81506329e+01 -2.65248627e-02 
 8.14500001e-01  3.81506329e+01 -2.71365187e-02 
 8.33282151e-01  3.81506329e+01 -2.77622794e-02 
 8.52497412e-01  3.81506328e+01 -2.84024700e-02 
 8.72155772e-01  3.81506328e+01 -2.90574232e-02 
 8.92267449e-01  3.81506327e+01 -2.97274794e-02 
 9.12842895e-01  3.81506327e+01 -3.04129869e-02 
 9.33892805e-01  3.81506326e+01 -3.11143021e-02 
 9.55428121e-01  3.81506325e+01 -3.18317893e-02 
 9.77460036e-01  3.81506325e+01 -3.25658216e-02 
 1.00000000e+00  3.81506324e+01 -3.33167805e-02 
 1.02305973e+00  3.81506324e+01 -3.40850563e-02 
 1.04665121e+00  3.81506323e+01 -3.48710483e-02 
 1.07078670e+00  3.81506322e+01 -3.56751651e-02 
 1.09547876e+00  3.81506321e+01 -3.64978245e-02 
 1.12074020e+00  3.81506321e+01 -3.73394543e-02 
 1.14658417e+00  3.81506320e+01 -3.82004917e-02 
 1.17302409e+00  3.81506319e+01 -3.90813845e-02 
 1.20007371e+00  3.81506318e+01 -3.99825904e-02 
 1.22774708e+00  3.81506317e+01 -4.09045778e-02 
 1.25605860e+00  3.81506316e+01 -4.18478260e-02 
 1.28502297e+00  3.81506315e+01 -4.28128253e-02 
 1.31465525e+00  3.81506314e+01 -4.38000771e-02 
 1.34497085e+00  3.81506313e+01 -4.48100946e-02 
 1.37598551e+00  3.81506311e+01 -4.58434029e-02 
 1.40771537e+00  3.81506310e+01 -4.69005389e-02 
 1.44017690e+00  3.81506309e+01 -4.79820522e-02 
 1.47338699e+00  3.81506307e+01 -4.90885048e-02 
 1.50736290e+00  3.81506306e+01 -5.02204719e-02 
 1.54212228e+00  3.81506305e+01 -5.13785419e-02 
 1.57768320e+00  3.81506303e+01 -5.25633165e-02 
 1.61406415e+00  3.81506301e+01 -5.37754117e-02 
 1.65128404e+00  3.81506300e+01 -5.50154575e-02 
 1.68936220e+00  3.81506298e+01 -5.62840983e-02 
 1.72831844e+00  3.81506296e+01 -5.75819936e-02 
 1.76817299e+00  3.81506294e+01 -5.89098179e-02 
 1.80894658e+00  3.81506292e+01 -6.02682614e-02 
 1.85066040e+00  3.81506290e+01 -6.16580302e-02 
 1.89333613e+00  3.81506287e+01 -6.30798467e-02 
 1.93699595e+00  3.81506285e+01 -6.45344497e-02 
 1.98166255e+00  3.81506282e+01 -6.60225954e-02 
 2.02735916e+00  3.81506280e+01 -6.75450573e-02 
 2.07410951e+00  3.81506277e+01 -6.91026267e-02 
 2.12193792e+00  3.81506274e+01 -7.06961130e-02 
 2.17086923e+00  3.81506271e+01 -7.23263446e-02 
 2.22092889e+00  3.81506268e+01 -7.39941688e-02 
 2.27214291e+00  3.81506265e+01 -7.57004525e-02 
 2.32453791e+00  3.81506261e+01 -7.74460825e-02 
 2.37814113e+00  3.81506258e+01 -7.92319660e-02 
 2.43298042e+00  3.81506254e+01 -8.10590315e-02 
 2.48908429e+00  3.81506250e+01 -8.29282283e-02 
 2.54648190e+00  3.81506246e+01 -8.48405282e-02 
 2.60520309e+00  3.81506241e+01 -8.67969250e-02 
 2.66527837e+00  3.81506237e+01 -8.87984356e-02 
 2.72673897e+00  3.81506232e+01 -9.08461003e-02 
 2.78961683e+00  3.81506227e+01 -9.29409834e-02 
 2.85394464e+00  3.81506222e+01 -9.50841736e-02 
 2.91975583e+00  3.81506217e+01 -9.72767849e-02 
 2.98708461e+00  3.81506211e+01 -9.95199570e-02 
 3.05596598e+00  3.81506205e+01 -1.01814856e-01 
 3.12643573e+00  3.81506199e+01 -1.04162674e-01 
 3.19853049e+00  3.81506192e+01 -1.06564632e-01 
 3.27228774e+00  3.81506185e+01 -1.09021978e-01 
 3.34774581e+00  3.81506178e+01 -1.11535989e-01 
 3.42494392e+00  3.81506171e+01 -1.14107972e-01 
 3.50392221e+00  3.81506163e+01 -1.16739264e-01 
 3.58472171e+00  3.81506155e+01 -1.19431233e-01 
 3.66738442e+00  3.81506146e+01 -1.22185277e-01 
 3.75195331e+00  3.81506137e+01 -1.25002828e-01 
 3.83847234e+00  3.81506128e+01 -1.27885350e-01 
 3.92698648e+00  3.81506118e+01 -1.30834342e-01 
 4.01754173e+00  3.81506108e+01 -1.33851336e-01 
 4.11018515e+00  3.81506097e+01 -1.36937901e-01 
 4.20496491e+00  3.81506086e+01 -1.40095640e-01 
 4.30193027e+00  3.81506074e+01 -1.43326195e-01 
 4.40113162e+00  3.81506061e+01 -1.46631244e-01 
 4.50262052e+00  3.81506048e+01 -1.50012507e-01 
 4.60644974e+00  3.81506035e+01 -1.53471739e-01 
 4.71267322e+00  3.81506021e+01 -1.57010739e-01 
 4.82134619e+00  3.81506006e+01 -1.60631346e-01 
 4.93252513e+00  3.81505990e+01 -1.64335442e-01 
 5.04626783e+00  3.81505974e+01 -1.68124952e-01 
 5.16263340e+00  3.81505957e+01 -1.72001846e-01 
 5.28168234e+00  3.81505939e+01 -1.75968138e-01 
 5.40347650e+00  3.81505921e+01 -1.80025891e-01 
 5.52807921e+00  3.81505901e+01 -1.84177212e-01 
 5.65555523e+00  3.81505881e+01 -1.88424260e-01 
 5.78597080e+00  3.81505860e+01 -1.92769241e-01 
 5.91939372e+00  3.81505837e+01 -1.97214414e-01 
 6.05589334e+00  3.81505814e+01 -2.01762090e-01 
 6.19554061e+00  3.81505789e+01 -2.06414631e-01 
 6.33840810e+00  3.81505764e+01 -2.11174455e-01 
 6.48457008e+00  3.81505737e+01 -2.16044037e-01 
 6.63410251e+00  3.81505709e+01 -2.21025908e-01 
 6.78708313e+00  3.81505679e+01 -2.26122655e-01 
 6.94359143e+00  3.81505649e+01 -2.31336929e-01 
 7.10370877e+00  3.81505617e+01 -2.36671438e-01 
 7.26751838e+00  3.81505583e+01 -2.42128956e-01 
 7.43510539e+00  3.81505548e+01 -2.47712318e-01 
 7.60655691e+00  3.81505511e+01 -2.53424426e-01 
 7.78196206e+00  3.81505472e+01 -2.59268249e-01 
 7.96141200e+00  3.81505432e+01 -2.65246824e-01 
 8.14500001e+00  3.81505389e+01 -2.71363257e-01 
 8.33282151e+00  3.81505345e+01 -2.77620727e-01 
 8.52497412e+00  3.81505299e+01 -2.84022487e-01 
 8.72155772e+00  3.81505250e+01 -2.90571862e-01 
 8.92267449e+00  3.81505199e+01 -2.97272256e-01 
 9.12842895e+00  3.81505146e+01 -3.04127152e-01 
 9.33892805e+00  3.81505091e+01 -3.11140111e-01 
 9.55428121e+00  3.81505032e+01 -3.18314777e-01 
 9.77460036e+00  3.81504972e+01 -3.25654880e-01 
 1.00000000e+01  3.81504908e+01 -3.33164233e-01 
 1.02305973e+01  3.81504841e+01 -3.40846738e-01 
 1.04665121e+01  3.81504771e+01 -3.48706387e-01 
 1.07078670e+01  3.81504698e+01 -3.56747264e-01 
 1.09547876e+01  3.81504622e+01 -3.64973549e-01 
 1.12074020e+01  3.81504541e+01 -3.73389514e-01 
 1.14658417e+01  3.81504458e+01 -3.81999532e-01 
 1.17302409e+01  3.81504370e+01 -3.90808079e-01 
 1.20007371e+01  3.81504278e+01 -3.99819730e-01 
 1.22774708e+01  3.81504182e+01 -4.09039167e-01 
 1.25605860e+01  3.81504081e+01 -4.18471181e-01 
 1.28502297e+01  3.81503976e+01 -4.28120672e-01 
 1.31465525e+01  3.81503866e+01 -4.37992653e-01 
 1.34497085e+01  3.81503750e+01 -4.48092254e-01 
 1.37598551e+01  3.81503630e+01 -4.58424722e-01 
 1.40771537e+01  3.81503503e+01 -4.68995423e-01 
 1.44017690e+01  3.81503371e+01 -4.79809851e-01 
 1.47338699e+01  3.81503233e+01 -4.90873622e-01 
 1.50736290e+01  3.81503088e+01 -5.02192484e-01 
 1.54212228e+01  3.81502936e+01 -5.13772317e-01 
 1.57768320e+01  3.81502777e+01 -5.25619136e-01 
 1.61406415e+01  3.81502611e+01 -5.37739095e-01 
 1.65128404e+01  3.81502437e+01 -5.50138490e-01 
 1.68936220e+01  3.81502255e+01 -5.62823759e-01 
 1.72831844e+01  3.81502065e+01 -5.75801493e-01 
 1.76817299e+01  3.81501866e+01 -5.89078430e-01 
 1.80894658e+01  3.81501657e+01 -6.02661468e-01 
 1.85066040e+01  3.81501439e+01 -6.16557659e-01 
 1.89333613e+01  3.81501210e+01 -6.30774221e-01 
 1.93699595e+01  3.81500971e+01 -6.45318535e-01 
 1.98166255e+01  3.81500720e+01 -6.60198155e-01 
 2.02735916e+01  3.81500458e+01 -6.75420806e-01 
 2.07410951e+01  3.81500184e+01 -6.90994392e-01 
 2.12193792e+01  3.81499897e+01 -7.06926999e-01 
 2.17086923e+01  3.81499596e+01 -7.23226900e-01 
 2.22092889e+01  3.81499282e+01 -7.39902555e-01 
 2.27214291e+01  3.81498953e+01 -7.56962622e-01 
 2.32453791e+01  3.81498608e+01 -7.74415955e-01 
 2.37814113e+01  3.81498248e+01 -7.92271615e-01 
 2.43298042e+01  3.81497870e+01 -8.10538869e-01 
 2.48908429e+01  3.81497475e+01 -8.29227196e-01 
 2.54648190e+01  3.81497062e+01 -8.48346296e-01 
 2.60520309e+01  3.81496629e+01 -8.67906089e-01 
 2.66527837e+01  3.81496176e+01 -8.87916724e-01 
 2.72673897e+01  3.81495702e+01 -9.08388584e-01 
 2.78961683e+01  3.81495206e+01 -9.29332289e-01 
 2.85394464e+01  3.81494686e+01 -9.50758703e-01 
 2.91975583e+01  3.81494143e+01 -9.72678939e-01 
 2.98708461e+01  3.81493574e+01 -9.95104367e-01 
 3.05596598e+01  3.81492979e+01 -1.01804662e+00 
 3.12643573e+01  3.81492356e+01 -1.04151758e+00 
 3.19853049e+01  3.81491703e+01 -1.06552944e+00 
 3.27228774e+01  3.81491021e+01 -1.09009462e+00 
 3.34774581e+01  3.81490306e+01 -1.11522588e+00 
 3.42494392e+01  3.81489559e+01 -1.14093623e+00 
 3.50392221e+01  3.81488776e+01 -1.16723899e+00 
 3.58472171e+01  3.81487957e+01 -1.19414780e+00 
 3.66738442e+01  3.81487099e+01 -1.22167660e+00 
 3.75195331e+01  3.81486202e+01 -1.24983964e+00 
 3.83847234e+01  3.81485263e+01 -1.27865151e+00 
 3.92698648e+01  3.81484280e+01 -1.30812714e+00 
 4.01754173e+01  3.81483251e+01 -1.33828177e+00 
 4.11018515e+01  3.81482174e+01 -1.36913102e+00 
 4.20496491e+01  3.81481047e+01 -1.40069087e+00 
 4.30193027e+01  3.81479868e+01 -1.43297762e+00 
 4.40113162e+01  3.81478633e+01 -1.46600800e+00 
 4.50262052e+01  3.81477341e+01 -1.49979907e+00 
 4.60644974e+01  3.81475989e+01 -1.53436833e+00 
 4.71267322e+01  3.81474574e+01 -1.56973362e+00 
 4.82134619e+01  3.81473092e+01 -1.60591325e+00 
 4.93252513e+01  3.81471542e+01 -1.64292589e+00 
 5.04626783e+01  3.81469919e+01 -1.68079067e+00 
 5.16263340e+01  3.81468221e+01 -1.71952714e+00 
 5.28168234e+01  3.81466444e+01 -1.75915529e+00 
 5.40347650e+01  3.81464583e+01 -1.79969559e+00 
 5.52807921e+01  3.81462636e+01 -1.84116894e+00 
 5.65555523e+01  3.81460599e+01 -1.88359674e+00 
 5.78597080e+01  3.81458466e+01 -1.92700086e+00 
 5.91939372e+01  3.81456234e+01 -1.97140366e+00 
 6.05589334e+01  3.81453898e+01 -2.01682802e+00 
 6.19554061e+01  3.81451453e+01 -2.06329734e+00 
 6.33840810e+01  3.81448894e+01 -2.11083552e+00 
 6.48457008e+01  3.81446216e+01 -2.15946703e+00 
 6.63410251e+01  3.81443413e+01 -2.20921687e+00 
 6.78708313e+01  3.81440480e+01 -2.26011062e+00 
 6.94359143e+01  3.81437410e+01 -2.31217441e+00 
 7.10370877e+01  3.81434197e+01 -2.36543498e+00 
 7.26751838e+01  3.81430835e+01 -2.41991966e+00 
 7.43510539e+01  3.81427315e+01 -2.47565638e+00 
 7.60655691e+01  3.81423632e+01 -2.53267372e+00 
 7.78196206e+01  3.81419778e+01 -2.59100087e+00 
 7.96141200e+01  3.81415744e+01 -2.65066768e+00 
 8.14500001e+01  3.81411522e+01 -2.71170467e+00 
 8.33282151e+01  3.81407104e+01 -2.77414303e+00 
 8.52497412e+01  3.81402480e+01 -2.83801464e+00 
 8.72155772e+01  3.81397641e+01 -2.90335210e+00 
 8.92267449e+01  3.81392577e+01 -2.97018870e+00 
 9.12842895e+01  3.81387277e+01 -3.03855850e+00 
 9.33892805e+01  3.81381731e+01 -3.10849626e+00 
 9.55428121e+01  3.81375926e+01 -3.18003756e+00 
 9.77460036e+01  3.81369852e+01 -3.25321870e+00 
 1.00000000e+02  3.81363495e+01 -3.32807682e+00 
 1.02305973e+02  3.81356843e+01 -3.40464984e+00 
 1.04665121e+02  3.81349881e+01 -3.48297649e+00 
