 time            v(Vb)           v(Voutp)        v(Voutn)        v(Vbias)        v(Vcmref)      
 0.00000000e+00  8.46540068e-01  7.50000000e-01  7.50000000e-01  7.50000000e-01  7.50000000e-01 
 1.00000000e-13  8.46540381e-01  7.50000000e-01  7.50000000e-01  7.50000000e-01  7.50000000e-01 
 2.00000000e-13  8.46540678e-01  7.50000000e-01  7.50000000e-01  7.50000000e-01  7.50000000e-01 
 4.00000000e-13  8.46541208e-01  7.50000000e-01  7.50000000e-01  7.50000000e-01  7.50000000e-01 
 8.00000000e-13  8.46542141e-01  7.50000000e-01  7.50000000e-01  7.50000000e-01  7.50000000e-01 
 1.60000000e-12  8.46544046e-01  7.50000000e-01  7.50000000e-01  7.50000000e-01  7.50000000e-01 
 3.20000000e-12  8.46547885e-01  7.50000000e-01  7.50000000e-01  7.50000001e-01  7.50000000e-01 
 6.40000000e-12  8.46555577e-01  7.50000000e-01  7.50000000e-01  7.50000002e-01  7.50000000e-01 
 9.61016763e-12  8.46570149e-01  7.50000000e-01  7.50000000e-01  7.50000002e-01  7.50000000e-01 
 1.00000000e-11  8.46572661e-01  7.50000000e-01  7.50000000e-01  7.50000002e-01  7.50000000e-01 
 1.02209735e-11  8.46572417e-01  7.50000000e-01  7.50000000e-01  7.50000003e-01  7.50000000e-01 
 1.06629206e-11  8.46571630e-01  7.50000000e-01  7.50000000e-01  7.50000003e-01  7.50000000e-01 
 1.15468148e-11  8.46570154e-01  7.50000000e-01  7.50000000e-01  7.50000003e-01  7.50000000e-01 
 1.33146031e-11  8.46567351e-01  7.50000000e-01  7.50000000e-01  7.50000003e-01  7.50000000e-01 
 1.64139255e-11  8.46562551e-01  7.50000000e-01  7.50000000e-01  7.50000004e-01  7.50000000e-01 
 2.26125704e-11  8.46553975e-01  7.50000000e-01  7.50000000e-01  7.50000006e-01  7.50000000e-01 
 3.50098602e-11  8.46541264e-01  7.50000000e-01  7.50000000e-01  7.50000009e-01  7.50000000e-01 
 5.98044398e-11  8.46530222e-01  7.50000000e-01  7.50000000e-01  7.50000015e-01  7.50000000e-01 
 1.09393599e-10  8.46530180e-01  7.50000000e-01  7.50000000e-01  7.50000027e-01  7.50000000e-01 
 1.76595633e-10  8.46536715e-01  7.50000000e-01  7.50000000e-01  7.50000044e-01  7.50000000e-01 
 2.49282769e-10  8.46539720e-01  7.50000000e-01  7.50000000e-01  7.50000062e-01  7.50000000e-01 
 3.67417481e-10  8.46540156e-01  7.50000000e-01  7.50000000e-01  7.50000092e-01  7.50000000e-01 
 5.01216443e-10  8.46540138e-01  7.50000000e-01  7.50000000e-01  7.50000125e-01  7.50000000e-01 
 7.64300760e-10  8.46540036e-01  7.50000000e-01  7.50000000e-01  7.50000191e-01  7.50000000e-01 
 1.18318061e-09  8.46540090e-01  7.50000000e-01  7.50000000e-01  7.50000296e-01  7.50000000e-01 
 2.02094030e-09  8.46540049e-01  7.50000000e-01  7.50000000e-01  7.50000505e-01  7.50000000e-01 
 3.69645969e-09  8.46540085e-01  7.50000000e-01  7.50000000e-01  7.50000924e-01  7.50000000e-01 
 7.04749847e-09  8.46540052e-01  7.50000000e-01  7.50000000e-01  7.50001762e-01  7.50000000e-01 
 1.37495760e-08  8.46540084e-01  7.50000000e-01  7.50000000e-01  7.50003437e-01  7.50000000e-01 
 2.71537311e-08  8.46540052e-01  7.50000000e-01  7.50000000e-01  7.50006788e-01  7.50000000e-01 
 5.39620414e-08  8.46540084e-01  7.50000000e-01  7.50000000e-01  7.50013491e-01  7.50000000e-01 
 1.07578662e-07  8.46540052e-01  7.50000000e-01  7.50000000e-01  7.50026895e-01  7.50000000e-01 
 2.14811903e-07  8.46540084e-01  7.50000000e-01  7.50000000e-01  7.50053703e-01  7.50000000e-01 
 4.29278385e-07  8.46540052e-01  7.50000000e-01  7.50000000e-01  7.50107320e-01  7.50000000e-01 
 8.58211348e-07  8.46540084e-01  7.50000000e-01  7.50000000e-01  7.50214553e-01  7.50000000e-01 
 1.71607728e-06  8.46540052e-01  7.50000000e-01  7.50000000e-01  7.50429019e-01  7.50000000e-01 
 3.43180913e-06  8.46540084e-01  7.50000000e-01  7.50000000e-01  7.50857952e-01  7.50000000e-01 
 6.86327284e-06  8.46540051e-01  7.50000000e-01  7.50000000e-01  7.51715818e-01  7.50000000e-01 
 7.87501000e-06  8.46540083e-01  7.50000000e-01  7.50000000e-01  7.51968752e-01  7.50000000e-01 
 7.87501100e-06  8.46533656e-01  7.50000000e-01  7.50000000e-01  7.51968753e-01  7.50000000e-01 
 7.87501300e-06  8.46522016e-01  7.50000000e-01  7.50000000e-01  7.51968753e-01  7.50000000e-01 
 7.87501700e-06  8.46506919e-01  7.50000000e-01  7.50000000e-01  7.51968754e-01  7.50000000e-01 
 7.87502000e-06  8.46501112e-01  7.50000000e-01  7.50000000e-01  7.51968755e-01  7.50000000e-01 
 7.87502061e-06  8.46501978e-01  7.50000000e-01  7.50000000e-01  7.51968755e-01  7.50000000e-01 
 7.87502182e-06  8.46503360e-01  7.50000000e-01  7.50000000e-01  7.51968755e-01  7.50000000e-01 
 7.87502426e-06  8.46505830e-01  7.50000000e-01  7.50000000e-01  7.51968756e-01  7.50000000e-01 
 7.87502912e-06  8.46510606e-01  7.50000000e-01  7.50000000e-01  7.51968757e-01  7.50000000e-01 
 7.87503885e-06  8.46518748e-01  7.50000000e-01  7.50000000e-01  7.51968760e-01  7.50000000e-01 
 7.87505830e-06  8.46530997e-01  7.50000000e-01  7.50000000e-01  7.51968765e-01  7.50000000e-01 
 7.87509720e-06  8.46543910e-01  7.50000000e-01  7.50000000e-01  7.51968774e-01  7.50000000e-01 
 7.87517502e-06  8.46550495e-01  7.50000000e-01  7.50000000e-01  7.51968794e-01  7.50000000e-01 
 7.87533064e-06  8.46545938e-01  7.50000000e-01  7.50000000e-01  7.51968833e-01  7.50000000e-01 
 7.87553930e-06  8.46541499e-01  7.50000000e-01  7.50000000e-01  7.51968885e-01  7.50000000e-01 
 7.87580897e-06  8.46540211e-01  7.50000000e-01  7.50000000e-01  7.51968952e-01  7.50000000e-01 
 7.87613716e-06  8.46540125e-01  7.50000000e-01  7.50000000e-01  7.51969034e-01  7.50000000e-01 
 7.87662078e-06  8.46540029e-01  7.50000000e-01  7.50000000e-01  7.51969155e-01  7.50000000e-01 
 7.87737480e-06  8.46540102e-01  7.50000000e-01  7.50000000e-01  7.51969344e-01  7.50000000e-01 
 7.87888285e-06  8.46540034e-01  7.50000000e-01  7.50000000e-01  7.51969721e-01  7.50000000e-01 
 7.88189895e-06  8.46540100e-01  7.50000000e-01  7.50000000e-01  7.51970475e-01  7.50000000e-01 
 7.88793115e-06  8.46540035e-01  7.50000000e-01  7.50000000e-01  7.51971983e-01  7.50000000e-01 
 7.89999556e-06  8.46540100e-01  7.50000000e-01  7.50000000e-01  7.51974999e-01  7.50000000e-01 
 7.92412436e-06  8.46540035e-01  7.50000000e-01  7.50000000e-01  7.51981031e-01  7.50000000e-01 
 7.97238196e-06  8.46540100e-01  7.50000000e-01  7.50000000e-01  7.51993095e-01  7.50000000e-01 
 8.00000000e-06  8.46540035e-01  7.50000000e-01  7.50000000e-01  7.52000000e-01  7.50000000e-01 
 8.00000100e-06  8.46647253e-01  7.50000000e-01  7.50000000e-01  7.52000000e-01  7.50000000e-01 
 8.00000300e-06  8.46876879e-01  7.50000000e-01  7.50000000e-01  7.52000001e-01  7.50000000e-01 
 8.00000700e-06  8.47354806e-01  7.50000000e-01  7.50000000e-01  7.52000002e-01  7.50000000e-01 
 8.00001000e-06  8.48184601e-01  7.50000000e-01  7.50000000e-01  7.52000002e-01  7.50000000e-01 
 8.00001080e-06  8.48235632e-01  7.50000000e-01  7.50000000e-01  7.52000003e-01  7.50000000e-01 
 8.00001240e-06  8.48268743e-01  7.50000000e-01  7.50000000e-01  7.52000003e-01  7.50000000e-01 
 8.00001560e-06  8.48304892e-01  7.50000000e-01  7.50000000e-01  7.52000004e-01  7.50000000e-01 
 8.00002038e-06  8.48367270e-01  7.50000000e-01  7.50000000e-01  7.52000005e-01  7.50000000e-01 
 8.00002993e-06  8.48452389e-01  7.50000000e-01  7.50000000e-01  7.52000007e-01  7.50000000e-01 
 8.00004903e-06  8.48565479e-01  7.50000000e-01  7.50000000e-01  7.52000012e-01  7.50000000e-01 
 8.00008725e-06  8.47849324e-01  7.50000000e-01  7.50000000e-01  7.52000022e-01  7.50000000e-01 
 8.00013043e-06  8.46525360e-01  7.50000000e-01  7.50000000e-01  7.52000033e-01  7.50000000e-01 
 8.00020292e-06  8.44871717e-01  7.50000000e-01  7.50000000e-01  7.52000051e-01  7.50000000e-01 
 8.00027450e-06  8.43802789e-01  7.50000000e-01  7.50000000e-01  7.52000069e-01  7.50000000e-01 
 8.00041765e-06  8.42216147e-01  7.50000000e-01  7.50000000e-01  7.52000104e-01  7.50000000e-01 
 8.00060154e-06  8.40804683e-01  7.50000000e-01  7.50000000e-01  7.52000150e-01  7.50000000e-01 
 8.00096931e-06  8.39057152e-01  7.50000000e-01  7.50000000e-01  7.52000242e-01  7.50000000e-01 
 8.00170485e-06  8.37729548e-01  7.50000000e-01  7.50000000e-01  7.52000426e-01  7.50000000e-01 
 8.00248745e-06  8.37469688e-01  7.50000000e-01  7.50000000e-01  7.52000622e-01  7.50000000e-01 
 8.00367631e-06  8.37428913e-01  7.50000000e-01  7.50000000e-01  7.52000919e-01  7.50000000e-01 
 8.00531096e-06  8.37423966e-01  7.50000000e-01  7.50000000e-01  7.52001328e-01  7.50000000e-01 
 8.00858027e-06  8.37430689e-01  7.50000000e-01  7.50000000e-01  7.52002145e-01  7.50000000e-01 
 8.01511887e-06  8.37423745e-01  7.50000000e-01  7.50000000e-01  7.52003780e-01  7.50000000e-01 
 8.02819609e-06  8.37430720e-01  7.50000000e-01  7.50000000e-01  7.52007049e-01  7.50000000e-01 
 8.05435052e-06  8.37423676e-01  7.50000000e-01  7.50000000e-01  7.52013588e-01  7.50000000e-01 
 8.10665939e-06  8.37430655e-01  7.50000000e-01  7.50000000e-01  7.52026665e-01  7.50000000e-01 
 8.21127711e-06  8.37423536e-01  7.50000000e-01  7.50000000e-01  7.52052819e-01  7.50000000e-01 
 8.42051257e-06  8.37430403e-01  7.50000000e-01  7.50000000e-01  7.52105128e-01  7.50000000e-01 
 8.83898348e-06  8.37423041e-01  7.50000000e-01  7.50000000e-01  7.52209746e-01  7.50000000e-01 
 9.67592529e-06  8.37429432e-01  7.50000000e-01  7.50000000e-01  7.52418981e-01  7.50000000e-01 
 1.13498089e-05  8.37421114e-01  7.50000000e-01  7.50000000e-01  7.52837452e-01  7.50000000e-01 
 1.46975762e-05  8.37425596e-01  7.50000000e-01  7.50000000e-01  7.53674394e-01  7.50000000e-01 
 1.58750100e-05  8.37417659e-01  7.50000000e-01  7.50000000e-01  7.53968752e-01  7.50000000e-01 
 1.58750110e-05  8.36980499e-01  7.50000000e-01  7.50000000e-01  7.53968753e-01  7.50000000e-01 
 1.58750130e-05  8.36285384e-01  7.50000000e-01  7.50000000e-01  7.53968753e-01  7.50000000e-01 
 1.58750170e-05  8.35425509e-01  7.50000000e-01  7.50000000e-01  7.53968754e-01  7.50000000e-01 
 1.58750200e-05  8.34884556e-01  7.50000000e-01  7.50000000e-01  7.53968755e-01  7.50000000e-01 
 1.58750206e-05  8.34864498e-01  7.50000000e-01  7.50000000e-01  7.53968755e-01  7.50000000e-01 
 1.58750217e-05  8.34838051e-01  7.50000000e-01  7.50000000e-01  7.53968755e-01  7.50000000e-01 
 1.58750241e-05  8.34790778e-01  7.50000000e-01  7.50000000e-01  7.53968756e-01  7.50000000e-01 
 1.58750287e-05  8.34701518e-01  7.50000000e-01  7.50000000e-01  7.53968757e-01  7.50000000e-01 
 1.58750380e-05  8.34558389e-01  7.50000000e-01  7.50000000e-01  7.53968760e-01  7.50000000e-01 
 1.58750567e-05  8.34388724e-01  7.50000000e-01  7.50000000e-01  7.53968764e-01  7.50000000e-01 
 1.58750939e-05  8.34396070e-01  7.50000000e-01  7.50000000e-01  7.53968773e-01  7.50000000e-01 
 1.58751684e-05  8.35021983e-01  7.50000000e-01  7.50000000e-01  7.53968792e-01  7.50000000e-01 
 1.58753174e-05  8.35872063e-01  7.50000000e-01  7.50000000e-01  7.53968829e-01  7.50000000e-01 
 1.58754809e-05  8.36056717e-01  7.50000000e-01  7.50000000e-01  7.53968870e-01  7.50000000e-01 
 1.58757261e-05  8.36072253e-01  7.50000000e-01  7.50000000e-01  7.53968932e-01  7.50000000e-01 
 1.58759638e-05  8.36068693e-01  7.50000000e-01  7.50000000e-01  7.53968991e-01  7.50000000e-01 
 1.58763231e-05  8.36069944e-01  7.50000000e-01  7.50000000e-01  7.53969081e-01  7.50000000e-01 
 1.58770416e-05  8.36069069e-01  7.50000000e-01  7.50000000e-01  7.53969260e-01  7.50000000e-01 
 1.58784787e-05  8.36069852e-01  7.50000000e-01  7.50000000e-01  7.53969620e-01  7.50000000e-01 
 1.58813529e-05  8.36069103e-01  7.50000000e-01  7.50000000e-01  7.53970338e-01  7.50000000e-01 
 1.58871014e-05  8.36069837e-01  7.50000000e-01  7.50000000e-01  7.53971775e-01  7.50000000e-01 
 1.58985982e-05  8.36069110e-01  7.50000000e-01  7.50000000e-01  7.53974650e-01  7.50000000e-01 
 1.59215919e-05  8.36069835e-01  7.50000000e-01  7.50000000e-01  7.53980398e-01  7.50000000e-01 
 1.59675793e-05  8.36069113e-01  7.50000000e-01  7.50000000e-01  7.53991895e-01  7.50000000e-01 
 1.60000000e-05  8.36069835e-01  7.50000000e-01  7.50000000e-01  7.54000000e-01  7.50000000e-01 
 1.60000010e-05  8.36072090e-01  7.50000000e-01  7.50000000e-01  7.54000000e-01  7.50000000e-01 
 1.60000030e-05  8.36076920e-01  7.50000000e-01  7.50000000e-01  7.54000001e-01  7.50000000e-01 
 1.60000070e-05  8.36086601e-01  7.50000000e-01  7.50000000e-01  7.54000002e-01  7.50000000e-01 
 1.60000100e-05  8.36102012e-01  7.50000000e-01  7.50000000e-01  7.54000002e-01  7.50000000e-01 
 1.60000104e-05  8.36101445e-01  7.50000000e-01  7.50000000e-01  7.54000003e-01  7.50000000e-01 
 1.60000113e-05  8.36099906e-01  7.50000000e-01  7.50000000e-01  7.54000003e-01  7.50000000e-01 
 1.60000130e-05  8.36096962e-01  7.50000000e-01  7.50000000e-01  7.54000003e-01  7.50000000e-01 
 1.60000160e-05  8.36092025e-01  7.50000000e-01  7.50000000e-01  7.54000004e-01  7.50000000e-01 
 1.60000220e-05  8.36082773e-01  7.50000000e-01  7.50000000e-01  7.54000005e-01  7.50000000e-01 
 1.60000340e-05  8.36067009e-01  7.50000000e-01  7.50000000e-01  7.54000008e-01  7.50000000e-01 
 1.60000579e-05  8.36049667e-01  7.50000000e-01  7.50000000e-01  7.54000014e-01  7.50000000e-01 
 1.60001058e-05  8.36048685e-01  7.50000000e-01  7.50000000e-01  7.54000026e-01  7.50000000e-01 
 1.60001611e-05  8.36059518e-01  7.50000000e-01  7.50000000e-01  7.54000040e-01  7.50000000e-01 
 1.60002327e-05  8.36066591e-01  7.50000000e-01  7.50000000e-01  7.54000058e-01  7.50000000e-01 
 1.60003317e-05  8.36068977e-01  7.50000000e-01  7.50000000e-01  7.54000083e-01  7.50000000e-01 
 1.60004573e-05  8.36069476e-01  7.50000000e-01  7.50000000e-01  7.54000114e-01  7.50000000e-01 
 1.60006751e-05  8.36069453e-01  7.50000000e-01  7.50000000e-01  7.54000169e-01  7.50000000e-01 
 1.60010422e-05  8.36069485e-01  7.50000000e-01  7.50000000e-01  7.54000261e-01  7.50000000e-01 
 1.60017765e-05  8.36069463e-01  7.50000000e-01  7.50000000e-01  7.54000444e-01  7.50000000e-01 
 1.60025754e-05  8.36069486e-01  7.50000000e-01  7.50000000e-01  7.54000644e-01  7.50000000e-01 
 1.60037940e-05  8.36069464e-01  7.50000000e-01  7.50000000e-01  7.54000948e-01  7.50000000e-01 
 1.60054534e-05  8.36069485e-01  7.50000000e-01  7.50000000e-01  7.54001363e-01  7.50000000e-01 
 1.60087721e-05  8.36069465e-01  7.50000000e-01  7.50000000e-01  7.54002193e-01  7.50000000e-01 
 1.60154096e-05  8.36069485e-01  7.50000000e-01  7.50000000e-01  7.54003852e-01  7.50000000e-01 
 1.60286846e-05  8.36069466e-01  7.50000000e-01  7.50000000e-01  7.54007171e-01  7.50000000e-01 
 1.60552345e-05  8.36069486e-01  7.50000000e-01  7.50000000e-01  7.54013809e-01  7.50000000e-01 
 1.61083345e-05  8.36069467e-01  7.50000000e-01  7.50000000e-01  7.54027084e-01  7.50000000e-01 
 1.62145343e-05  8.36069489e-01  7.50000000e-01  7.50000000e-01  7.54053634e-01  7.50000000e-01 
 1.64269340e-05  8.36069474e-01  7.50000000e-01  7.50000000e-01  7.54106734e-01  7.50000000e-01 
 1.68517335e-05  8.36069503e-01  7.50000000e-01  7.50000000e-01  7.54212933e-01  7.50000000e-01 
 1.77013323e-05  8.36069502e-01  7.50000000e-01  7.50000000e-01  7.54425333e-01  7.50000000e-01 
 1.94005300e-05  8.36069559e-01  7.50000000e-01  7.50000000e-01  7.54850133e-01  7.50000000e-01 
 2.27989254e-05  8.36069613e-01  7.50000000e-01  7.50000000e-01  7.55699731e-01  7.50000000e-01 
 2.38750100e-05  8.36069656e-01  7.50000000e-01  7.50000000e-01  7.55968752e-01  7.50000000e-01 
 2.38750110e-05  8.36063228e-01  7.50000000e-01  7.50000000e-01  7.55968753e-01  7.50000000e-01 
 2.38750130e-05  8.36051627e-01  7.50000000e-01  7.50000000e-01  7.55968753e-01  7.50000000e-01 
 2.38750170e-05  8.36036623e-01  7.50000000e-01  7.50000000e-01  7.55968754e-01  7.50000000e-01 
 2.38750200e-05  8.36030839e-01  7.50000000e-01  7.50000000e-01  7.55968755e-01  7.50000000e-01 
 2.38750206e-05  8.36031735e-01  7.50000000e-01  7.50000000e-01  7.55968755e-01  7.50000000e-01 
 2.38750219e-05  8.36033172e-01  7.50000000e-01  7.50000000e-01  7.55968755e-01  7.50000000e-01 
 2.38750244e-05  8.36035750e-01  7.50000000e-01  7.50000000e-01  7.55968756e-01  7.50000000e-01 
 2.38750295e-05  8.36040708e-01  7.50000000e-01  7.50000000e-01  7.55968757e-01  7.50000000e-01 
 2.38750397e-05  8.36049110e-01  7.50000000e-01  7.50000000e-01  7.55968760e-01  7.50000000e-01 
 2.38750600e-05  8.36061546e-01  7.50000000e-01  7.50000000e-01  7.55968765e-01  7.50000000e-01 
 2.38751007e-05  8.36074214e-01  7.50000000e-01  7.50000000e-01  7.55968775e-01  7.50000000e-01 
 2.38751821e-05  8.36080201e-01  7.50000000e-01  7.50000000e-01  7.55968796e-01  7.50000000e-01 
 2.38753448e-05  8.36075023e-01  7.50000000e-01  7.50000000e-01  7.55968836e-01  7.50000000e-01 
 2.38755523e-05  8.36070947e-01  7.50000000e-01  7.50000000e-01  7.55968888e-01  7.50000000e-01 
 2.38758266e-05  8.36069781e-01  7.50000000e-01  7.50000000e-01  7.55968957e-01  7.50000000e-01 
 2.38761485e-05  8.36069699e-01  7.50000000e-01  7.50000000e-01  7.55969037e-01  7.50000000e-01 
 2.38766665e-05  8.36069610e-01  7.50000000e-01  7.50000000e-01  7.55969167e-01  7.50000000e-01 
 2.38774220e-05  8.36069679e-01  7.50000000e-01  7.50000000e-01  7.55969356e-01  7.50000000e-01 
 2.38789331e-05  8.36069615e-01  7.50000000e-01  7.50000000e-01  7.55969733e-01  7.50000000e-01 
 2.38819553e-05  8.36069678e-01  7.50000000e-01  7.50000000e-01  7.55970489e-01  7.50000000e-01 
 2.38879997e-05  8.36069616e-01  7.50000000e-01  7.50000000e-01  7.55972000e-01  7.50000000e-01 
 2.39000885e-05  8.36069678e-01  7.50000000e-01  7.50000000e-01  7.55975022e-01  7.50000000e-01 
 2.39242661e-05  8.36069617e-01  7.50000000e-01  7.50000000e-01  7.55981067e-01  7.50000000e-01 
 2.39726213e-05  8.36069680e-01  7.50000000e-01  7.50000000e-01  7.55993155e-01  7.50000000e-01 
 2.40000000e-05  8.36069618e-01  7.50000000e-01  7.50000000e-01  7.56000000e-01  7.50000000e-01 
 2.40000010e-05  8.36176911e-01  7.50000000e-01  7.50000000e-01  7.56000000e-01  7.50000000e-01 
 2.40000030e-05  8.36406697e-01  7.50000000e-01  7.50000000e-01  7.56000001e-01  7.50000000e-01 
 2.40000070e-05  8.36884962e-01  7.50000000e-01  7.50000000e-01  7.56000002e-01  7.50000000e-01 
 2.40000100e-05  8.37739819e-01  7.50000000e-01  7.50000000e-01  7.56000002e-01  7.50000000e-01 
 2.40000108e-05  8.37794037e-01  7.50000000e-01  7.50000000e-01  7.56000003e-01  7.50000000e-01 
 2.40000124e-05  8.37831126e-01  7.50000000e-01  7.50000000e-01  7.56000003e-01  7.50000000e-01 
 2.40000156e-05  8.37874086e-01  7.50000000e-01  7.50000000e-01  7.56000004e-01  7.50000000e-01 
 2.40000204e-05  8.37947263e-01  7.50000000e-01  7.50000000e-01  7.56000005e-01  7.50000000e-01 
 2.40000299e-05  8.38052556e-01  7.50000000e-01  7.50000000e-01  7.56000007e-01  7.50000000e-01 
 2.40000491e-05  8.38203832e-01  7.50000000e-01  7.50000000e-01  7.56000012e-01  7.50000000e-01 
 2.40000873e-05  8.37583666e-01  7.50000000e-01  7.50000000e-01  7.56000022e-01  7.50000000e-01 
 2.40001313e-05  8.36340762e-01  7.50000000e-01  7.50000000e-01  7.56000033e-01  7.50000000e-01 
 2.40002036e-05  8.34858927e-01  7.50000000e-01  7.50000000e-01  7.56000051e-01  7.50000000e-01 
 2.40002764e-05  8.33919458e-01  7.50000000e-01  7.50000000e-01  7.56000069e-01  7.50000000e-01 
 2.40004219e-05  8.32549870e-01  7.50000000e-01  7.50000000e-01  7.56000105e-01  7.50000000e-01 
 2.40006080e-05  8.31356619e-01  7.50000000e-01  7.50000000e-01  7.56000152e-01  7.50000000e-01 
 2.40009803e-05  8.29890045e-01  7.50000000e-01  7.50000000e-01  7.56000245e-01  7.50000000e-01 
 2.40017247e-05  8.28806197e-01  7.50000000e-01  7.50000000e-01  7.56000431e-01  7.50000000e-01 
 2.40025724e-05  8.28598531e-01  7.50000000e-01  7.50000000e-01  7.56000643e-01  7.50000000e-01 
 2.40038324e-05  8.28580083e-01  7.50000000e-01  7.50000000e-01  7.56000958e-01  7.50000000e-01 
 2.40056545e-05  8.28574568e-01  7.50000000e-01  7.50000000e-01  7.56001414e-01  7.50000000e-01 
 2.40092989e-05  8.28581609e-01  7.50000000e-01  7.50000000e-01  7.56002325e-01  7.50000000e-01 
 2.40165875e-05  8.28574319e-01  7.50000000e-01  7.50000000e-01  7.56004147e-01  7.50000000e-01 
 2.40311649e-05  8.28581680e-01  7.50000000e-01  7.50000000e-01  7.56007791e-01  7.50000000e-01 
