 time            v(vin)          v(vout_buf)     v(vout_st)     
 0.00000000e+00  0.00000000e+00  1.11355078e-09  1.11355086e-09 
 1.00000000e-08  2.20224409e-03  1.61716718e-09  3.10172459e-09 
 2.00000000e-08  4.40448818e-03  1.11574530e-09  1.14271050e-09 
 4.00000000e-08  8.80897637e-03  1.11183332e-09  1.08696062e-09 
 8.00000000e-08  1.76179527e-02  1.11572952e-09  1.14167353e-09 
 1.60000000e-07  3.52359055e-02  1.11184344e-09  1.08747967e-09 
 3.20000000e-07  7.04718109e-02  1.11572813e-09  1.14145837e-09 
 6.40000000e-07  1.40943622e-01  1.11180996e-09  1.08763972e-09 
 1.00000000e-06  2.20224409e-01  1.11526537e-09  1.14114962e-09 
 1.06400000e-06  2.14125943e-01  9.94880584e-10  6.40117473e-10 
 1.19200000e-06  2.01929009e-01  1.23285417e-09  1.58629713e-09 
 1.44800000e-06  1.77535143e-01  9.94742108e-10  6.42531332e-10 
 1.96000000e-06  1.28747409e-01  1.23248175e-09  1.58448908e-09 
 2.00000000e-06  1.24935868e-01  9.95186788e-10  6.49739232e-10 
 2.08000000e-06  8.59274959e-02  9.98229837e-10  6.53200352e-10 
 2.24000000e-06  7.91075210e-03  1.23222223e-09  1.58602524e-09 
 2.56000000e-06 -1.48122736e-01  9.97206459e-10  6.50940322e-10 
 3.00000000e-06 -3.62668782e-01  1.23189224e-09  1.58369320e-09 
 3.06400000e-06 -3.23344395e-01  1.48242826e-09  2.58371974e-09 
 3.19200000e-06 -2.44695620e-01  7.48166938e-10 -3.38233186e-10 
 3.44800000e-06 -8.73980708e-02  1.48206780e-09  2.57550064e-09 
 3.96000000e-06  2.27197028e-01  7.48494420e-10 -3.31667785e-10 
 4.00000000e-06  2.51774772e-01  1.47683653e-09  2.55140680e-09 
 4.08000000e-06  2.75260133e-01  1.01308614e-09  7.27577494e-10 
 4.24000001e-06  3.22230854e-01  1.19659617e-09  1.48958918e-09 
 4.56000003e-06  4.16172298e-01  8.59288479e-10  6.33498396e-10 
 5.00000000e-06  5.45341765e-01 -3.73666763e-09  1.62472720e-09 
 5.06400000e-06  5.34951522e-01  5.28808093e-09  6.29314417e-10 
 5.19200001e-06  5.14171034e-01  2.89450840e-09  1.59501020e-09 
 5.44800003e-06  4.72610060e-01  2.00585422e-09  6.32676418e-10 
 5.96000005e-06  3.89488111e-01  7.58220144e-10  1.59313709e-09 
 6.00000000e-06  3.82994218e-01  1.58350884e-09  6.45354589e-10 
 6.07999989e-06  3.80253323e-01  1.16487726e-09  1.25767202e-09 
 6.23999967e-06  3.74771534e-01  1.08145283e-09  9.58616411e-10 
 6.55999923e-06  3.63807956e-01  1.16081703e-09  1.26826636e-09 
 7.00000000e-06  3.48732988e-01  1.07677580e-09  9.58974322e-10 
 7.06399991e-06  3.21074514e-01  9.96276276e-10  5.21302893e-10 
 7.19199973e-06  2.65757564e-01  1.25688332e-09  1.72042378e-09 
 7.44799938e-06  1.55123666e-01  9.75466593e-10  5.13150097e-10 
 7.95999867e-06 -6.61441316e-02  1.25359855e-09  1.71930509e-09 
 8.00000000e-06 -8.34312757e-02  9.75782306e-10  5.22740603e-10 
 8.08000265e-06 -6.34287106e-02  1.30514578e-09  1.87095892e-09 
 8.24000796e-06 -2.34235796e-02  9.23505168e-10  3.59376162e-10 
 8.50775237e-06  4.35188889e-02  1.30410177e-09  1.86616408e-09 
 9.00000000e-06  1.66592498e-01  9.23604113e-10  3.63486603e-10 
 9.05354888e-06  1.67937860e-01  1.01347031e-09  7.13573584e-10 
 9.16064665e-06  1.70628583e-01  1.21343733e-09  1.51117762e-09 
 9.37484218e-06  1.76010030e-01  1.01369533e-09  7.16911082e-10 
 9.80323324e-06  1.86772923e-01  1.21333195e-09  1.50958775e-09 
 1.00000000e-05  1.91716490e-01  1.01376871e-09  7.18602011e-10 
 1.00856782e-05  1.95364298e-01  1.11832768e-09  1.13227190e-09 
 1.02570346e-05  2.02659914e-01  1.10866391e-09  1.09483503e-09 
 1.05997475e-05  2.17251147e-01  1.11828364e-09  1.13215016e-09 
 1.10000000e-05  2.34292170e-01  1.10849002e-09  1.09480179e-09 
 1.10685426e-05  2.43092966e-01  1.14326704e-09  1.23385116e-09 
 1.12056277e-05  2.60694559e-01  1.08204573e-09  9.93391694e-10 
 1.14797980e-05  2.95897744e-01  1.14088886e-09  1.23148083e-09 
 1.20000000e-05  3.62691154e-01  1.06566175e-09  9.84707701e-10 
 1.20548341e-05  3.35346984e-01  8.92301460e-10  2.25532840e-11 
 1.21645022e-05  2.80658642e-01  1.37933599e-09  2.23994741e-09 
 1.23838384e-05  1.71281958e-01  8.56177604e-10  8.11206736e-12 
 1.28225108e-05 -4.74714096e-02  1.37356932e-09  2.23022527e-09 
 1.30000000e-05 -1.35980166e-01  8.56077530e-10  1.06139926e-11 
 1.30877345e-05 -1.23234814e-01  1.27718126e-09  1.76033962e-09 
 1.32632035e-05 -9.77441082e-02  9.50233514e-10  4.64656977e-10 
 1.36141414e-05 -4.67626970e-02  1.27699612e-09  1.76023391e-09 
 1.40000000e-05  9.29169770e-03  9.50360729e-10  4.67807681e-10 
 1.40701876e-05  2.85056478e-02  1.15572762e-09  1.28022766e-09 
 1.42105628e-05  6.69335482e-02  1.07232583e-09  9.50627297e-10 
 1.44913131e-05  1.43789349e-01  1.15545058e-09  1.27881346e-09 
 1.50000000e-05  2.83043081e-01  1.06997680e-09  9.50084914e-10 
 1.50561501e-05  2.79203723e-01  9.65541774e-10  5.19733266e-10 
 1.51684502e-05  2.71525006e-01  1.26355289e-09  1.70638991e-09 
 1.53930505e-05  2.56167572e-01  9.65188589e-10  5.23506617e-10 
 1.58422511e-05  2.25452703e-01  1.26271717e-09  1.70362579e-09 
 1.60000000e-05  2.14666348e-01  9.65075209e-10  5.26257249e-10 
 1.60898401e-05  2.13839658e-01  1.12932142e-09  1.17579504e-09 
 1.62695203e-05  2.12186279e-01  1.09783945e-09  1.05153680e-09 
 1.66288808e-05  2.08879520e-01  1.12930344e-09  1.17550310e-09 
 1.70000000e-05  2.05464559e-01  1.09784610e-09  1.05172936e-09 
 1.70718721e-05  2.24872557e-01  1.20629885e-09  1.48469993e-09 
 1.72156163e-05  2.63688552e-01  1.01846902e-09  7.46467387e-10 
 1.75031047e-05  3.41320544e-01  1.18816992e-09  1.47013968e-09 
 1.80000000e-05  4.75499797e-01  3.93866940e-10  7.02953208e-10 
 1.80574977e-05  4.36301409e-01  2.62076623e-09 -1.21865751e-10 
 1.81724930e-05  3.57904629e-01  4.39246495e-10  2.34505347e-09 
 1.84024837e-05  2.01111071e-01  1.84024696e-09 -1.36177682e-10 
 1.88624651e-05 -1.12476047e-01  3.92320710e-10  2.37770301e-09 
 1.90000000e-05 -2.06238895e-01  1.83772102e-09 -1.29302341e-10 
 1.90919963e-05 -1.76071297e-01  1.35574995e-09  2.06632639e-09 
 1.92759888e-05 -1.15736096e-01  8.72482614e-10  1.59161431e-10 
 1.96257914e-05 -1.02814811e-03  1.35552940e-09  2.06803060e-09 
 2.00000000e-05  1.21683065e-01  8.72713536e-10  1.64082560e-10 
 2.00699605e-05  6.92956848e-02  7.49644812e-10 -3.37661885e-10 
 2.02098815e-05 -3.54790794e-02  1.48696821e-09  2.60002832e-09 
 2.04897236e-05 -2.45028608e-01  7.45429536e-10 -3.46437026e-10 
 2.10000000e-05 -6.27130485e-01  1.48589552e-09  2.59373807e-09 
 2.10559684e-05 -5.86798601e-01  1.64994582e-09  3.24277885e-09 
 2.11679052e-05 -5.06134828e-01  5.81487213e-10 -1.00305049e-09 
 2.13917789e-05 -3.44807280e-01  1.64923758e-09  3.23714536e-09 
 2.18395262e-05 -2.21521859e-02  5.82581019e-10 -9.90084515e-10 
 2.20000000e-05  9.34882520e-02  1.64920202e-09  3.23029442e-09 
 2.20895495e-05  9.08835043e-02  9.17640118e-10  3.35420829e-10 
 2.22686484e-05  8.56740057e-02  1.30944042e-09  1.88973461e-09 
 2.26268462e-05  7.52550084e-02  9.17752171e-10  3.38642473e-10 
 2.30000000e-05  6.44009836e-02  1.30929002e-09  1.88733105e-09 
 2.30716396e-05  4.39147244e-02  1.03030093e-09  7.83054040e-10 
 2.32149187e-05  2.94220498e-03  1.19793829e-09  1.44763043e-09 
 2.35014770e-05 -7.90028340e-02  1.03000977e-09  7.83398545e-10 
 2.40000000e-05 -2.21561932e-01  1.19781958e-09  1.44648861e-09 
 2.40573117e-05 -2.18361121e-01  1.24422157e-09  1.63457018e-09 
 2.41719350e-05 -2.11959497e-01  9.83137892e-10  5.95305058e-10 
 2.44011816e-05 -1.99156250e-01  1.24391233e-09  1.63062841e-09 
 2.48596748e-05 -1.73549755e-01  9.83252482e-10  5.97129522e-10 
 2.50000000e-05 -1.65712701e-01  1.24374954e-09  1.62805226e-09 
 2.50916986e-05 -1.36505704e-01  1.17752545e-09  1.36899929e-09 
 2.52750959e-05 -7.80917074e-02  1.05054443e-09  8.62392643e-10 
 2.56418905e-05  3.87362851e-02  1.17750251e-09  1.36812796e-09 
 2.60000000e-05  1.52797976e-01  1.05058380e-09  8.63468193e-10 
 2.60733589e-05  1.63440046e-01  1.05759193e-09  8.90506609e-10 
 2.62200767e-05  1.84724185e-01  1.16934562e-09  1.33593320e-09 
 2.65135124e-05  2.27292463e-01  1.05733210e-09  8.92075574e-10 
 2.70000000e-05  2.97866497e-01  1.16645049e-09  1.33341332e-09 
 2.70586871e-05  3.19607373e-01  1.19422919e-09  1.48364695e-09 
 2.71760614e-05  3.63089128e-01  9.56934577e-10  7.02159883e-10 
 2.74108099e-05  4.50052637e-01  6.56049571e-10  1.25976139e-09 
 2.78803070e-05  6.23979656e-01 -2.73777552e-08  1.19692304e-09 
 2.80000000e-05  6.68320391e-01 -9.46208026e-08  1.11775421e-10 
 2.80440000e-05  6.43217427e-01  1.06094410e-07  1.24686821e-10 
 2.81320000e-05  5.93011495e-01  3.23630792e-08  2.03769929e-09 
 2.83080000e-05  4.92599630e-01  8.62004180e-09  1.68655037e-10 
 2.86600000e-05  2.91775901e-01 -4.86697355e-09  2.03568415e-09 
 2.90000000e-05  9.77984229e-02  7.09999285e-09  1.93740594e-10 
 2.90704000e-05  9.87245090e-02  1.31109671e-09  1.88078249e-09 
 2.92112000e-05  1.00576685e-01  9.16197807e-10  3.41389239e-10 
 2.94928000e-05  1.04281036e-01  1.31080481e-09  1.88084138e-09 
 3.00000000e-05  1.10953078e-01  9.16348569e-10  3.45955417e-10 
 3.00563200e-05  8.93714000e-02  9.48075385e-10  4.53547633e-10 
 3.01689600e-05  4.62080426e-02  1.28118808e-09  1.78106582e-09 
 3.03942400e-05 -4.01186722e-02  9.47499471e-10  4.55077404e-10 
 3.08448000e-05 -2.12772102e-01  1.28091228e-09  1.77790597e-09 
 3.10000000e-05 -2.72244350e-01  9.47604533e-10  4.57287944e-10 
 3.10901120e-05 -2.63254002e-01  1.22964550e-09  1.57323214e-09 
 3.12703360e-05 -2.45273303e-01  9.97821391e-10  6.53693973e-10 
 3.16307840e-05 -2.09311904e-01  1.22931788e-09  1.57167627e-09 
 3.20000000e-05 -1.72475732e-01  9.97908198e-10  6.55789949e-10 
 3.20720896e-05 -1.62608952e-01  1.12494239e-09  1.15803717e-09 
 3.22162688e-05 -1.42875392e-01  1.10235405e-09  1.06953665e-09 
 3.25046272e-05 -1.03408271e-01  1.12490626e-09  1.15781692e-09 
 3.30000000e-05 -3.56074413e-02  1.10236822e-09  1.06981785e-09 
 3.30576717e-05 -1.46933563e-02  1.20287189e-09  1.46904725e-09 
 3.31730150e-05  2.71348152e-02  1.02601452e-09  7.66208027e-10 
 3.34037017e-05  1.10791158e-01  1.20233314e-09  1.46518984e-09 
 3.38650752e-05  2.78103844e-01  1.02380987e-09  7.66550404e-10 
 3.40000000e-05  3.27033046e-01  1.17932479e-09  1.44907542e-09 
 3.40922747e-05  2.65804512e-01  8.61443368e-10  4.12069081e-11 
 3.42768241e-05  1.43347437e-01  1.37474273e-09  2.20542732e-09 
 3.46163820e-05 -8.19650554e-02  8.57032855e-10  4.19955470e-11 
 3.50000000e-05 -3.36513372e-01  1.37383480e-09  2.20091131e-09 
 3.50679116e-05 -3.38269201e-01  1.31504626e-09  1.91766213e-09 
 3.52037348e-05 -3.41780854e-01  9.12191070e-10  3.11527646e-10 
 3.54753812e-05 -3.48804161e-01  1.31481953e-09  1.91349682e-09 
 3.60000000e-05 -3.62367966e-01  9.12339371e-10  3.14130115e-10 
 3.60543293e-05 -3.22226922e-01  1.41583068e-09  2.31488751e-09 
 3.61629878e-05 -2.41944830e-01  8.16151451e-10 -6.56844199e-11 
 3.63803050e-05 -8.13806465e-02  1.41559456e-09  2.30833841e-09 
 3.68149392e-05  2.39747721e-01  8.16386783e-10 -5.78465712e-11 
 3.70000000e-05  3.76479420e-01  1.31738326e-09  2.24371705e-09 
 3.70869268e-05  3.21294692e-01  8.06151244e-10 -3.96976071e-10 
 3.72607805e-05  2.10925227e-01  1.44692447e-09  2.65193732e-09 
 3.76050727e-05 -7.64559354e-03  7.85117181e-10 -4.04304473e-10 
 3.80000000e-05 -2.58361647e-01  1.44557987e-09  2.64566259e-09 
 3.80688584e-05 -2.22281995e-01  1.48102610e-09  2.57864410e-09 
 3.82065753e-05 -1.50122682e-01  7.48825428e-10 -3.38336005e-10 
 3.84820091e-05 -5.80405521e-03  1.48064662e-09  2.57181505e-09 
 3.90000000e-05  2.65606914e-01  7.47949098e-10 -3.32604021e-10 
 3.90550867e-05  2.74677310e-01  9.52980031e-10  4.77607496e-10 
 3.91652602e-05  2.92818100e-01  1.26731002e-09  1.74175771e-09 
 3.93856072e-05  3.29099680e-01  9.46041446e-10  4.79382816e-10 
 3.98263012e-05  4.01662839e-01  1.20406132e-09  1.70755614e-09 
 4.00000000e-05  4.30263479e-01  7.36032366e-10  5.46162296e-10 
 4.00881388e-05  4.46757304e-01  8.12376983e-10  1.17344185e-09 
 4.02644164e-05  4.79744954e-01  1.25683625e-10  1.08491475e-09 
 4.06169716e-05  5.45720253e-01 -3.45245771e-09  1.13045641e-09 
 4.10000000e-05  6.17398145e-01 -1.99181584e-08  1.10316106e-09 
 4.10705110e-05  5.59622788e-01  6.31104480e-08 -2.15875942e-11 
 4.12115331e-05  4.44072067e-01 -3.80648173e-08  2.14273545e-09 
 4.14935773e-05  2.12970624e-01  4.07447635e-08  7.48712811e-11 
 4.20000000e-05 -2.01982205e-01 -3.84968620e-08  2.16045041e-09 
 4.20564088e-05 -1.65324742e-01  1.65863643e-09  3.42179352e-09 
 4.21692265e-05 -9.20098049e-02  5.72941818e-10 -1.18453081e-09 
 4.23948618e-05  5.46200692e-02  1.65790632e-09  3.41733476e-09 
 4.28461325e-05  3.47879817e-01  5.55754164e-10 -1.18041564e-09 
 4.30000000e-05  4.47871143e-01  7.70012190e-10  2.99972330e-09 
 4.30902541e-05  3.89984529e-01  1.41531116e-09  7.08296149e-11 
 4.32707624e-05  2.74211289e-01  9.65829597e-10  2.22549046e-09 
 4.35930259e-05  6.75199750e-02  1.26887602e-09 -8.54157280e-13 
 4.40000000e-05 -1.93502481e-01  9.62318486e-10  2.24171281e-09 
 4.40644527e-05 -1.68478753e-01  1.46601805e-09  2.51164659e-09 
 4.41933581e-05 -1.18431288e-01  7.62794307e-10 -2.83773737e-10 
 4.44511689e-05 -1.83363567e-02  1.46552539e-09  2.50977829e-09 
 4.49667905e-05  1.81853505e-01  7.63077158e-10 -2.75992591e-10 
 4.50000000e-05  1.94747072e-01  1.46333635e-09  2.48480805e-09 
 4.50664190e-05  1.76942561e-01  8.76735649e-10  1.71406644e-10 
 4.51992569e-05  1.41333533e-01  1.35214691e-09  2.05918598e-09 
 4.54481479e-05  7.46148845e-02  8.75954030e-10  1.73567512e-10 
 4.59459300e-05 -5.88224136e-02  1.35181891e-09  2.05589034e-09 
 4.60000000e-05 -7.33166296e-02  8.76588676e-10  1.84188624e-10 
 4.60995564e-05 -5.97344176e-02  1.20505598e-09  1.47696104e-09 
 4.62986692e-05 -3.25699900e-02  1.02253934e-09  7.52330500e-10 
 4.66945080e-05  2.14332374e-02  1.20470509e-09  1.47461297e-09 
 4.70000000e-05  6.31106871e-02  1.02261301e-09  7.53654742e-10 
 4.70791678e-05  9.45640827e-02  1.19039535e-09  1.41908647e-09 
 4.72375033e-05  1.57470876e-01  1.03877802e-09  8.17512201e-10 
 4.75541743e-05  2.83284464e-01  1.18603422e-09  1.41348586e-09 
 4.80000000e-05  4.60411254e-01  5.69897966e-10  7.26829487e-10 
 4.80633342e-05  4.12325999e-01  1.90674982e-09 -2.75446474e-10 
 4.81900026e-05  3.16155479e-01  7.20731547e-10  2.51901303e-09 
 4.84433395e-05  1.23814437e-01  1.52578728e-09 -2.96330566e-10 
 4.89500131e-05 -2.60867646e-01  7.07088950e-10  2.54238909e-09 
 4.90000000e-05 -2.98819189e-01  1.52270115e-09 -2.81122966e-10 
 4.90570411e-05 -2.79699248e-01  1.52867251e-09  2.75003960e-09 
 4.91711234e-05 -2.41459356e-01  6.99845144e-10 -5.24198034e-10 
 4.93879805e-05 -1.68769809e-01  1.52795925e-09  2.74612309e-09 
 4.98216945e-05 -2.33907163e-02  7.00299652e-10 -5.14330039e-10 
 5.00000000e-05  3.63765061e-02  1.52757047e-09  2.74017538e-09 
 5.00867428e-05  4.13950652e-02  1.03989213e-09  8.21940539e-10 
 5.02602284e-05  5.14321807e-02  1.18709843e-09  1.40393273e-09 
 5.06071997e-05  7.15064117e-02  1.04006004e-09  8.23680169e-10 
 5.10000000e-05  9.42321092e-02  1.18704078e-09  1.40307149e-09 
 5.10693942e-05  5.67835661e-02  9.11863295e-10  3.10604865e-10 
 5.12081828e-05 -1.81135259e-02  1.31965594e-09  1.93222051e-09 
 5.14857598e-05 -1.67907710e-01  9.10289996e-10  3.08464209e-10 
 5.20000000e-05 -4.45416994e-01  1.31917458e-09  1.92959904e-09 
 5.20555154e-05 -3.99613880e-01  1.63272126e-09  3.17885234e-09 
 5.21665462e-05 -3.08007637e-01  6.00402313e-10 -9.25735813e-10 
 5.23886078e-05 -1.24795151e-01  1.63221870e-09  3.16924878e-09 
 5.28327310e-05  2.41629821e-01  6.01116138e-10 -9.12651944e-10 
 5.30000000e-05  3.79635510e-01  1.51291695e-09  3.08847845e-09 
 5.30888246e-05  3.34885068e-01  8.23979289e-10 -3.18011678e-10 
 5.32664739e-05  2.45384170e-01  1.43570453e-09  2.57171200e-09 
 5.35978888e-05  7.84151274e-02  7.95720796e-10 -3.29443967e-10 
 5.40000000e-05 -1.24171171e-01  1.43379253e-09  2.56567460e-09 
 5.40662830e-05 -1.18985628e-01  1.30974857e-09  1.89720765e-09 
 5.41988489e-05 -1.08614538e-01  9.17811560e-10  3.33418935e-10 
 5.44639809e-05 -8.78723571e-02  1.30924328e-09  1.89182513e-09 
 5.49942447e-05 -4.63879953e-02  9.17962313e-10  3.35998133e-10 
 5.50000000e-05 -4.59377384e-02  1.30459532e-09  1.81970288e-09 
 5.50115106e-05 -3.98217557e-02  2.00614040e-09  4.64894036e-09 
 5.50345318e-05 -2.75897853e-02  2.30069097e-10 -2.32391186e-09 
 5.50805742e-05 -3.12584444e-03  1.99713939e-09  4.51987891e-09 
 5.51726590e-05  4.58020372e-02  2.34071450e-10 -2.26159769e-09 
 5.53568286e-05  1.43657800e-01  1.99517258e-09  4.48951945e-09 
 5.57251678e-05  3.39369327e-01  2.17947229e-10 -2.25521434e-09 
 5.60000000e-05  4.85397284e-01  4.51085229e-10  4.23805967e-09 
 5.60736678e-05  4.80657923e-01  1.28004165e-09  7.67639654e-10 
 5.62210035e-05  4.71179193e-01  1.56344145e-09  1.52499701e-09 
 5.65156749e-05  4.52221734e-01  1.07827059e-09  6.74183345e-10 
 5.70000000e-05  4.21063047e-01  1.35449032e-09  1.56755180e-09 
 5.70589343e-05  4.19617553e-01  1.15449930e-09  1.15448689e-09 
 5.71768028e-05  4.16726568e-01  1.11712524e-09  1.05583266e-09 
 5.74125399e-05  4.10944597e-01  1.14925113e-09  1.17443717e-09 
 5.78840141e-05  3.99380654e-01  1.10852878e-09  1.05175149e-09 
 5.80000000e-05  3.96535845e-01  1.14334234e-09  1.17680424e-09 
 5.80942948e-05  3.71587351e-01  1.14104218e-09  8.83867624e-10 
 5.82828845e-05  3.21690360e-01  1.15302617e-09  1.34713955e-09 
 5.86600639e-05  2.21896378e-01  1.08474471e-09  8.77074518e-10 
 5.90000000e-05  1.31956197e-01  1.14378536e-09  1.35062031e-09 
 5.90754359e-05  1.10630172e-01  1.10837274e-09  1.09255916e-09 
 5.92263076e-05  6.79781207e-02  1.11963301e-09  1.13710432e-09 
 5.95280511e-05 -1.73259816e-02  1.10830120e-09  1.09272447e-09 
 6.00000000e-05 -1.50747842e-01  1.11956314e-09  1.13706748e-09 
 6.00603487e-05 -1.14750114e-01  1.43893317e-09  2.40555739e-09 
 6.01810461e-05 -4.27546460e-02  7.91849472e-10 -1.64560374e-10 
 6.04224409e-05  1.01236289e-01  1.43858777e-09  2.40075941e-09 
 6.09052305e-05  3.89218159e-01  7.36462314e-10 -1.87801768e-10 
 6.10000000e-05  4.45747777e-01  3.15783962e-10  1.93927841e-09 
 6.10965579e-05  4.19127100e-01  1.26918591e-09  4.92824090e-10 
 6.12896737e-05  3.65885736e-01  1.22078155e-09  1.82846820e-09 
 6.16089785e-05  2.77854519e-01  1.04731616e-09  3.71266840e-10 
 6.20000000e-05  1.70051255e-01  1.18344748e-09  1.85764466e-09 
 6.20638609e-05  1.88072161e-01  1.32101800e-09  1.93761015e-09 
 6.21915829e-05  2.24113979e-01  9.06772083e-10  2.94191497e-10 
 6.24470267e-05  2.96197616e-01  1.31466313e-09  1.92841404e-09 
 6.29579143e-05  4.40364890e-01  6.84352156e-10  2.61610738e-10 
 6.30000000e-05  4.52241038e-01  3.87313278e-10  2.15372288e-09 
 6.30841713e-05  4.72233001e-01  3.23131691e-10  1.07875921e-09 
 6.32525140e-05  5.12216928e-01 -1.86323452e-09  1.15805532e-09 
 6.35891994e-05  5.92184780e-01 -1.45511177e-08  1.06264410e-09 
 6.40000000e-05  6.89756100e-01 -5.94000159e-08  1.15844065e-09 
 6.40673371e-05  7.01688114e-01 -4.59628259e-08  1.05266848e-09 
 6.42020112e-05  7.25552141e-01 -5.91369236e-08  1.16192956e-09 
 6.44713595e-05  7.73280197e-01 -7.39334603e-08  1.06984208e-09 
 6.50000000e-05  8.66954368e-01 -1.17935783e-07  1.15484022e-09 
 6.50538697e-05  8.37071703e-01  3.47611588e-07  1.38274040e-10 
 6.51616090e-05  7.77306365e-01  2.28435542e-07  2.08447816e-09 
 6.53770876e-05  6.57775689e-01  1.22062802e-07  1.35597507e-10 
 6.58080449e-05  4.18714338e-01 -6.31786881e-08  2.05466748e-09 
 6.60000000e-05  3.12232715e-01  6.56704291e-08  1.84035763e-10 
 6.60861915e-05  3.42878367e-01  1.38110218e-09  2.09224852e-09 
 6.62585744e-05  4.04169681e-01  6.46945975e-10  4.99408503e-11 
 6.66033402e-05  5.26752309e-01 -2.34859825e-09  2.16026057e-09 
 6.70000000e-05  6.67785991e-01 -6.34234880e-08  8.41541876e-11 
 6.70689532e-05  6.30242410e-01  9.46388409e-08  9.87514791e-11 
 6.72068595e-05  5.55155235e-01 -2.02161629e-09  2.04563781e-09 
 6.74826722e-05  4.04980885e-01  1.49096696e-08  1.85401130e-10 
