 time            v(vin)          v(vout_buf)     v(vout_st)     
 0.00000000e+00  0.00000000e+00  1.11355078e-09  1.11355086e-09 
 5.00000000e-08  1.65000000e-04  1.11506423e-09  1.11957527e-09 
 1.00000000e-07  3.30000000e-04  1.11355181e-09  1.11356767e-09 
 2.00000000e-07  6.60000000e-04  1.11354977e-09  1.11353395e-09 
 4.00000000e-07  1.32000000e-03  1.11355207e-09  1.11356764e-09 
 8.00000000e-07  2.64000000e-03  1.11354982e-09  1.11353407e-09 
 1.60000000e-06  5.28000000e-03  1.11355193e-09  1.11356729e-09 
 3.20000000e-06  1.05600000e-02  1.11354968e-09  1.11353412e-09 
 6.40000000e-06  2.11200000e-02  1.11355197e-09  1.11356734e-09 
 1.14000000e-05  3.76200000e-02  1.11354970e-09  1.11353415e-09 
 1.64000000e-05  5.41200000e-02  1.11355173e-09  1.11356732e-09 
 2.14000000e-05  7.06200000e-02  1.11354957e-09  1.11353409e-09 
 2.64000000e-05  8.71200000e-02  1.11355165e-09  1.11356735e-09 
 3.14000000e-05  1.03620000e-01  1.11354947e-09  1.11353378e-09 
 3.64000000e-05  1.20120000e-01  1.11355141e-09  1.11356701e-09 
 4.14000000e-05  1.36620000e-01  1.11354888e-09  1.11353347e-09 
 4.64000000e-05  1.53120000e-01  1.11355056e-09  1.11356631e-09 
 5.14000000e-05  1.69620000e-01  1.11354766e-09  1.11353264e-09 
 5.64000000e-05  1.86120000e-01  1.11354856e-09  1.11356501e-09 
 6.14000000e-05  2.02620000e-01  1.11354184e-09  1.11352888e-09 
 6.64000000e-05  2.19120000e-01  1.11354392e-09  1.11356210e-09 
 7.14000000e-05  2.35620000e-01  1.11353271e-09  1.11352314e-09 
 7.64000000e-05  2.52120000e-01  1.11352895e-09  1.11355363e-09 
 8.14000000e-05  2.68620000e-01  1.11350871e-09  1.11351449e-09 
 8.64000000e-05  2.85120000e-01  1.11349048e-09  1.11358438e-09 
 9.14000000e-05  3.01620000e-01  1.11344720e-09  1.11361025e-09 
 9.64000000e-05  3.18120000e-01  1.11339188e-09  1.11347548e-09 
 1.01400000e-04  3.34620000e-01  1.11328855e-09  1.11363628e-09 
 1.06400000e-04  3.51120000e-01  1.11313651e-09  1.11345846e-09 
 1.11400000e-04  3.67620000e-01  1.11287729e-09  1.11364926e-09 
 1.16400000e-04  3.84120000e-01  1.11247303e-09  1.11344699e-09 
 1.21400000e-04  4.00620000e-01  1.11180663e-09  1.11365971e-09 
 1.26400000e-04  4.17120000e-01  1.11074579e-09  1.11343730e-09 
 1.31400000e-04  4.33620000e-01  1.10902136e-09  1.11366898e-09 
 1.36400000e-04  4.50120000e-01  1.10626232e-09  1.11342778e-09 
 1.41400000e-04  4.66620000e-01  1.10183054e-09  1.11367824e-09 
 1.46400000e-04  4.83120000e-01  1.09480588e-09  1.11341849e-09 
 1.51400000e-04  4.99620000e-01  1.08378520e-09  1.11368761e-09 
 1.56400000e-04  5.16120000e-01  1.06690566e-09  1.11340911e-09 
 1.61400000e-04  5.32620000e-01  1.04186220e-09  1.11369650e-09 
 1.66400000e-04  5.49120000e-01  1.00640337e-09  1.11339953e-09 
 1.71400000e-04  5.65620000e-01  9.58914538e-10  1.11370557e-09 
 1.76400000e-04  5.82120000e-01  8.99070560e-10  1.11338971e-09 
 1.81400000e-04  5.98620000e-01  8.27780564e-10  1.11371470e-09 
 1.86400000e-04  6.15120000e-01  7.46792057e-10  1.11338029e-09 
 1.91400000e-04  6.31620000e-01  6.57998447e-10  1.11372425e-09 
 1.96400000e-04  6.48120000e-01  5.63135951e-10  1.11337088e-09 
 2.01400000e-04  6.64620000e-01  4.63558409e-10  1.11373409e-09 
 2.06400000e-04  6.81120000e-01  3.60346360e-10  1.11336149e-09 
 2.11400000e-04  6.97620000e-01  2.54295170e-10  1.11374407e-09 
 2.16400000e-04  7.14120000e-01  1.46080848e-10  1.11335182e-09 
 2.21400000e-04  7.30620000e-01  3.62325619e-11  1.11375394e-09 
 2.26400000e-04  7.47120000e-01 -7.47355330e-11  1.11334222e-09 
 2.31400000e-04  7.63620000e-01 -1.86381715e-10  1.11376389e-09 
 2.36400000e-04  7.80120000e-01 -2.98226116e-10  1.11333230e-09 
 2.41400000e-04  7.96620000e-01 -4.09821126e-10  1.11377394e-09 
 2.46400000e-04  8.13120000e-01 -5.20645420e-10  1.11332247e-09 
 2.51400000e-04  8.29620000e-01 -6.30174188e-10  1.11378409e-09 
 2.56400000e-04  8.46120000e-01 -7.37771812e-10  1.11331233e-09 
 2.61400000e-04  8.62620000e-01 -8.42755247e-10  1.11379437e-09 
 2.66400000e-04  8.79120000e-01 -9.44276997e-10  1.11330208e-09 
 2.71400000e-04  8.95620000e-01 -1.04137607e-09  1.11380476e-09 
 2.76400000e-04  9.12120000e-01 -1.13284325e-09  1.11329192e-09 
 2.81400000e-04  9.28620000e-01 -1.21724925e-09  1.11381531e-09 
 2.86400000e-04  9.45120000e-01 -1.29277912e-09  1.11328145e-09 
 2.91400000e-04  9.61620000e-01 -1.35722053e-09  1.11382580e-09 
 2.96400000e-04  9.78120000e-01 -1.40774279e-09  1.11327068e-09 
 3.01400000e-04  9.94620000e-01 -1.44081243e-09  1.11383663e-09 
 3.06400000e-04  1.01112000e+00 -1.45187322e-09  1.11326000e-09 
 3.11400000e-04  1.02762000e+00 -1.43512440e-09  1.11384744e-09 
 3.16400000e-04  1.04412000e+00 -1.23417774e-09  1.11324908e-09 
 3.21400000e-04  1.06062000e+00 -1.47702154e-09  1.11385929e-09 
 3.26400000e-04  1.07712000e+00 -9.97092537e-10  1.11323620e-09 
 3.31400000e-04  1.09362000e+00 -1.10863911e-09  1.11387227e-09 
 3.36400000e-04  1.11012000e+00 -4.60746040e-10  1.11322326e-09 
 3.41400000e-04  1.12662000e+00 -3.54516079e-10  1.11388557e-09 
 3.46400000e-04  1.14312000e+00  5.81805463e-10  1.11320989e-09 
 3.51400000e-04  1.15962000e+00  1.06941830e-09  1.11389861e-09 
 3.56400000e-04  1.17612000e+00  2.51912043e-09  1.11319666e-09 
 3.61400000e-04  1.19262000e+00  3.70055079e-09  1.11391237e-09 
 3.66400000e-04  1.20912000e+00  6.10360016e-09  1.11318317e-09 
 3.71400000e-04  1.22562000e+00  8.60646825e-09  1.11392588e-09 
 3.76400000e-04  1.24212000e+00  1.28724326e-08  1.11316942e-09 
 3.81400000e-04  1.25862000e+00  1.80363861e-08  1.11393993e-09 
 3.86400000e-04  1.27512000e+00  2.61756843e-08  1.11315541e-09 
 3.91400000e-04  1.29162000e+00  3.70790729e-08  1.11395393e-09 
 3.96400000e-04  1.30812000e+00  5.39143825e-08  1.11314132e-09 
 4.01400000e-04  1.32462000e+00  7.83060409e-08  1.11396828e-09 
 4.06400000e-04  1.34112000e+00  1.16650420e-07  1.11312677e-09 
 4.11400000e-04  1.35762000e+00  1.76414555e-07  1.11398300e-09 
 4.16400000e-04  1.37412000e+00  2.75057840e-07  1.11311213e-09 
 4.21400000e-04  1.39062000e+00  4.41945310e-07  1.11399769e-09 
 4.26400000e-04  1.40712000e+00  7.40362451e-07  1.11309721e-09 
 4.31400000e-04  1.42362000e+00  1.30178035e-06  1.11401295e-09 
 4.36400000e-04  1.44012000e+00  2.43478726e-06  1.11308182e-09 
 4.41400000e-04  1.45662000e+00  6.22515556e-06  1.11402846e-09 
 4.46400000e-04  1.47312000e+00  1.47909781e-05  1.11306520e-09 
 4.51400000e-04  1.48962000e+00  4.07494251e-05  1.11404609e-09 
 4.56400000e-04  1.50612000e+00  1.34523288e-04  1.11304736e-09 
 4.61400000e-04  1.52262000e+00  5.27911933e-04  1.11406408e-09 
 4.66400000e-04  1.53912000e+00  2.15235888e-03  1.11302943e-09 
 4.71400000e-04  1.55562000e+00  8.41404233e-03  1.11408252e-09 
 4.76400000e-04  1.57212000e+00  3.33487533e-02  1.11301092e-09 
 4.81400000e-04  1.58862000e+00  1.56125262e-01  1.11410132e-09 
 4.86400000e-04  1.60512000e+00  2.96257520e+00  1.11299198e-09 
 4.90333752e-04  1.61810138e+00  3.20886094e+00  1.11412322e-09 
 4.94034864e-04  1.63031505e+00  3.27072649e+00  1.11296664e-09 
 4.99034864e-04  1.64681505e+00  3.29433960e+00  1.11414622e-09 
 5.04034864e-04  1.66331505e+00  3.29914920e+00  1.11294683e-09 
 5.09034864e-04  1.67981505e+00  3.29990313e+00  1.11416627e-09 
 5.14034864e-04  1.69631505e+00  3.29996059e+00  1.11292649e-09 
 5.19034864e-04  1.71281505e+00  3.30000699e+00  1.11418704e-09 
 5.24034864e-04  1.72931505e+00  3.29998306e+00  1.11290586e-09 
 5.29034864e-04  1.74581505e+00  3.30001293e+00  1.11420828e-09 
 5.34034864e-04  1.76231505e+00  3.29998539e+00  1.11288433e-09 
 5.39034864e-04  1.77881505e+00  3.30001362e+00  1.11423011e-09 
 5.44034864e-04  1.79531505e+00  3.29998593e+00  1.11286230e-09 
 5.49034864e-04  1.81181505e+00  3.30001369e+00  1.11425256e-09 
 5.54034864e-04  1.82831505e+00  3.29998616e+00  1.11283973e-09 
 5.59034864e-04  1.84481505e+00  3.30001364e+00  1.11427599e-09 
 5.64034864e-04  1.86131505e+00  3.29998629e+00  1.11281605e-09 
 5.69034864e-04  1.87781505e+00  3.30001358e+00  1.11430011e-09 
 5.74034864e-04  1.89431505e+00  3.29998639e+00  1.11279181e-09 
 5.79034864e-04  1.91081505e+00  3.30001352e+00  1.11432504e-09 
 5.84034864e-04  1.92731505e+00  3.29998646e+00  1.11276682e-09 
 5.89034864e-04  1.94381505e+00  3.30001346e+00  1.11435119e-09 
 5.94034864e-04  1.96031505e+00  3.29998653e+00  1.11274050e-09 
 5.99034864e-04  1.97681505e+00  3.30001341e+00  1.11437811e-09 
 6.04034864e-04  1.99331505e+00  3.29998658e+00  1.11271340e-09 
 6.09034864e-04  2.00981505e+00  3.30001336e+00  1.11440628e-09 
 6.14034864e-04  2.02631505e+00  3.29998663e+00  1.11268495e-09 
 6.19034864e-04  2.04281505e+00  3.30001332e+00  1.11443574e-09 
 6.24034864e-04  2.05931505e+00  3.29998667e+00  1.11265517e-09 
 6.29034864e-04  2.07581505e+00  3.30001328e+00  1.11446704e-09 
 6.34034864e-04  2.09231505e+00  3.29998671e+00  1.11262400e-09 
 6.39034864e-04  2.10881505e+00  3.30001325e+00  1.11449949e-09 
 6.44034864e-04  2.12531505e+00  3.29998675e+00  1.11259079e-09 
 6.49034864e-04  2.14181505e+00  3.30001322e+00  1.11453407e-09 
 6.54034864e-04  2.15831505e+00  3.29998678e+00  1.11255575e-09 
 6.59034864e-04  2.17481505e+00  3.30001319e+00  1.11457008e-09 
 6.64034864e-04  2.19131505e+00  3.29998681e+00  1.11251716e-09 
 6.69034864e-04  2.20781505e+00  3.30001317e+00  1.11460625e-09 
 6.74034864e-04  2.22431505e+00  3.29998683e+00  1.11247158e-09 
 6.79034864e-04  2.24081505e+00  3.30001315e+00  1.11463500e-09 
 6.84034864e-04  2.25731505e+00  3.29998685e+00  1.11240145e-09 
 6.89034864e-04  2.27381505e+00  3.30001313e+00  1.11462240e-09 
 6.94034864e-04  2.29031505e+00  3.29998687e+00  1.11223451e-09 
 6.99034864e-04  2.30681505e+00  3.30001311e+00  1.11441816e-09 
 7.04034864e-04  2.32331505e+00  3.29998689e+00  1.11165342e-09 
 7.09034864e-04  2.33981505e+00  3.30001309e+00  1.11335767e-09 
 7.14034864e-04  2.35631505e+00  3.29998691e+00  1.10925479e-09 
 7.19034864e-04  2.37281505e+00  3.30001308e+00  1.10847708e-09 
 7.24034864e-04  2.38931505e+00  3.29998692e+00  1.09875284e-09 
 7.29034864e-04  2.40581505e+00  3.30001306e+00  1.08640714e-09 
 7.34034864e-04  2.42231505e+00  3.29998693e+00  1.05156851e-09 
 7.39034864e-04  2.43881505e+00  3.30001305e+00  9.85656919e-10 
 7.44034864e-04  2.45531505e+00  3.29998695e+00  8.33881384e-10 
 7.49034864e-04  2.47181505e+00  3.30001304e+00  5.08658719e-10 
 7.54034864e-04  2.48831505e+00  3.29998696e+00 -2.47968967e-10 
 7.59034864e-04  2.50481505e+00  3.30001304e+00 -2.16318467e-09 
 7.64034864e-04  2.52131505e+00  3.29998696e+00 -9.06653042e-09 
 7.64659864e-04  2.52337755e+00  3.30000000e+00 -1.67638203e-08 
 7.65909864e-04  2.52750255e+00  3.30000000e+00 -6.27106775e-08 
 7.65948926e-04  2.52763146e+00  3.30000000e+00 -5.04140078e-07 
 7.65950147e-04  2.52763549e+00  3.30000000e+00 -5.49551869e-07 
 7.65952589e-04  2.52764354e+00  3.30000000e+00 -6.50290456e-07 
 7.65957471e-04  2.52765966e+00  3.30000000e+00 -9.47427554e-07 
 7.65967237e-04  2.52769188e+00  3.30000000e+00 -4.51181863e-06 
 7.65969678e-04  2.52769994e+00  3.30000000e+00 -1.17475565e-05 
 7.65970289e-04  2.52770195e+00  3.30000000e+00 -1.48295514e-05 
 7.65971509e-04  2.52770598e+00  3.30000000e+00 -2.49869764e-05 
 7.65972654e-04  2.52770976e+00  3.30000000e+00  3.16708204e+00 
 7.65973486e-04  2.52771250e+00  3.30000000e+00  3.37517396e+00 
 7.65974266e-04  2.52771508e+00  3.30000000e+00  3.23131117e+00 
 7.65974816e-04  2.52771689e+00  3.30000000e+00  3.34963450e+00 
 7.65975425e-04  2.52771890e+00  3.30000000e+00  3.25648916e+00 
 7.65976038e-04  2.52772092e+00  3.30000000e+00  3.33678579e+00 
 7.65976751e-04  2.52772328e+00  3.30000000e+00  3.26657900e+00 
 7.65977692e-04  2.52772638e+00  3.30000000e+00  3.33039057e+00 
 7.65978875e-04  2.52773029e+00  3.30000000e+00  3.27114320e+00 
 7.65980529e-04  2.52773575e+00  3.30000000e+00  3.32729236e+00 
 7.65983111e-04  2.52774427e+00  3.30000000e+00  3.27320502e+00 
 7.65987595e-04  2.52775906e+00  3.30000000e+00  3.32609781e+00 
 7.65996562e-04  2.52778866e+00  3.30000000e+00  3.27386157e+00 
 7.66014497e-04  2.52784784e+00  3.30000000e+00  3.32578059e+00 
 7.66050366e-04  2.52796621e+00  3.30000000e+00  3.27402285e+00 
 7.66122104e-04  2.52820294e+00  3.30000000e+00  3.32570194e+00 
 7.66265580e-04  2.52867641e+00  3.30000000e+00  3.27406299e+00 
 7.66552532e-04  2.52962336e+00  3.30000000e+00  3.32568232e+00 
 7.67126437e-04  2.53151724e+00  3.30000000e+00  3.27407300e+00 
 7.68274246e-04  2.53530501e+00  3.30000000e+00  3.32567738e+00 
 7.70569864e-04  2.54288055e+00  3.30000000e+00  3.27407545e+00 
 7.75161100e-04  2.55803163e+00  3.30000000e+00  3.32567605e+00 
 7.80161100e-04  2.57453163e+00  3.30000000e+00  3.27407610e+00 
 7.85161100e-04  2.59103163e+00  3.30000000e+00  3.32567515e+00 
 7.90161100e-04  2.60753163e+00  3.30000000e+00  3.27407672e+00 
 7.95161100e-04  2.62403163e+00  3.30000000e+00  3.32567426e+00 
 8.00161100e-04  2.64053163e+00  3.30000000e+00  3.27407734e+00 
 8.05161100e-04  2.65703163e+00  3.30000000e+00  3.32567337e+00 
 8.10161100e-04  2.67353163e+00  3.30000000e+00  3.27407797e+00 
 8.15161100e-04  2.69003163e+00  3.30000000e+00  3.32567248e+00 
 8.20161100e-04  2.70653163e+00  3.30000000e+00  3.27407860e+00 
 8.25161100e-04  2.72303163e+00  3.30000000e+00  3.32567160e+00 
 8.30161100e-04  2.73953163e+00  3.30000000e+00  3.27407924e+00 
 8.35161100e-04  2.75603163e+00  3.30000000e+00  3.32567073e+00 
 8.40161100e-04  2.77253163e+00  3.30000000e+00  3.27407989e+00 
 8.45161100e-04  2.78903163e+00  3.30000000e+00  3.32566981e+00 
 8.50161100e-04  2.80553163e+00  3.30000000e+00  3.27408048e+00 
 8.55161100e-04  2.82203163e+00  3.30000000e+00  3.32566891e+00 
 8.60161100e-04  2.83853163e+00  3.30000000e+00  3.27408107e+00 
 8.65161100e-04  2.85503163e+00  3.30000000e+00  3.32566798e+00 
 8.70161100e-04  2.87153163e+00  3.30000000e+00  3.27408165e+00 
 8.75161100e-04  2.88803163e+00  3.30000000e+00  3.32566708e+00 
 8.80161100e-04  2.90453163e+00  3.30000000e+00  3.27408231e+00 
 8.85161100e-04  2.92103163e+00  3.30000000e+00  3.32566622e+00 
 8.90161100e-04  2.93753163e+00  3.30000000e+00  3.27408296e+00 
 8.95161100e-04  2.95403163e+00  3.30000000e+00  3.32566541e+00 
 9.00161100e-04  2.97053163e+00  3.30000000e+00  3.27408369e+00 
 9.05161100e-04  2.98703163e+00  3.30000000e+00  3.32566452e+00 
 9.10161100e-04  3.00353163e+00  3.30000000e+00  3.27408437e+00 
 9.15161100e-04  3.02003163e+00  3.30000000e+00  3.32566373e+00 
 9.20161100e-04  3.03653163e+00  3.30000000e+00  3.27408505e+00 
 9.25161100e-04  3.05303163e+00  3.30000000e+00  3.32566289e+00 
 9.30161100e-04  3.06953163e+00  3.30000000e+00  3.27408573e+00 
 9.35161100e-04  3.08603163e+00  3.30000000e+00  3.32566205e+00 
 9.40161100e-04  3.10253163e+00  3.30000000e+00  3.27408642e+00 
 9.45161100e-04  3.11903163e+00  3.30000000e+00  3.32566122e+00 
 9.50161100e-04  3.13553163e+00  3.30000000e+00  3.27408711e+00 
 9.55161100e-04  3.15203163e+00  3.30000000e+00  3.32566039e+00 
 9.60161100e-04  3.16853163e+00  3.30000000e+00  3.27408781e+00 
 9.65161100e-04  3.18503163e+00  3.30000000e+00  3.32565956e+00 
 9.70161100e-04  3.20153163e+00  3.30000000e+00  3.27408851e+00 
 9.75161100e-04  3.21803163e+00  3.30000000e+00  3.32565873e+00 
 9.80161100e-04  3.23453163e+00  3.30000000e+00  3.27408921e+00 
 9.85161100e-04  3.25103163e+00  3.30000000e+00  3.32565791e+00 
 9.90161100e-04  3.26753163e+00  3.30000000e+00  3.27408991e+00 
 9.95161100e-04  3.28403163e+00  3.30000000e+00  3.32565709e+00 
 1.00000000e-03  3.30000000e+00  3.30000000e+00  3.27409063e+00 
 1.00050000e-03  3.30000000e+00  3.30000000e+00  3.29999905e+00 
 1.00150000e-03  3.30000000e+00  3.30000000e+00  3.30000096e+00 
 1.00350000e-03  3.30000000e+00  3.30000000e+00  3.29999904e+00 
 1.00666725e-03  3.30000000e+00  3.30000000e+00  3.30000096e+00 
 1.01166725e-03  3.30000000e+00  3.30000000e+00  3.29999904e+00 
 1.01666725e-03  3.30000000e+00  3.30000000e+00  3.30000096e+00 
 1.02166725e-03  3.30000000e+00  3.30000000e+00  3.29999904e+00 
 1.02666725e-03  3.30000000e+00  3.30000000e+00  3.30000096e+00 
 1.03166725e-03  3.30000000e+00  3.30000000e+00  3.29999904e+00 
 1.03666725e-03  3.30000000e+00  3.30000000e+00  3.30000096e+00 
 1.04166725e-03  3.30000000e+00  3.30000000e+00  3.29999904e+00 
 1.04666725e-03  3.30000000e+00  3.30000000e+00  3.30000096e+00 
 1.05166725e-03  3.30000000e+00  3.30000000e+00  3.29999904e+00 
 1.05666725e-03  3.30000000e+00  3.30000000e+00  3.30000096e+00 
 1.06166725e-03  3.30000000e+00  3.30000000e+00  3.29999904e+00 
 1.06666725e-03  3.30000000e+00  3.30000000e+00  3.30000096e+00 
 1.07166725e-03  3.30000000e+00  3.30000000e+00  3.29999904e+00 
 1.07666725e-03  3.30000000e+00  3.30000000e+00  3.30000096e+00 
 1.08166725e-03  3.30000000e+00  3.30000000e+00  3.29999904e+00 
 1.08666725e-03  3.30000000e+00  3.30000000e+00  3.30000096e+00 
 1.09166725e-03  3.30000000e+00  3.30000000e+00  3.29999904e+00 
 1.09666725e-03  3.30000000e+00  3.30000000e+00  3.30000096e+00 
 1.10166725e-03  3.30000000e+00  3.30000000e+00  3.29999904e+00 
 1.10666725e-03  3.30000000e+00  3.30000000e+00  3.30000096e+00 
 1.11166725e-03  3.30000000e+00  3.30000000e+00  3.29999904e+00 
 1.11666725e-03  3.30000000e+00  3.30000000e+00  3.30000096e+00 
 1.12166725e-03  3.30000000e+00  3.30000000e+00  3.29999904e+00 
 1.12666725e-03  3.30000000e+00  3.30000000e+00  3.30000096e+00 
 1.13166725e-03  3.30000000e+00  3.30000000e+00  3.29999904e+00 
 1.13666725e-03  3.30000000e+00  3.30000000e+00  3.30000096e+00 
 1.14166725e-03  3.30000000e+00  3.30000000e+00  3.29999904e+00 
 1.14666725e-03  3.30000000e+00  3.30000000e+00  3.30000096e+00 
 1.15166725e-03  3.30000000e+00  3.30000000e+00  3.29999904e+00 
 1.15666725e-03  3.30000000e+00  3.30000000e+00  3.30000096e+00 
 1.16166725e-03  3.30000000e+00  3.30000000e+00  3.29999904e+00 
 1.16666725e-03  3.30000000e+00  3.30000000e+00  3.30000096e+00 
 1.17166725e-03  3.30000000e+00  3.30000000e+00  3.29999904e+00 
 1.17666725e-03  3.30000000e+00  3.30000000e+00  3.30000096e+00 
 1.18166725e-03  3.30000000e+00  3.30000000e+00  3.29999904e+00 
 1.18666725e-03  3.30000000e+00  3.30000000e+00  3.30000096e+00 
 1.19166725e-03  3.30000000e+00  3.30000000e+00  3.29999904e+00 
 1.19666725e-03  3.30000000e+00  3.30000000e+00  3.30000096e+00 
 1.20166725e-03  3.30000000e+00  3.30000000e+00  3.29999904e+00 
 1.20666725e-03  3.30000000e+00  3.30000000e+00  3.30000096e+00 
 1.21166725e-03  3.30000000e+00  3.30000000e+00  3.29999904e+00 
 1.21666725e-03  3.30000000e+00  3.30000000e+00  3.30000096e+00 
 1.22166725e-03  3.30000000e+00  3.30000000e+00  3.29999904e+00 
 1.22666725e-03  3.30000000e+00  3.30000000e+00  3.30000096e+00 
 1.23166725e-03  3.30000000e+00  3.30000000e+00  3.29999904e+00 
 1.23666725e-03  3.30000000e+00  3.30000000e+00  3.30000096e+00 
 1.24166725e-03  3.30000000e+00  3.30000000e+00  3.29999904e+00 
 1.24666725e-03  3.30000000e+00  3.30000000e+00  3.30000096e+00 
 1.25166725e-03  3.30000000e+00  3.30000000e+00  3.29999904e+00 
 1.25666725e-03  3.30000000e+00  3.30000000e+00  3.30000096e+00 
 1.26166725e-03  3.30000000e+00  3.30000000e+00  3.29999904e+00 
 1.26666725e-03  3.30000000e+00  3.30000000e+00  3.30000096e+00 
 1.27166725e-03  3.30000000e+00  3.30000000e+00  3.29999904e+00 
 1.27666725e-03  3.30000000e+00  3.30000000e+00  3.30000096e+00 
 1.28166725e-03  3.30000000e+00  3.30000000e+00  3.29999904e+00 
 1.28666725e-03  3.30000000e+00  3.30000000e+00  3.30000096e+00 
 1.29166725e-03  3.30000000e+00  3.30000000e+00  3.29999904e+00 
 1.29666725e-03  3.30000000e+00  3.30000000e+00  3.30000096e+00 
 1.30166725e-03  3.30000000e+00  3.30000000e+00  3.29999904e+00 
 1.30666725e-03  3.30000000e+00  3.30000000e+00  3.30000096e+00 
 1.31166725e-03  3.30000000e+00  3.30000000e+00  3.29999904e+00 
 1.31666725e-03  3.30000000e+00  3.30000000e+00  3.30000096e+00 
 1.32166725e-03  3.30000000e+00  3.30000000e+00  3.29999904e+00 
 1.32666725e-03  3.30000000e+00  3.30000000e+00  3.30000096e+00 
