 time            v(vind)         v(vout)         v(vinp)         v(vinn)         v(voutp)        v(voutn)       
 0.00000000e+00  0.00000000e+00  9.10382880e-15  7.50000000e-01  7.50000000e-01  3.47057540e-01  3.47057540e-01 
 1.00000000e-07  6.28318530e-08  2.38625952e-10  7.50000031e-01  7.49999969e-01  3.47057540e-01  3.47057540e-01 
 2.00000000e-07  1.25663706e-07  2.09330803e-09  7.50000063e-01  7.49999937e-01  3.47057541e-01  3.47057539e-01 
 4.00000000e-07  2.51327410e-07  1.35166967e-08  7.50000126e-01  7.49999874e-01  3.47057546e-01  3.47057532e-01 
 8.00000000e-07  5.02654803e-07  9.45638371e-08  7.50000251e-01  7.49999749e-01  3.47057585e-01  3.47057491e-01 
 1.60000000e-06  1.00530948e-06  5.37051827e-07  7.50000503e-01  7.49999497e-01  3.47057803e-01  3.47057266e-01 
 3.20000000e-06  2.01061794e-06  2.59820298e-06  7.50001005e-01  7.49998995e-01  3.47058832e-01  3.47056234e-01 
 6.40000000e-06  4.02122776e-06  1.13215105e-05  7.50002011e-01  7.49997989e-01  3.47063175e-01  3.47051854e-01 
 1.28000000e-05  8.04239049e-06  4.62761152e-05  7.50004021e-01  7.49995979e-01  3.47080601e-01  3.47034325e-01 
 2.28000000e-05  1.43251725e-05  1.44083694e-04  7.50007163e-01  7.49992837e-01  3.47129411e-01  3.46985328e-01 
 3.28000000e-05  2.06073890e-05  2.89827043e-04  7.50010304e-01  7.49989696e-01  3.47202117e-01  3.46912289e-01 
 4.28000000e-05  2.68887919e-05  4.78596155e-04  7.50013444e-01  7.49986556e-01  3.47296142e-01  3.46817546e-01 
 5.28000000e-05  3.31691333e-05  7.05656406e-04  7.50016585e-01  7.49983415e-01  3.47409377e-01  3.46703720e-01 
 6.28000000e-05  3.94481653e-05  9.66776806e-04  7.50019724e-01  7.49980276e-01  3.47539533e-01  3.46572756e-01 
 7.28000000e-05  4.57256399e-05  1.25822458e-03  7.50022863e-01  7.49977137e-01  3.47684806e-01  3.46426581e-01 
 8.28000000e-05  5.20013093e-05  1.57661421e-03  7.50026001e-01  7.49973999e-01  3.47843449e-01  3.46266834e-01 
 9.28000000e-05  5.82749259e-05  1.91887794e-03  7.50029137e-01  7.49970863e-01  3.48014039e-01  3.46095161e-01 
 1.02800000e-04  6.45462418e-05  2.28234097e-03  7.50032273e-01  7.49967727e-01  3.48195236e-01  3.45912895e-01 
 1.12800000e-04  7.08150095e-05  2.66463395e-03  7.50035408e-01  7.49964592e-01  3.48385975e-01  3.45721341e-01 
 1.22800000e-04  7.70809816e-05  3.06363306e-03  7.50038540e-01  7.49961460e-01  3.48585312e-01  3.45521679e-01 
 1.32800000e-04  8.33439107e-05  3.47740901e-03  7.50041672e-01  7.49958328e-01  3.48792049e-01  3.45314640e-01 
 1.42800000e-04  8.96035495e-05  3.90433824e-03  7.50044802e-01  7.49955198e-01  3.49005186e-01  3.45100848e-01 
 1.52800000e-04  9.58596509e-05  4.34292577e-03  7.50047930e-01  7.49952070e-01  3.49224131e-01  3.44881205e-01 
 1.62800000e-04  1.02111968e-04  4.79177496e-03  7.50051056e-01  7.49948944e-01  3.49448286e-01  3.44656511e-01 
 1.72800000e-04  1.08360254e-04  5.24970552e-03  7.50054180e-01  7.49945820e-01  3.49677032e-01  3.44427326e-01 
 1.82800000e-04  1.14604262e-04  5.71575926e-03  7.50057302e-01  7.49942698e-01  3.49910031e-01  3.44194271e-01 
 1.92800000e-04  1.20843745e-04  6.18889057e-03  7.50060422e-01  7.49939578e-01  3.50146525e-01  3.43957634e-01 
 2.02800000e-04  1.27078458e-04  6.66826920e-03  7.50063539e-01  7.49936461e-01  3.50385997e-01  3.43717727e-01 
 2.12800000e-04  1.33308154e-04  7.15322652e-03  7.50066654e-01  7.49933346e-01  3.50628239e-01  3.43475013e-01 
 2.22800000e-04  1.39532587e-04  7.64305605e-03  7.50069766e-01  7.49930234e-01  3.50872971e-01  3.43229915e-01 
 2.32800000e-04  1.45751512e-04  8.13719800e-03  7.50072876e-01  7.49927124e-01  3.51119898e-01  3.42982700e-01 
 2.42800000e-04  1.51964683e-04  8.63505822e-03  7.50075982e-01  7.49924018e-01  3.51368641e-01  3.42733583e-01 
 2.52800000e-04  1.58171854e-04  9.13621764e-03  7.50079086e-01  7.49920914e-01  3.51619024e-01  3.42482807e-01 
 2.62800000e-04  1.64372781e-04  9.64019582e-03  7.50082186e-01  7.49917814e-01  3.51870739e-01  3.42230544e-01 
 2.72800000e-04  1.70567219e-04  1.01466208e-02  7.50085284e-01  7.49914716e-01  3.52123668e-01  3.41977047e-01 
 2.82800000e-04  1.76754923e-04  1.06552171e-02  7.50088377e-01  7.49911623e-01  3.52377867e-01  3.41722650e-01 
 2.92800000e-04  1.82935649e-04  1.11656310e-02  7.50091468e-01  7.49908532e-01  3.52633076e-01  3.41467445e-01 
 3.02800000e-04  1.89109154e-04  1.16776249e-02  7.50094555e-01  7.49905445e-01  3.52888968e-01  3.41211343e-01 
 3.12800000e-04  1.95275192e-04  1.21909222e-02  7.50097638e-01  7.49902362e-01  3.53145552e-01  3.40954630e-01 
 3.22800000e-04  2.01433522e-04  1.27052823e-02  7.50100717e-01  7.49899283e-01  3.53402720e-01  3.40697438e-01 
 3.32800000e-04  2.07583899e-04  1.32205580e-02  7.50103792e-01  7.49896208e-01  3.53660363e-01  3.40439805e-01 
 3.42800000e-04  2.13726081e-04  1.37365610e-02  7.50106863e-01  7.49893137e-01  3.53918360e-01  3.40181799e-01 
 3.52800000e-04  2.19859825e-04  1.42531337e-02  7.50109930e-01  7.49890070e-01  3.54176668e-01  3.39923534e-01 
 3.62800000e-04  2.25984890e-04  1.47701457e-02  7.50112992e-01  7.49887008e-01  3.54435240e-01  3.39665094e-01 
 3.72800000e-04  2.32101034e-04  1.52874513e-02  7.50116051e-01  7.49883949e-01  3.54693912e-01  3.39406461e-01 
 3.82800000e-04  2.38208014e-04  1.58048959e-02  7.50119104e-01  7.49880896e-01  3.54952592e-01  3.39147696e-01 
 3.84050000e-04  2.38970730e-04  1.58696318e-02  7.50119485e-01  7.49880515e-01  3.54984974e-01  3.39115343e-01 
 3.86550000e-04  2.40495720e-04  1.59990255e-02  7.50120248e-01  7.49879752e-01  3.55049630e-01  3.39050605e-01 
 3.91550000e-04  2.43543916e-04  1.62577821e-02  7.50121772e-01  7.49878228e-01  3.55179035e-01  3.38921253e-01 
 4.01550000e-04  2.49633066e-04  1.67753120e-02  7.50124817e-01  7.49875183e-01  3.55438210e-01  3.38662898e-01 
 4.11550000e-04  2.55712361e-04  1.72926934e-02  7.50127856e-01  7.49872144e-01  3.55697259e-01  3.38404566e-01 
 4.21550000e-04  2.61781562e-04  1.78099081e-02  7.50130891e-01  7.49869109e-01  3.55956178e-01  3.38146270e-01 
 4.31550000e-04  2.67840427e-04  1.83268378e-02  7.50133920e-01  7.49866080e-01  3.56214890e-01  3.37888053e-01 
 4.41550000e-04  2.73888719e-04  1.88434191e-02  7.50136944e-01  7.49863056e-01  3.56473292e-01  3.37629873e-01 
 4.51550000e-04  2.79926198e-04  1.93596734e-02  7.50139963e-01  7.49860037e-01  3.56731370e-01  3.37371697e-01 
 4.61550000e-04  2.85952626e-04  1.98754298e-02  7.50142976e-01  7.49857024e-01  3.56989151e-01  3.37113722e-01 
 4.71550000e-04  2.91967765e-04  2.03906452e-02  7.50145984e-01  7.49854016e-01  3.57246738e-01  3.36856093e-01 
 4.81550000e-04  2.97971377e-04  2.09053247e-02  7.50148986e-01  7.49851014e-01  3.57504191e-01  3.36598866e-01 
 4.91550000e-04  3.03963226e-04  2.14194050e-02  7.50151982e-01  7.49848018e-01  3.57761287e-01  3.36341882e-01 
 5.01550000e-04  3.09943076e-04  2.19328257e-02  7.50154972e-01  7.49845028e-01  3.58017914e-01  3.36085089e-01 
 5.11550000e-04  3.15910689e-04  2.24455691e-02  7.50157955e-01  7.49842045e-01  3.58274033e-01  3.35828464e-01 
 5.21550000e-04  3.21865831e-04  2.29575525e-02  7.50160933e-01  7.49839067e-01  3.58529732e-01  3.35572180e-01 
 5.31550000e-04  3.27808265e-04  2.34687187e-02  7.50163904e-01  7.49836096e-01  3.58785172e-01  3.35316453e-01 
 5.41550000e-04  3.33737759e-04  2.39790613e-02  7.50166869e-01  7.49833131e-01  3.59040360e-01  3.35061299e-01 
 5.51550000e-04  3.39654077e-04  2.44886396e-02  7.50169827e-01  7.49830173e-01  3.59295267e-01  3.34806627e-01 
 5.61550000e-04  3.45556987e-04  2.49973069e-02  7.50172778e-01  7.49827222e-01  3.59549586e-01  3.34552279e-01 
 5.71550000e-04  3.51446254e-04  2.55050649e-02  7.50175723e-01  7.49824277e-01  3.59803379e-01  3.34298314e-01 
 5.81550000e-04  3.57321647e-04  2.60118619e-02  7.50178661e-01  7.49821339e-01  3.60056634e-01  3.34044772e-01 
 5.91550000e-04  3.63182933e-04  2.65177580e-02  7.50181591e-01  7.49818409e-01  3.60309364e-01  3.33791606e-01 
 6.01550000e-04  3.69029881e-04  2.70226085e-02  7.50184515e-01  7.49815485e-01  3.60561608e-01  3.33539000e-01 
 6.11550000e-04  3.74862261e-04  2.75264375e-02  7.50187431e-01  7.49812569e-01  3.60813574e-01  3.33287136e-01 
 6.21550000e-04  3.80679842e-04  2.80292225e-02  7.50190340e-01  7.49809660e-01  3.61065162e-01  3.33035939e-01 
 6.31550000e-04  3.86482394e-04  2.85310247e-02  7.50193241e-01  7.49806759e-01  3.61316115e-01  3.32785091e-01 
 6.41550000e-04  3.92269689e-04  2.90316666e-02  7.50196135e-01  7.49803865e-01  3.61566483e-01  3.32534816e-01 
 6.51550000e-04  3.98041498e-04  2.95312143e-02  7.50199021e-01  7.49800979e-01  3.61816379e-01  3.32285165e-01 
 6.61550000e-04  4.03797592e-04  3.00296191e-02  7.50201899e-01  7.49798101e-01  3.62065727e-01  3.32036108e-01 
 6.71550000e-04  4.09537745e-04  3.05269148e-02  7.50204769e-01  7.49795231e-01  3.62314457e-01  3.31787543e-01 
 6.81550000e-04  4.15261731e-04  3.10229751e-02  7.50207631e-01  7.49792369e-01  3.62562492e-01  3.31539517e-01 
 6.91550000e-04  4.20969322e-04  3.15178587e-02  7.50210485e-01  7.49789515e-01  3.62809923e-01  3.31292064e-01 
 7.01550000e-04  4.26660295e-04  3.20114868e-02  7.50213330e-01  7.49786670e-01  3.63056781e-01  3.31045294e-01 
 7.11550000e-04  4.32334424e-04  3.25038914e-02  7.50216167e-01  7.49783833e-01  3.63303102e-01  3.30799211e-01 
 7.21550000e-04  4.37991484e-04  3.29950129e-02  7.50218996e-01  7.49781004e-01  3.63548823e-01  3.30553811e-01 
 7.31550000e-04  4.43631254e-04  3.34848555e-02  7.50221816e-01  7.49778184e-01  3.63793923e-01  3.30309068e-01 
 7.41550000e-04  4.49253510e-04  3.39733307e-02  7.50224627e-01  7.49775373e-01  3.64038316e-01  3.30064985e-01 
 7.51550000e-04  4.54858030e-04  3.44605526e-02  7.50227429e-01  7.49772571e-01  3.64282192e-01  3.29821639e-01 
 7.61550000e-04  4.60444593e-04  3.49464032e-02  7.50230222e-01  7.49769778e-01  3.64525422e-01  3.29579019e-01 
 7.71550000e-04  4.66012979e-04  3.54308713e-02  7.50233006e-01  7.49766994e-01  3.64767914e-01  3.29337043e-01 
 7.81550000e-04  4.71562967e-04  3.59139984e-02  7.50235781e-01  7.49764219e-01  3.65009704e-01  3.29095706e-01 
 7.91550000e-04  4.77094338e-04  3.63956900e-02  7.50238547e-01  7.49761453e-01  3.65250653e-01  3.28854963e-01 
 8.01550000e-04  4.82606875e-04  3.68759562e-02  7.50241303e-01  7.49758697e-01  3.65490754e-01  3.28614798e-01 
 8.11550000e-04  4.88100359e-04  3.73547043e-02  7.50244050e-01  7.49755950e-01  3.65730011e-01  3.28375307e-01 
 8.21550000e-04  4.93574574e-04  3.78320181e-02  7.50246787e-01  7.49753213e-01  3.65968686e-01  3.28136667e-01 
 8.31550000e-04  4.99029304e-04  3.83078339e-02  7.50249515e-01  7.49750485e-01  3.66206609e-01  3.27898776e-01 
 8.41550000e-04  5.04464332e-04  3.87821591e-02  7.50252232e-01  7.49747768e-01  3.66443836e-01  3.27661677e-01 
 8.51550000e-04  5.09879445e-04  3.92549227e-02  7.50254940e-01  7.49745060e-01  3.66680283e-01  3.27425360e-01 
 8.61550000e-04  5.15274430e-04  3.97261788e-02  7.50257637e-01  7.49742363e-01  3.66916021e-01  3.27189842e-01 
 8.71550000e-04  5.20649071e-04  4.01958458e-02  7.50260325e-01  7.49739675e-01  3.67151030e-01  3.26955184e-01 
 8.81550000e-04  5.26003159e-04  4.06639507e-02  7.50263002e-01  7.49736998e-01  3.67385315e-01  3.26721365e-01 
 8.82800000e-04  5.26670964e-04  4.07223593e-02  7.50263335e-01  7.49736665e-01  3.67414557e-01  3.26692198e-01 
 8.85300000e-04  5.28005599e-04  4.08390632e-02  7.50264003e-01  7.49735997e-01  3.67472943e-01  3.26633880e-01 
 8.90300000e-04  5.30670958e-04  4.10721990e-02  7.50265335e-01  7.49734665e-01  3.67589638e-01  3.26517439e-01 
 9.00300000e-04  5.35985938e-04  4.15372456e-02  7.50267993e-01  7.49732007e-01  3.67822556e-01  3.26285310e-01 
 9.10300000e-04  5.41279757e-04  4.20006787e-02  7.50270640e-01  7.49729360e-01  3.68054777e-01  3.26054098e-01 
 9.20300000e-04  5.46552207e-04  4.24624925e-02  7.50273276e-01  7.49726724e-01  3.68286100e-01  3.25823607e-01 
 9.30300000e-04  5.51803081e-04  4.29226645e-02  7.50275902e-01  7.49724098e-01  3.68516506e-01  3.25593842e-01 
 9.40300000e-04  5.57032170e-04  4.33810759e-02  7.50278516e-01  7.49721484e-01  3.68745971e-01  3.25364895e-01 
 9.50300000e-04  5.62239269e-04  4.38378014e-02  7.50281120e-01  7.49718880e-01  3.68974528e-01  3.25136727e-01 
 9.60300000e-04  5.67424171e-04  4.42927913e-02  7.50283712e-01  7.49716288e-01  3.69202033e-01  3.24909241e-01 
 9.70300000e-04  5.72586673e-04  4.47460229e-02  7.50286293e-01  7.49713707e-01  3.69428504e-01  3.24682482e-01 
 9.80300000e-04  5.77726569e-04  4.51974415e-02  7.50288863e-01  7.49711137e-01  3.69653970e-01  3.24456529e-01 
 9.90300000e-04  5.82843659e-04  4.56471392e-02  7.50291422e-01  7.49708578e-01  3.69878591e-01  3.24231452e-01 
 1.00030000e-03  5.87937738e-04  4.60949837e-02  7.50293969e-01  7.49706031e-01  3.70102316e-01  3.24007332e-01 
 1.01030000e-03  5.93008607e-04  4.65409620e-02  7.50296504e-01  7.49703496e-01  3.70325255e-01  3.23784293e-01 
 1.02030000e-03  5.98056064e-04  4.69851190e-02  7.50299028e-01  7.49700972e-01  3.70547292e-01  3.23562173e-01 
 1.03030000e-03  6.03079912e-04  4.74274179e-02  7.50301540e-01  7.49698460e-01  3.70768285e-01  3.23340867e-01 
 1.04030000e-03  6.08079951e-04  4.78678410e-02  7.50304040e-01  7.49695960e-01  3.70988303e-01  3.23120462e-01 
 1.05030000e-03  6.13055983e-04  4.83063931e-02  7.50306528e-01  7.49693472e-01  3.71207299e-01  3.22900906e-01 
 1.06030000e-03  6.18007814e-04  4.87429224e-02  7.50309004e-01  7.49690996e-01  3.71425309e-01  3.22682386e-01 
 1.07030000e-03  6.22935247e-04  4.91775847e-02  7.50311468e-01  7.49688532e-01  3.71642525e-01  3.22464940e-01 
 1.08030000e-03  6.27838087e-04  4.96103040e-02  7.50313919e-01  7.49686081e-01  3.71858979e-01  3.22248675e-01 
 1.09030000e-03  6.32716141e-04  5.00410705e-02  7.50316358e-01  7.49683642e-01  3.72074575e-01  3.22033504e-01 
 1.10030000e-03  6.37569217e-04  5.04698316e-02  7.50318785e-01  7.49681215e-01  3.72289116e-01  3.21819285e-01 
 1.11030000e-03  6.42397122e-04  5.08966018e-02  7.50321199e-01  7.49678801e-01  3.72502557e-01  3.21605956e-01 
 1.12030000e-03  6.47199667e-04  5.13214117e-02  7.50323600e-01  7.49676400e-01  3.72714997e-01  3.21393585e-01 
 1.13030000e-03  6.51976662e-04  5.17442036e-02  7.50325988e-01  7.49674012e-01  3.72926467e-01  3.21182264e-01 
 1.14030000e-03  6.56727917e-04  5.21649107e-02  7.50328364e-01  7.49671636e-01  3.73136925e-01  3.20972014e-01 
 1.15030000e-03  6.61453246e-04  5.25836033e-02  7.50330727e-01  7.49669273e-01  3.73346195e-01  3.20762591e-01 
 1.16030000e-03  6.66152462e-04  5.30001986e-02  7.50333076e-01  7.49666924e-01  3.73554405e-01  3.20554207e-01 
 1.17030000e-03  6.70825380e-04  5.34147316e-02  7.50335413e-01  7.49664587e-01  3.73761677e-01  3.20346946e-01 
 1.18030000e-03  6.75471814e-04  5.38271128e-02  7.50337736e-01  7.49662264e-01  3.73967925e-01  3.20140812e-01 
 1.19030000e-03  6.80091582e-04  5.42373556e-02  7.50340046e-01  7.49659954e-01  3.74173070e-01  3.19935714e-01 
 1.20030000e-03  6.84684501e-04  5.46454769e-02  7.50342342e-01  7.49657658e-01  3.74377091e-01  3.19731614e-01 
 1.21030000e-03  6.89250390e-04  5.50514334e-02  7.50344625e-01  7.49655375e-01  3.74580046e-01  3.19528612e-01 
 1.22030000e-03  6.93789069e-04  5.54551976e-02  7.50346895e-01  7.49653105e-01  3.74781914e-01  3.19326717e-01 
 1.23030000e-03  6.98300357e-04  5.58567618e-02  7.50349150e-01  7.49650850e-01  3.74982789e-01  3.19126027e-01 
 1.24030000e-03  7.02784079e-04  5.62561451e-02  7.50351392e-01  7.49648608e-01  3.75182678e-01  3.18926533e-01 
 1.25030000e-03  7.07240055e-04  5.66533302e-02  7.50353620e-01  7.49646380e-01  3.75381453e-01  3.18728123e-01 
 1.26030000e-03  7.11668111e-04  5.70482519e-02  7.50355834e-01  7.49644166e-01  3.75578984e-01  3.18530732e-01 
 1.27030000e-03  7.16068071e-04  5.74409263e-02  7.50358034e-01  7.49641966e-01  3.75775292e-01  3.18334366e-01 
 1.28030000e-03  7.20439763e-04  5.78313257e-02  7.50360220e-01  7.49639780e-01  3.75970405e-01  3.18139079e-01 
 1.29030000e-03  7.24783012e-04  5.82194516e-02  7.50362392e-01  7.49637608e-01  3.76164594e-01  3.17945142e-01 
 1.30030000e-03  7.29097649e-04  5.86052910e-02  7.50364549e-01  7.49635451e-01  3.76357586e-01  3.17752295e-01 
 1.31030000e-03  7.33383501e-04  5.89888269e-02  7.50366692e-01  7.49633308e-01  3.76549327e-01  3.17560500e-01 
 1.32030000e-03  7.37640401e-04  5.93700434e-02  7.50368820e-01  7.49631180e-01  3.76739894e-01  3.17369850e-01 
 1.33030000e-03  7.41868181e-04  5.97488576e-02  7.50370934e-01  7.49629066e-01  3.76929316e-01  3.17180459e-01 
 1.34030000e-03  7.46066672e-04  6.01253557e-02  7.50373033e-01  7.49626967e-01  3.77117698e-01  3.16992342e-01 
 1.35030000e-03  7.50235711e-04  6.04994789e-02  7.50375118e-01  7.49624882e-01  3.77304901e-01  3.16805422e-01 
 1.36030000e-03  7.54375131e-04  6.08711844e-02  7.50377188e-01  7.49622812e-01  3.77490856e-01  3.16619671e-01 
 1.37030000e-03  7.58484770e-04  6.12405056e-02  7.50379242e-01  7.49620758e-01  3.77675619e-01  3.16435114e-01 
 1.38030000e-03  7.62564465e-04  6.16073893e-02  7.50381282e-01  7.49618718e-01  3.77859073e-01  3.16251684e-01 
 1.39030000e-03  7.66614055e-04  6.19718847e-02  7.50383307e-01  7.49616693e-01  3.78041355e-01  3.16069470e-01 
 1.40030000e-03  7.70633381e-04  6.23339435e-02  7.50385317e-01  7.49614683e-01  3.78222544e-01  3.15888600e-01 
 1.41030000e-03  7.74622283e-04  6.26935238e-02  7.50387311e-01  7.49612689e-01  3.78402384e-01  3.15708860e-01 
 1.42030000e-03  7.78580605e-04  6.30505868e-02  7.50389290e-01  7.49610710e-01  3.78580870e-01  3.15530284e-01 
 1.43030000e-03  7.82508189e-04  6.34051178e-02  7.50391254e-01  7.49608746e-01  3.78758142e-01  3.15353024e-01 
 1.44030000e-03  7.86404882e-04  6.37572259e-02  7.50393202e-01  7.49606798e-01  3.78934188e-01  3.15176962e-01 
 1.45030000e-03  7.90270529e-04  6.41067588e-02  7.50395135e-01  7.49604865e-01  3.79109014e-01  3.15002256e-01 
 1.46030000e-03  7.94104977e-04  6.44537791e-02  7.50397052e-01  7.49602948e-01  3.79282543e-01  3.14828764e-01 
 1.47030000e-03  7.97908075e-04  6.47982473e-02  7.50398954e-01  7.49601046e-01  3.79454719e-01  3.14656472e-01 
 1.48030000e-03  8.01679673e-04  6.51401564e-02  7.50400840e-01  7.49599160e-01  3.79625673e-01  3.14485517e-01 
 1.49030000e-03  8.05419622e-04  6.54794822e-02  7.50402710e-01  7.49597290e-01  3.79795472e-01  3.14315990e-01 
 1.50030000e-03  8.09127775e-04  6.58162146e-02  7.50404564e-01  7.49595436e-01  3.79963989e-01  3.14147775e-01 
 1.51030000e-03  8.12803985e-04  6.61503856e-02  7.50406402e-01  7.49593598e-01  3.80131295e-01  3.13980910e-01 
 1.52030000e-03  8.16448106e-04  6.64819674e-02  7.50408224e-01  7.49591776e-01  3.80297341e-01  3.13815373e-01 
 1.53030000e-03  8.20059996e-04  6.68109229e-02  7.50410030e-01  7.49589970e-01  3.80461856e-01  3.13650933e-01 
 1.54030000e-03  8.23639511e-04  6.71372176e-02  7.50411820e-01  7.49588180e-01  3.80624936e-01  3.13487719e-01 
 1.55030000e-03  8.27186510e-04  6.74608897e-02  7.50413593e-01  7.49586407e-01  3.80786903e-01  3.13326014e-01 
 1.56030000e-03  8.30700853e-04  6.77818896e-02  7.50415350e-01  7.49584650e-01  3.80947434e-01  3.13165544e-01 
 1.57030000e-03  8.34182402e-04  6.81001934e-02  7.50417091e-01  7.49582909e-01  3.81106575e-01  3.13006382e-01 
 1.58030000e-03  8.37631018e-04  6.84158368e-02  7.50418816e-01  7.49581184e-01  3.81264415e-01  3.12848578e-01 
 1.59030000e-03  8.41046566e-04  6.87287478e-02  7.50420523e-01  7.49579477e-01  3.81420907e-01  3.12692160e-01 
 1.60030000e-03  8.44428911e-04  6.90389865e-02  7.50422214e-01  7.49577786e-01  3.81576128e-01  3.12537142e-01 
 1.61030000e-03  8.47777920e-04  6.93464887e-02  7.50423889e-01  7.49576111e-01  3.81730062e-01  3.12383573e-01 
 1.62030000e-03  8.51093460e-04  6.96511983e-02  7.50425547e-01  7.49574453e-01  3.81882649e-01  3.12231451e-01 
 1.63030000e-03  8.54375400e-04  6.99531997e-02  7.50427188e-01  7.49572812e-01  3.82033880e-01  3.12080681e-01 
