 frequency       v(inoise_spectrum) v(onoise_spectrum)
 1.50000000e-01  3.34848643e-06  2.84262691e-04 
 1.53458959e-01  3.31056934e-06  2.81043800e-04 
 1.56997682e-01  3.27308242e-06  2.77861427e-04 
 1.60618006e-01  3.23602079e-06  2.74715158e-04 
 1.64321814e-01  3.19937965e-06  2.71604585e-04 
 1.68111030e-01  3.16315422e-06  2.68529304e-04 
 1.71987625e-01  3.12733979e-06  2.65488914e-04 
 1.75953613e-01  3.09193173e-06  2.62483021e-04 
 1.80011056e-01  3.05692543e-06  2.59511234e-04 
 1.84162062e-01  3.02231633e-06  2.56573168e-04 
 1.88408790e-01  2.98809994e-06  2.53668440e-04 
 1.92753446e-01  2.95427181e-06  2.50796673e-04 
 1.97198288e-01  2.92082756e-06  2.47957493e-04 
 2.01745627e-01  2.88776283e-06  2.45150532e-04 
 2.06397827e-01  2.85507332e-06  2.42375426e-04 
 2.11157305e-01  2.82275480e-06  2.39631813e-04 
 2.16026535e-01  2.79080306e-06  2.36919337e-04 
 2.21008049e-01  2.75921394e-06  2.34237645e-04 
 2.26104435e-01  2.72798335e-06  2.31586390e-04 
 2.31318342e-01  2.69710722e-06  2.28965226e-04 
 2.36652481e-01  2.66658155e-06  2.26373814e-04 
 2.42109623e-01  2.63640236e-06  2.23811815e-04 
 2.47692605e-01  2.60656574e-06  2.21278898e-04 
 2.53404330e-01  2.57706781e-06  2.18774734e-04 
 2.59247765e-01  2.54790474e-06  2.16298996e-04 
 2.65225949e-01  2.51907273e-06  2.13851363e-04 
 2.71341987e-01  2.49056804e-06  2.11431518e-04 
 2.77599060e-01  2.46238697e-06  2.09039145e-04 
 2.84000420e-01  2.43452585e-06  2.06673934e-04 
 2.90549393e-01  2.40698107e-06  2.04335578e-04 
 2.97249383e-01  2.37974904e-06  2.02023772e-04 
 3.04103874e-01  2.35282623e-06  1.99738217e-04 
 3.11116427e-01  2.32620914e-06  1.97478615e-04 
 3.18290688e-01  2.29989431e-06  1.95244673e-04 
 3.25630385e-01  2.27387832e-06  1.93036100e-04 
 3.33139333e-01  2.24815778e-06  1.90852610e-04 
 3.40821437e-01  2.22272937e-06  1.88693918e-04 
 3.48680687e-01  2.19758977e-06  1.86559745e-04 
 3.56721169e-01  2.17273572e-06  1.84449812e-04 
 3.64947063e-01  2.14816398e-06  1.82363847e-04 
 3.73362644e-01  2.12387137e-06  1.80301577e-04 
 3.81972285e-01  2.09985473e-06  1.78262734e-04 
 3.90780463e-01  2.07611094e-06  1.76247055e-04 
 3.99791755e-01  2.05263691e-06  1.74254276e-04 
 4.09010845e-01  2.02942959e-06  1.72284140e-04 
 4.18442524e-01  2.00648596e-06  1.70336389e-04 
 4.28091696e-01  1.98380306e-06  1.68410771e-04 
 4.37963375e-01  1.96137792e-06  1.66507036e-04 
 4.48062692e-01  1.93920763e-06  1.64624937e-04 
 4.58394897e-01  1.91728932e-06  1.62764228e-04 
 4.68965359e-01  1.89562013e-06  1.60924667e-04 
 4.79779574e-01  1.87419725e-06  1.59106017e-04 
 4.90843161e-01  1.85301790e-06  1.57308041e-04 
 5.02161872e-01  1.83207932e-06  1.55530504e-04 
 5.13741589e-01  1.81137880e-06  1.53773176e-04 
 5.25588331e-01  1.79091364e-06  1.52035829e-04 
 5.37708256e-01  1.77068118e-06  1.50318237e-04 
 5.50107663e-01  1.75067879e-06  1.48620177e-04 
 5.62792997e-01  1.73090389e-06  1.46941428e-04 
 5.75770852e-01  1.71135388e-06  1.45281771e-04 
 5.89047972e-01  1.69202625e-06  1.43640992e-04 
 6.02631259e-01  1.67291846e-06  1.42018877e-04 
 6.16527773e-01  1.65402805e-06  1.40415215e-04 
 6.30744737e-01  1.63535256e-06  1.38829798e-04 
 6.45289540e-01  1.61688955e-06  1.37262420e-04 
 6.60169743e-01  1.59863664e-06  1.35712877e-04 
 6.75393078e-01  1.58059144e-06  1.34180968e-04 
 6.90967460e-01  1.56275162e-06  1.32666493e-04 
 7.06900983e-01  1.54511486e-06  1.31169257e-04 
 7.23201929e-01  1.52767886e-06  1.29689064e-04 
 7.39878770e-01  1.51044135e-06  1.28225722e-04 
 7.56940175e-01  1.49340011e-06  1.26779042e-04 
 7.74395011e-01  1.47655291e-06  1.25348834e-04 
 7.92252350e-01  1.45989756e-06  1.23934913e-04 
 8.10521476e-01  1.44343191e-06  1.22537095e-04 
 8.29211882e-01  1.42715380e-06  1.21155200e-04 
 8.48333284e-01  1.41106113e-06  1.19789046e-04 
 8.67895620e-01  1.39515181e-06  1.18438457e-04 
 8.87909059e-01  1.37942376e-06  1.17103257e-04 
 9.08384002e-01  1.36387494e-06  1.15783273e-04 
 9.29331091e-01  1.34850334e-06  1.14478332e-04 
 9.50761215e-01  1.33330695e-06  1.13188267e-04 
 9.72685512e-01  1.31828380e-06  1.11912908e-04 
 9.95115377e-01  1.30343194e-06  1.10652090e-04 
 1.01806247e+00  1.28874944e-06  1.09405649e-04 
 1.04153871e+00  1.27423439e-06  1.08173424e-04 
 1.06555632e+00  1.25988490e-06  1.06955254e-04 
 1.09012776e+00  1.24569911e-06  1.05750981e-04 
 1.11526581e+00  1.23167518e-06  1.04560448e-04 
 1.14098354e+00  1.21781128e-06  1.03383500e-04 
 1.16729431e+00  1.20410561e-06  1.02219986e-04 
 1.19421180e+00  1.19055639e-06  1.01069753e-04 
 1.22175000e+00  1.17716186e-06  9.99326514e-05 
 1.24992323e+00  1.16392027e-06  9.88085345e-05 
 1.27874612e+00  1.15082992e-06  9.76972556e-05 
 1.30823366e+00  1.13788909e-06  9.65986705e-05 
 1.33840117e+00  1.12509611e-06  9.55126363e-05 
 1.36926434e+00  1.11244930e-06  9.44390118e-05 
 1.40083921e+00  1.09994704e-06  9.33776577e-05 
 1.43314218e+00  1.08758769e-06  9.23284358e-05 
 1.46619005e+00  1.07536965e-06  9.12912098e-05 
 1.50000000e+00  1.06329132e-06  9.02658450e-05 
 1.53458959e+00  1.05135115e-06  8.92522081e-05 
 1.56997682e+00  1.03954757e-06  8.82501672e-05 
 1.60618006e+00  1.02787906e-06  8.72595923e-05 
 1.64321814e+00  1.01634409e-06  8.62803545e-05 
 1.68111030e+00  1.00494117e-06  8.53123265e-05 
 1.71987625e+00  9.93668818e-07  8.43553826e-05 
 1.75953613e+00  9.82525564e-07  8.34093983e-05 
 1.80011056e+00  9.71509962e-07  8.24742507e-05 
 1.84162062e+00  9.60620580e-07  8.15498183e-05 
 1.88408790e+00  9.49856002e-07  8.06359808e-05 
 1.92753446e+00  9.39214829e-07  7.97326195e-05 
 1.97198288e+00  9.28695679e-07  7.88396169e-05 
 2.01745627e+00  9.18297183e-07  7.79568570e-05 
 2.06397827e+00  9.08017989e-07  7.70842250e-05 
 2.11157305e+00  8.97856763e-07  7.62216074e-05 
 2.16026535e+00  8.87812182e-07  7.53688922e-05 
 2.21008049e+00  8.77882940e-07  7.45259684e-05 
 2.26104435e+00  8.68067748e-07  7.36927266e-05 
 2.31318342e+00  8.58365328e-07  7.28690582e-05 
 2.36652481e+00  8.48774420e-07  7.20548563e-05 
 2.42109623e+00  8.39293776e-07  7.12500151e-05 
 2.47692605e+00  8.29922163e-07  7.04544297e-05 
 2.53404330e+00  8.20658364e-07  6.96679969e-05 
 2.59247765e+00  8.11501174e-07  6.88906143e-05 
 2.65225949e+00  8.02449401e-07  6.81221808e-05 
 2.71341987e+00  7.93501869e-07  6.73625966e-05 
 2.77599060e+00  7.84657415e-07  6.66117628e-05 
 2.84000420e+00  7.75914888e-07  6.58695818e-05 
 2.90549393e+00  7.67273150e-07  6.51359571e-05 
 2.97249383e+00  7.58731079e-07  6.44107933e-05 
 3.04103874e+00  7.50287563e-07  6.36939960e-05 
 3.11116427e+00  7.41941505e-07  6.29854720e-05 
 3.18290688e+00  7.33691817e-07  6.22851291e-05 
 3.25630385e+00  7.25537428e-07  6.15928763e-05 
 3.33139333e+00  7.17477277e-07  6.09086235e-05 
 3.40821437e+00  7.09510314e-07  6.02322816e-05 
 3.48680687e+00  7.01635504e-07  5.95637627e-05 
 3.56721169e+00  6.93851822e-07  5.89029798e-05 
 3.64947063e+00  6.86158255e-07  5.82498469e-05 
 3.73362644e+00  6.78553802e-07  5.76042790e-05 
 3.81972285e+00  6.71037473e-07  5.69661921e-05 
 3.90780463e+00  6.63608290e-07  5.63355032e-05 
 3.99791755e+00  6.56265287e-07  5.57121302e-05 
 4.09010845e+00  6.49007508e-07  5.50959918e-05 
 4.18442524e+00  6.41834007e-07  5.44870080e-05 
 4.28091696e+00  6.34743852e-07  5.38850994e-05 
 4.37963375e+00  6.27736118e-07  5.32901877e-05 
 4.48062692e+00  6.20809894e-07  5.27021954e-05 
 4.58394897e+00  6.13964277e-07  5.21210459e-05 
 4.68965359e+00  6.07198377e-07  5.15466636e-05 
 4.79779574e+00  6.00511312e-07  5.09789736e-05 
 4.90843161e+00  5.93902210e-07  5.04179020e-05 
 5.02161872e+00  5.87370212e-07  4.98633757e-05 
 5.13741589e+00  5.80914465e-07  4.93153224e-05 
 5.25588331e+00  5.74534129e-07  4.87736707e-05 
 5.37708256e+00  5.68228373e-07  4.82383500e-05 
 5.50107663e+00  5.61996374e-07  4.77092906e-05 
 5.62792997e+00  5.55837320e-07  4.71864235e-05 
 5.75770852e+00  5.49750409e-07  4.66696805e-05 
 5.89047972e+00  5.43734846e-07  4.61589942e-05 
 6.02631259e+00  5.37789847e-07  4.56542980e-05 
 6.16527773e+00  5.31914636e-07  4.51555261e-05 
 6.30744737e+00  5.26108448e-07  4.46626134e-05 
 6.45289540e+00  5.20370525e-07  4.41754955e-05 
 6.60169743e+00  5.14700117e-07  4.36941090e-05 
 6.75393078e+00  5.09096486e-07  4.32183909e-05 
 6.90967460e+00  5.03558898e-07  4.27482792e-05 
 7.06900983e+00  4.98086632e-07  4.22837124e-05 
 7.23201929e+00  4.92678972e-07  4.18246299e-05 
 7.39878770e+00  4.87335211e-07  4.13709716e-05 
 7.56940175e+00  4.82054653e-07  4.09226783e-05 
 7.74395011e+00  4.76836606e-07  4.04796914e-05 
 7.92252350e+00  4.71680389e-07  4.00419530e-05 
 8.10521476e+00  4.66585327e-07  3.96094057e-05 
 8.29211882e+00  4.61550753e-07  3.91819931e-05 
 8.48333284e+00  4.56576009e-07  3.87596591e-05 
 8.67895620e+00  4.51660444e-07  3.83423485e-05 
 8.87909059e+00  4.46803414e-07  3.79300066e-05 
 9.08384002e+00  4.42004283e-07  3.75225794e-05 
 9.29331091e+00  4.37262422e-07  3.71200135e-05 
 9.50761215e+00  4.32577211e-07  3.67222561e-05 
 9.72685512e+00  4.27948033e-07  3.63292551e-05 
 9.95115377e+00  4.23374283e-07  3.59409588e-05 
 1.01806247e+01  4.18855361e-07  3.55573164e-05 
 1.04153871e+01  4.14390672e-07  3.51782774e-05 
 1.06555632e+01  4.09979630e-07  3.48037920e-05 
 1.09012776e+01  4.05621657e-07  3.44338110e-05 
 1.11526581e+01  4.01316178e-07  3.40682857e-05 
 1.14098354e+01  3.97062629e-07  3.37071681e-05 
 1.16729431e+01  3.92860448e-07  3.33504106e-05 
 1.19421180e+01  3.88709084e-07  3.29979661e-05 
 1.22175000e+01  3.84607988e-07  3.26497883e-05 
 1.24992323e+01  3.80556620e-07  3.23058312e-05 
 1.27874612e+01  3.76554446e-07  3.19660495e-05 
 1.30823366e+01  3.72600938e-07  3.16303981e-05 
 1.33840117e+01  3.68695573e-07  3.12988328e-05 
 1.36926434e+01  3.64837835e-07  3.09713098e-05 
 1.40083921e+01  3.61027215e-07  3.06477856e-05 
 1.43314218e+01  3.57263207e-07  3.03282174e-05 
 1.46619005e+01  3.53545313e-07  3.00125629e-05 
 1.50000000e+01  3.49873040e-07  2.97007801e-05 
 1.53458959e+01  3.46245902e-07  2.93928277e-05 
 1.56997682e+01  3.42663415e-07  2.90886646e-05 
 1.60618006e+01  3.39125104e-07  2.87882505e-05 
 1.64321814e+01  3.35630499e-07  2.84915454e-05 
 1.68111030e+01  3.32179133e-07  2.81985096e-05 
 1.71987625e+01  3.28770547e-07  2.79091040e-05 
 1.75953613e+01  3.25404285e-07  2.76232900e-05 
 1.80011056e+01  3.22079899e-07  2.73410293e-05 
 1.84162062e+01  3.18796942e-07  2.70622842e-05 
 1.88408790e+01  3.15554976e-07  2.67870171e-05 
 1.92753446e+01  3.12353566e-07  2.65151913e-05 
 1.97198288e+01  3.09192281e-07  2.62467700e-05 
 2.01745627e+01  3.06070698e-07  2.59817172e-05 
 2.06397827e+01  3.02988395e-07  2.57199971e-05 
 2.11157305e+01  2.99944957e-07  2.54615744e-05 
 2.16026535e+01  2.96939973e-07  2.52064140e-05 
 2.21008049e+01  2.93973037e-07  2.49544815e-05 
 2.26104435e+01  2.91043746e-07  2.47057425e-05 
 2.31318342e+01  2.88151703e-07  2.44601634e-05 
 2.36652481e+01  2.85296516e-07  2.42177105e-05 
 2.42109623e+01  2.82477795e-07  2.39783509e-05 
 2.47692605e+01  2.79695156e-07  2.37420517e-05 
 2.53404330e+01  2.76948218e-07  2.35087807e-05 
 2.59247765e+01  2.74236606e-07  2.32785056e-05 
 2.65225949e+01  2.71559947e-07  2.30511950e-05 
 2.71341987e+01  2.68917873e-07  2.28268173e-05 
 2.77599060e+01  2.66310019e-07  2.26053416e-05 
 2.84000420e+01  2.63736027e-07  2.23867371e-05 
 2.90549393e+01  2.61195539e-07  2.21709735e-05 
 2.97249383e+01  2.58688202e-07  2.19580207e-05 
 3.04103874e+01  2.56213668e-07  2.17478489e-05 
 3.11116427e+01  2.53771591e-07  2.15404288e-05 
 3.18290688e+01  2.51361630e-07  2.13357310e-05 
 3.25630385e+01  2.48983447e-07  2.11337268e-05 
 3.33139333e+01  2.46636706e-07  2.09343877e-05 
 3.40821437e+01  2.44321078e-07  2.07376853e-05 
 3.48680687e+01  2.42036234e-07  2.05435916e-05 
 3.56721169e+01  2.39781850e-07  2.03520790e-05 
 3.64947063e+01  2.37557605e-07  2.01631199e-05 
 3.73362644e+01  2.35363181e-07  1.99766872e-05 
 3.81972285e+01  2.33198263e-07  1.97927540e-05 
 3.90780463e+01  2.31062539e-07  1.96112936e-05 
 3.99791755e+01  2.28955702e-07  1.94322796e-05 
 4.09010845e+01  2.26877446e-07  1.92556858e-05 
 4.18442524e+01  2.24827467e-07  1.90814864e-05 
 4.28091696e+01  2.22805468e-07  1.89096556e-05 
 4.37963375e+01  2.20811151e-07  1.87401679e-05 
 4.48062692e+01  2.18844221e-07  1.85729983e-05 
 4.58394897e+01  2.16904390e-07  1.84081216e-05 
 4.68965359e+01  2.14991367e-07  1.82455132e-05 
 4.79779574e+01  2.13104867e-07  1.80851484e-05 
 4.90843161e+01  2.11244608e-07  1.79270029e-05 
 5.02161872e+01  2.09410309e-07  1.77710526e-05 
 5.13741589e+01  2.07601692e-07  1.76172736e-05 
 5.25588331e+01  2.05818482e-07  1.74656421e-05 
 5.37708256e+01  2.04060406e-07  1.73161346e-05 
 5.50107663e+01  2.02327194e-07  1.71687277e-05 
 5.62792997e+01  2.00618577e-07  1.70233982e-05 
 5.75770852e+01  1.98934291e-07  1.68801232e-05 
 5.89047972e+01  1.97274071e-07  1.67388799e-05 
 6.02631259e+01  1.95637657e-07  1.65996457e-05 
 6.16527773e+01  1.94024790e-07  1.64623980e-05 
 6.30744737e+01  1.92435212e-07  1.63271147e-05 
 6.45289540e+01  1.90868670e-07  1.61937734e-05 
 6.60169743e+01  1.89324912e-07  1.60623523e-05 
 6.75393078e+01  1.87803685e-07  1.59328296e-05 
 6.90967460e+01  1.86304744e-07  1.58051835e-05 
 7.06900983e+01  1.84827840e-07  1.56793925e-05 
 7.23201929e+01  1.83372730e-07  1.55554353e-05 
 7.39878770e+01  1.81939171e-07  1.54332905e-05 
 7.56940175e+01  1.80526923e-07  1.53129371e-05 
 7.74395011e+01  1.79135748e-07  1.51943540e-05 
 7.92252350e+01  1.77765408e-07  1.50775204e-05 
 8.10521476e+01  1.76415668e-07  1.49624155e-05 
 8.29211882e+01  1.75086296e-07  1.48490188e-05 
 8.48333284e+01  1.73777060e-07  1.47373096e-05 
 8.67895620e+01  1.72487730e-07  1.46272675e-05 
 8.87909059e+01  1.71218079e-07  1.45188723e-05 
 9.08384002e+01  1.69967879e-07  1.44121038e-05 
 9.29331091e+01  1.68736908e-07  1.43069418e-05 
 9.50761215e+01  1.67524941e-07  1.42033664e-05 
 9.72685512e+01  1.66331757e-07  1.41013576e-05 
 9.95115377e+01  1.65157137e-07  1.40008956e-05 
 1.01806247e+02  1.64000862e-07  1.39019607e-05 
 1.04153871e+02  1.62862717e-07  1.38045331e-05 
 1.06555632e+02  1.61742485e-07  1.37085934e-05 
 1.09012776e+02  1.60639953e-07  1.36141219e-05 
 1.11526581e+02  1.59554910e-07  1.35210992e-05 
 1.14098354e+02  1.58487144e-07  1.34295059e-05 
 1.16729431e+02  1.57436447e-07  1.33393227e-05 
 1.19421180e+02  1.56402612e-07  1.32505303e-05 
 1.22175000e+02  1.55385431e-07  1.31631095e-05 
 1.24992323e+02  1.54384701e-07  1.30770411e-05 
 1.27874612e+02  1.53400218e-07  1.29923060e-05 
 1.30823366e+02  1.52431781e-07  1.29088851e-05 
 1.33840117e+02  1.51479189e-07  1.28267592e-05 
 1.36926434e+02  1.50542242e-07  1.27459095e-05 
 1.40083921e+02  1.49620744e-07  1.26663169e-05 
 1.43314218e+02  1.48714499e-07  1.25879624e-05 
 1.46619005e+02  1.47823310e-07  1.25108271e-05 
 1.50000000e+02  1.46946986e-07  1.24348919e-05 
 1.53458959e+02  1.46085334e-07  1.23601381e-05 
 1.56997682e+02  1.45238163e-07  1.22865465e-05 
 1.60618006e+02  1.44405284e-07  1.22140984e-05 
 1.64321814e+02  1.43586509e-07  1.21427746e-05 
 1.68111030e+02  1.42781652e-07  1.20725564e-05 
 1.71987625e+02  1.41990527e-07  1.20034247e-05 
 1.75953613e+02  1.41212951e-07  1.19353604e-05 
 1.80011056e+02  1.40448741e-07  1.18683447e-05 
 1.84162062e+02  1.39697716e-07  1.18023584e-05 
 1.88408790e+02  1.38959696e-07  1.17373823e-05 
 1.92753446e+02  1.38234503e-07  1.16733975e-05 
 1.97198288e+02  1.37521961e-07  1.16103846e-05 
 2.01745627e+02  1.36821893e-07  1.15483244e-05 
 2.06397827e+02  1.36134125e-07  1.14871975e-05 
 2.11157305e+02  1.35458484e-07  1.14269847e-05 
 2.16026535e+02  1.34794800e-07  1.13676663e-05 
 2.21008049e+02  1.34142902e-07  1.13092228e-05 
 2.26104435e+02  1.33502621e-07  1.12516347e-05 
 2.31318342e+02  1.32873790e-07  1.11948820e-05 
 2.36652481e+02  1.32256243e-07  1.11389449e-05 
 2.42109623e+02  1.31649817e-07  1.10838035e-05 
 2.47692605e+02  1.31054347e-07  1.10294375e-05 
 2.53404330e+02  1.30469673e-07  1.09758269e-05 
 2.59247765e+02  1.29895634e-07  1.09229511e-05 
 2.65225949e+02  1.29332071e-07  1.08707897e-05 
 2.71341987e+02  1.28778828e-07  1.08193218e-05 
 2.77599060e+02  1.28235748e-07  1.07685267e-05 
 2.84000420e+02  1.27702677e-07  1.07183833e-05 
 2.90549393e+02  1.27179462e-07  1.06688704e-05 
 2.97249383e+02  1.26665952e-07  1.06199664e-05 
 3.04103874e+02  1.26161996e-07  1.05716499e-05 
 3.11116427e+02  1.25667446e-07  1.05238988e-05 
 3.18290688e+02  1.25182156e-07  1.04766911e-05 
 3.25630385e+02  1.24705978e-07  1.04300046e-05 
 3.33139333e+02  1.24238770e-07  1.03838165e-05 
 3.40821437e+02  1.23780388e-07  1.03381042e-05 
 3.48680687e+02  1.23330692e-07  1.02928444e-05 
 3.56721169e+02  1.22889542e-07  1.02480140e-05 
 3.64947063e+02  1.22456799e-07  1.02035891e-05 
 3.73362644e+02  1.22032328e-07  1.01595459e-05 
 3.81972285e+02  1.21615992e-07  1.01158602e-05 
 3.90780463e+02  1.21207658e-07  1.00725074e-05 
 3.99791755e+02  1.20807194e-07  1.00294627e-05 
 4.09010845e+02  1.20414470e-07  9.98670089e-06 
 4.18442524e+02  1.20029356e-07  9.94419649e-06 
 4.28091696e+02  1.19651724e-07  9.90192368e-06 
 4.37963375e+02  1.19281449e-07  9.85985629e-06 
 4.48062692e+02  1.18918406e-07  9.81796782e-06 
 4.58394897e+02  1.18562471e-07  9.77623142e-06 
 4.68965359e+02  1.18213524e-07  9.73461991e-06 
 4.79779574e+02  1.17871443e-07  9.69310576e-06 
 4.90843161e+02  1.17536111e-07  9.65166109e-06 
 5.02161872e+02  1.17207410e-07  9.61025770e-06 
 frequency       v(inoise_spectrum) v(onoise_spectrum)
 1.50000000e-01  3.34848643e-06  2.84262691e-04 
 1.53458959e-01  3.31056934e-06  2.81043800e-04 
 1.56997682e-01  3.27308242e-06  2.77861427e-04 
 1.60618006e-01  3.23602079e-06  2.74715158e-04 
 1.64321814e-01  3.19937965e-06  2.71604585e-04 
 1.68111030e-01  3.16315422e-06  2.68529304e-04 
 1.71987625e-01  3.12733979e-06  2.65488914e-04 
 1.75953613e-01  3.09193173e-06  2.62483021e-04 
 1.80011056e-01  3.05692543e-06  2.59511234e-04 
 1.84162062e-01  3.02231633e-06  2.56573168e-04 
 1.88408790e-01  2.98809994e-06  2.53668440e-04 
 1.92753446e-01  2.95427181e-06  2.50796673e-04 
 1.97198288e-01  2.92082756e-06  2.47957493e-04 
 2.01745627e-01  2.88776283e-06  2.45150532e-04 
 2.06397827e-01  2.85507332e-06  2.42375426e-04 
 2.11157305e-01  2.82275480e-06  2.39631813e-04 
 2.16026535e-01  2.79080306e-06  2.36919337e-04 
 2.21008049e-01  2.75921394e-06  2.34237645e-04 
 2.26104435e-01  2.72798335e-06  2.31586390e-04 
 2.31318342e-01  2.69710722e-06  2.28965226e-04 
 2.36652481e-01  2.66658155e-06  2.26373814e-04 
 2.42109623e-01  2.63640236e-06  2.23811815e-04 
 2.47692605e-01  2.60656574e-06  2.21278898e-04 
 2.53404330e-01  2.57706781e-06  2.18774734e-04 
 2.59247765e-01  2.54790474e-06  2.16298996e-04 
 2.65225949e-01  2.51907273e-06  2.13851363e-04 
 2.71341987e-01  2.49056804e-06  2.11431518e-04 
 2.77599060e-01  2.46238697e-06  2.09039145e-04 
 2.84000420e-01  2.43452585e-06  2.06673934e-04 
 2.90549393e-01  2.40698107e-06  2.04335578e-04 
 2.97249383e-01  2.37974904e-06  2.02023772e-04 
 3.04103874e-01  2.35282623e-06  1.99738217e-04 
 3.11116427e-01  2.32620914e-06  1.97478615e-04 
 3.18290688e-01  2.29989431e-06  1.95244673e-04 
 3.25630385e-01  2.27387832e-06  1.93036100e-04 
 3.33139333e-01  2.24815778e-06  1.90852610e-04 
 3.40821437e-01  2.22272937e-06  1.88693918e-04 
 3.48680687e-01  2.19758977e-06  1.86559745e-04 
 3.56721169e-01  2.17273572e-06  1.84449812e-04 
 3.64947063e-01  2.14816398e-06  1.82363847e-04 
 3.73362644e-01  2.12387137e-06  1.80301577e-04 
 3.81972285e-01  2.09985473e-06  1.78262734e-04 
 3.90780463e-01  2.07611094e-06  1.76247055e-04 
 3.99791755e-01  2.05263691e-06  1.74254276e-04 
 4.09010845e-01  2.02942959e-06  1.72284140e-04 
 4.18442524e-01  2.00648596e-06  1.70336389e-04 
 4.28091696e-01  1.98380306e-06  1.68410771e-04 
 4.37963375e-01  1.96137792e-06  1.66507036e-04 
