 frequency       v(Aol_dB)       v(Aol_arg)     
 1.00000000e-02  3.85774264e+01 -3.07228553e-04 
 1.02305973e-02  3.85774264e+01 -3.14313161e-04 
 1.04665121e-02  3.85774264e+01 -3.21561137e-04 
 1.07078670e-02  3.85774264e+01 -3.28976250e-04 
 1.09547876e-02  3.85774264e+01 -3.36562354e-04 
 1.12074020e-02  3.85774264e+01 -3.44323390e-04 
 1.14658417e-02  3.85774264e+01 -3.52263395e-04 
 1.17302409e-02  3.85774264e+01 -3.60386494e-04 
 1.20007371e-02  3.85774264e+01 -3.68696909e-04 
 1.22774708e-02  3.85774264e+01 -3.77198960e-04 
 1.25605860e-02  3.85774264e+01 -3.85897066e-04 
 1.28502297e-02  3.85774264e+01 -3.94795748e-04 
 1.31465525e-02  3.85774264e+01 -4.03899631e-04 
 1.34497085e-02  3.85774264e+01 -4.13213448e-04 
 1.37598551e-02  3.85774264e+01 -4.22742038e-04 
 1.40771537e-02  3.85774264e+01 -4.32490355e-04 
 1.44017690e-02  3.85774264e+01 -4.42463466e-04 
 1.47338699e-02  3.85774264e+01 -4.52666554e-04 
 1.50736290e-02  3.85774264e+01 -4.63104923e-04 
 1.54212228e-02  3.85774264e+01 -4.73783997e-04 
 1.57768320e-02  3.85774264e+01 -4.84709328e-04 
 1.61406415e-02  3.85774264e+01 -4.95886594e-04 
 1.65128404e-02  3.85774264e+01 -5.07321605e-04 
 1.68936220e-02  3.85774264e+01 -5.19020304e-04 
 1.72831844e-02  3.85774264e+01 -5.30988772e-04 
 1.76817299e-02  3.85774264e+01 -5.43233230e-04 
 1.80894658e-02  3.85774264e+01 -5.55760041e-04 
 1.85066040e-02  3.85774264e+01 -5.68575718e-04 
 1.89333613e-02  3.85774264e+01 -5.81686920e-04 
 1.93699595e-02  3.85774264e+01 -5.95100463e-04 
 1.98166255e-02  3.85774264e+01 -6.08823319e-04 
 2.02735916e-02  3.85774264e+01 -6.22862621e-04 
 2.07410951e-02  3.85774264e+01 -6.37225664e-04 
 2.12193792e-02  3.85774264e+01 -6.51919916e-04 
 2.17086923e-02  3.85774264e+01 -6.66953013e-04 
 2.22092889e-02  3.85774264e+01 -6.82332769e-04 
 2.27214291e-02  3.85774264e+01 -6.98067179e-04 
 2.32453791e-02  3.85774264e+01 -7.14164419e-04 
 2.37814113e-02  3.85774264e+01 -7.30632858e-04 
 2.43298042e-02  3.85774264e+01 -7.47481054e-04 
 2.48908429e-02  3.85774264e+01 -7.64717765e-04 
 2.54648190e-02  3.85774264e+01 -7.82351950e-04 
 2.60520309e-02  3.85774264e+01 -8.00392775e-04 
 2.66527837e-02  3.85774264e+01 -8.18849616e-04 
 2.72673897e-02  3.85774264e+01 -8.37732067e-04 
 2.78961683e-02  3.85774264e+01 -8.57049942e-04 
 2.85394464e-02  3.85774264e+01 -8.76813282e-04 
 2.91975583e-02  3.85774264e+01 -8.97032360e-04 
 2.98708461e-02  3.85774264e+01 -9.17717684e-04 
 3.05596598e-02  3.85774264e+01 -9.38880005e-04 
 3.12643573e-02  3.85774264e+01 -9.60530325e-04 
 3.19853049e-02  3.85774264e+01 -9.82679895e-04 
 3.27228774e-02  3.85774264e+01 -1.00534023e-03 
 3.34774581e-02  3.85774264e+01 -1.02852310e-03 
 3.42494392e-02  3.85774264e+01 -1.05224057e-03 
 3.50392221e-02  3.85774264e+01 -1.07650495e-03 
 3.58472171e-02  3.85774264e+01 -1.10132886e-03 
 3.66738442e-02  3.85774264e+01 -1.12672521e-03 
 3.75195331e-02  3.85774264e+01 -1.15270719e-03 
 3.83847234e-02  3.85774264e+01 -1.17928830e-03 
 3.92698648e-02  3.85774264e+01 -1.20648237e-03 
 4.01754173e-02  3.85774264e+01 -1.23430353e-03 
 4.11018515e-02  3.85774264e+01 -1.26276624e-03 
 4.20496491e-02  3.85774264e+01 -1.29188529e-03 
 4.30193027e-02  3.85774264e+01 -1.32167581e-03 
 4.40113162e-02  3.85774264e+01 -1.35215330e-03 
 4.50262052e-02  3.85774264e+01 -1.38333359e-03 
 4.60644974e-02  3.85774264e+01 -1.41523289e-03 
 4.71267322e-02  3.85774264e+01 -1.44786778e-03 
 4.82134619e-02  3.85774264e+01 -1.48125521e-03 
 4.93252513e-02  3.85774264e+01 -1.51541256e-03 
 5.04626783e-02  3.85774264e+01 -1.55035756e-03 
 5.16263340e-02  3.85774264e+01 -1.58610839e-03 
 5.28168234e-02  3.85774264e+01 -1.62268362e-03 
 5.40347650e-02  3.85774264e+01 -1.66010227e-03 
 5.52807921e-02  3.85774264e+01 -1.69838378e-03 
 5.65555523e-02  3.85774264e+01 -1.73754805e-03 
 5.78597080e-02  3.85774264e+01 -1.77761544e-03 
 5.91939372e-02  3.85774264e+01 -1.81860677e-03 
 6.05589334e-02  3.85774264e+01 -1.86054335e-03 
 6.19554061e-02  3.85774264e+01 -1.90344698e-03 
 6.33840810e-02  3.85774264e+01 -1.94733995e-03 
 6.48457008e-02  3.85774264e+01 -1.99224508e-03 
 6.63410251e-02  3.85774264e+01 -2.03818572e-03 
 6.78708313e-02  3.85774264e+01 -2.08518573e-03 
 6.94359143e-02  3.85774264e+01 -2.13326955e-03 
 7.10370877e-02  3.85774264e+01 -2.18246217e-03 
 7.26751838e-02  3.85774264e+01 -2.23278915e-03 
 7.43510539e-02  3.85774264e+01 -2.28427667e-03 
 7.60655691e-02  3.85774264e+01 -2.33695147e-03 
 7.78196206e-02  3.85774264e+01 -2.39084094e-03 
 7.96141200e-02  3.85774264e+01 -2.44597309e-03 
 8.14500001e-02  3.85774264e+01 -2.50237657e-03 
 8.33282151e-02  3.85774264e+01 -2.56008069e-03 
 8.52497412e-02  3.85774264e+01 -2.61911546e-03 
 8.72155772e-02  3.85774264e+01 -2.67951156e-03 
 8.92267449e-02  3.85774264e+01 -2.74130037e-03 
 9.12842895e-02  3.85774264e+01 -2.80451402e-03 
 9.33892805e-02  3.85774264e+01 -2.86918535e-03 
 9.55428121e-02  3.85774264e+01 -2.93534799e-03 
 9.77460036e-02  3.85774264e+01 -3.00303632e-03 
 1.00000000e-01  3.85774264e+01 -3.07228553e-03 
 1.02305973e-01  3.85774264e+01 -3.14313160e-03 
 1.04665121e-01  3.85774264e+01 -3.21561137e-03 
 1.07078670e-01  3.85774264e+01 -3.28976250e-03 
 1.09547876e-01  3.85774264e+01 -3.36562353e-03 
 1.12074020e-01  3.85774264e+01 -3.44323390e-03 
 1.14658417e-01  3.85774264e+01 -3.52263394e-03 
 1.17302409e-01  3.85774264e+01 -3.60386493e-03 
 1.20007371e-01  3.85774264e+01 -3.68696908e-03 
 1.22774708e-01  3.85774264e+01 -3.77198959e-03 
 1.25605860e-01  3.85774264e+01 -3.85897065e-03 
 1.28502297e-01  3.85774264e+01 -3.94795747e-03 
 1.31465525e-01  3.85774264e+01 -4.03899631e-03 
 1.34497085e-01  3.85774264e+01 -4.13213447e-03 
 1.37598551e-01  3.85774264e+01 -4.22742037e-03 
 1.40771537e-01  3.85774264e+01 -4.32490355e-03 
 1.44017690e-01  3.85774264e+01 -4.42463465e-03 
 1.47338699e-01  3.85774264e+01 -4.52666553e-03 
 1.50736290e-01  3.85774264e+01 -4.63104922e-03 
 1.54212228e-01  3.85774264e+01 -4.73783996e-03 
 1.57768320e-01  3.85774264e+01 -4.84709327e-03 
 1.61406415e-01  3.85774264e+01 -4.95886593e-03 
 1.65128404e-01  3.85774264e+01 -5.07321604e-03 
 1.68936220e-01  3.85774264e+01 -5.19020303e-03 
 1.72831844e-01  3.85774264e+01 -5.30988771e-03 
 1.76817299e-01  3.85774264e+01 -5.43233228e-03 
 1.80894658e-01  3.85774264e+01 -5.55760040e-03 
 1.85066040e-01  3.85774264e+01 -5.68575716e-03 
 1.89333613e-01  3.85774264e+01 -5.81686918e-03 
 1.93699595e-01  3.85774264e+01 -5.95100461e-03 
 1.98166255e-01  3.85774264e+01 -6.08823317e-03 
 2.02735916e-01  3.85774264e+01 -6.22862618e-03 
 2.07410951e-01  3.85774264e+01 -6.37225662e-03 
 2.12193792e-01  3.85774264e+01 -6.51919913e-03 
 2.17086923e-01  3.85774264e+01 -6.66953010e-03 
 2.22092889e-01  3.85774264e+01 -6.82332766e-03 
 2.27214291e-01  3.85774264e+01 -6.98067175e-03 
 2.32453791e-01  3.85774264e+01 -7.14164416e-03 
 2.37814113e-01  3.85774264e+01 -7.30632854e-03 
 2.43298042e-01  3.85774264e+01 -7.47481050e-03 
 2.48908429e-01  3.85774264e+01 -7.64717761e-03 
 2.54648190e-01  3.85774263e+01 -7.82351946e-03 
 2.60520309e-01  3.85774263e+01 -8.00392770e-03 
 2.66527837e-01  3.85774263e+01 -8.18849611e-03 
 2.72673897e-01  3.85774263e+01 -8.37732061e-03 
 2.78961683e-01  3.85774263e+01 -8.57049936e-03 
 2.85394464e-01  3.85774263e+01 -8.76813276e-03 
 2.91975583e-01  3.85774263e+01 -8.97032353e-03 
 2.98708461e-01  3.85774263e+01 -9.17717676e-03 
 3.05596598e-01  3.85774263e+01 -9.38879997e-03 
 3.12643573e-01  3.85774263e+01 -9.60530316e-03 
 3.19853049e-01  3.85774263e+01 -9.82679885e-03 
 3.27228774e-01  3.85774263e+01 -1.00534022e-02 
 3.34774581e-01  3.85774263e+01 -1.02852309e-02 
 3.42494392e-01  3.85774263e+01 -1.05224055e-02 
 3.50392221e-01  3.85774263e+01 -1.07650494e-02 
 3.58472171e-01  3.85774263e+01 -1.10132885e-02 
 3.66738442e-01  3.85774263e+01 -1.12672519e-02 
 3.75195331e-01  3.85774263e+01 -1.15270717e-02 
 3.83847234e-01  3.85774262e+01 -1.17928829e-02 
 3.92698648e-01  3.85774262e+01 -1.20648236e-02 
 4.01754173e-01  3.85774262e+01 -1.23430351e-02 
 4.11018515e-01  3.85774262e+01 -1.26276622e-02 
 4.20496491e-01  3.85774262e+01 -1.29188526e-02 
 4.30193027e-01  3.85774262e+01 -1.32167579e-02 
 4.40113162e-01  3.85774262e+01 -1.35215327e-02 
 4.50262052e-01  3.85774262e+01 -1.38333356e-02 
 4.60644974e-01  3.85774262e+01 -1.41523286e-02 
 4.71267322e-01  3.85774262e+01 -1.44786774e-02 
 4.82134619e-01  3.85774261e+01 -1.48125518e-02 
 4.93252513e-01  3.85774261e+01 -1.51541253e-02 
 5.04626783e-01  3.85774261e+01 -1.55035753e-02 
 5.16263340e-01  3.85774261e+01 -1.58610835e-02 
 5.28168234e-01  3.85774261e+01 -1.62268358e-02 
 5.40347650e-01  3.85774261e+01 -1.66010222e-02 
 5.52807921e-01  3.85774260e+01 -1.69838373e-02 
 5.65555523e-01  3.85774260e+01 -1.73754800e-02 
 5.78597080e-01  3.85774260e+01 -1.77761538e-02 
 5.91939372e-01  3.85774260e+01 -1.81860671e-02 
 6.05589334e-01  3.85774260e+01 -1.86054329e-02 
 6.19554061e-01  3.85774260e+01 -1.90344691e-02 
 6.33840810e-01  3.85774259e+01 -1.94733988e-02 
 6.48457008e-01  3.85774259e+01 -1.99224500e-02 
 6.63410251e-01  3.85774259e+01 -2.03818563e-02 
 6.78708313e-01  3.85774259e+01 -2.08518564e-02 
 6.94359143e-01  3.85774258e+01 -2.13326945e-02 
 7.10370877e-01  3.85774258e+01 -2.18246206e-02 
 7.26751838e-01  3.85774258e+01 -2.23278904e-02 
 7.43510539e-01  3.85774257e+01 -2.28427655e-02 
 7.60655691e-01  3.85774257e+01 -2.33695135e-02 
 7.78196206e-01  3.85774257e+01 -2.39084081e-02 
 7.96141200e-01  3.85774256e+01 -2.44597294e-02 
 8.14500001e-01  3.85774256e+01 -2.50237641e-02 
 8.33282151e-01  3.85774256e+01 -2.56008053e-02 
 8.52497412e-01  3.85774255e+01 -2.61911528e-02 
 8.72155772e-01  3.85774255e+01 -2.67951137e-02 
 8.92267449e-01  3.85774254e+01 -2.74130017e-02 
 9.12842895e-01  3.85774254e+01 -2.80451380e-02 
 9.33892805e-01  3.85774253e+01 -2.86918512e-02 
 9.55428121e-01  3.85774253e+01 -2.93534774e-02 
 9.77460036e-01  3.85774252e+01 -3.00303605e-02 
 1.00000000e+00  3.85774252e+01 -3.07228524e-02 
 1.02305973e+00  3.85774251e+01 -3.14313129e-02 
 1.04665121e+00  3.85774251e+01 -3.21561104e-02 
 1.07078670e+00  3.85774250e+01 -3.28976214e-02 
 1.09547876e+00  3.85774249e+01 -3.36562315e-02 
 1.12074020e+00  3.85774249e+01 -3.44323349e-02 
 1.14658417e+00  3.85774248e+01 -3.52263351e-02 
 1.17302409e+00  3.85774247e+01 -3.60386447e-02 
 1.20007371e+00  3.85774246e+01 -3.68696858e-02 
 1.22774708e+00  3.85774246e+01 -3.77198906e-02 
 1.25605860e+00  3.85774245e+01 -3.85897008e-02 
 1.28502297e+00  3.85774244e+01 -3.94795686e-02 
 1.31465525e+00  3.85774243e+01 -4.03899565e-02 
 1.34497085e+00  3.85774242e+01 -4.13213377e-02 
 1.37598551e+00  3.85774241e+01 -4.22741962e-02 
 1.40771537e+00  3.85774240e+01 -4.32490274e-02 
 1.44017690e+00  3.85774239e+01 -4.42463379e-02 
 1.47338699e+00  3.85774237e+01 -4.52666461e-02 
 1.50736290e+00  3.85774236e+01 -4.63104823e-02 
 1.54212228e+00  3.85774235e+01 -4.73783890e-02 
 1.57768320e+00  3.85774233e+01 -4.84709214e-02 
 1.61406415e+00  3.85774232e+01 -4.95886472e-02 
 1.65128404e+00  3.85774230e+01 -5.07321474e-02 
 1.68936220e+00  3.85774229e+01 -5.19020164e-02 
 1.72831844e+00  3.85774227e+01 -5.30988622e-02 
 1.76817299e+00  3.85774226e+01 -5.43233069e-02 
 1.80894658e+00  3.85774224e+01 -5.55759869e-02 
 1.85066040e+00  3.85774222e+01 -5.68575533e-02 
 1.89333613e+00  3.85774220e+01 -5.81686722e-02 
 1.93699595e+00  3.85774218e+01 -5.95100252e-02 
 1.98166255e+00  3.85774216e+01 -6.08823093e-02 
 2.02735916e+00  3.85774213e+01 -6.22862378e-02 
 2.07410951e+00  3.85774211e+01 -6.37225404e-02 
 2.12193792e+00  3.85774208e+01 -6.51919638e-02 
 2.17086923e+00  3.85774206e+01 -6.66952715e-02 
 2.22092889e+00  3.85774203e+01 -6.82332450e-02 
 2.27214291e+00  3.85774200e+01 -6.98066837e-02 
 2.32453791e+00  3.85774197e+01 -7.14164054e-02 
 2.37814113e+00  3.85774194e+01 -7.30632466e-02 
 2.43298042e+00  3.85774191e+01 -7.47480635e-02 
 2.48908429e+00  3.85774187e+01 -7.64717316e-02 
 2.54648190e+00  3.85774184e+01 -7.82351470e-02 
 2.60520309e+00  3.85774180e+01 -8.00392260e-02 
 2.66527837e+00  3.85774176e+01 -8.18849065e-02 
 2.72673897e+00  3.85774172e+01 -8.37731477e-02 
 2.78961683e+00  3.85774168e+01 -8.57049310e-02 
 2.85394464e+00  3.85774163e+01 -8.76812605e-02 
 2.91975583e+00  3.85774159e+01 -8.97031635e-02 
 2.98708461e+00  3.85774154e+01 -9.17716908e-02 
 3.05596598e+00  3.85774149e+01 -9.38879174e-02 
 3.12643573e+00  3.85774143e+01 -9.60529435e-02 
 3.19853049e+00  3.85774137e+01 -9.82678942e-02 
 3.27228774e+00  3.85774132e+01 -1.00533921e-01 
 3.34774581e+00  3.85774125e+01 -1.02852201e-01 
 3.42494392e+00  3.85774119e+01 -1.05223940e-01 
 3.50392221e+00  3.85774112e+01 -1.07650370e-01 
 3.58472171e+00  3.85774105e+01 -1.10132752e-01 
 3.66738442e+00  3.85774098e+01 -1.12672377e-01 
 3.75195331e+00  3.85774090e+01 -1.15270565e-01 
 3.83847234e+00  3.85774082e+01 -1.17928666e-01 
 3.92698648e+00  3.85774073e+01 -1.20648061e-01 
 4.01754173e+00  3.85774064e+01 -1.23430164e-01 
 4.11018515e+00  3.85774055e+01 -1.26276422e-01 
 4.20496491e+00  3.85774045e+01 -1.29188312e-01 
 4.30193027e+00  3.85774035e+01 -1.32167349e-01 
 4.40113162e+00  3.85774024e+01 -1.35215082e-01 
 4.50262052e+00  3.85774013e+01 -1.38333093e-01 
 4.60644974e+00  3.85774001e+01 -1.41523004e-01 
 4.71267322e+00  3.85773989e+01 -1.44786473e-01 
 4.82134619e+00  3.85773976e+01 -1.48125195e-01 
 4.93252513e+00  3.85773963e+01 -1.51540907e-01 
 5.04626783e+00  3.85773949e+01 -1.55035382e-01 
 5.16263340e+00  3.85773934e+01 -1.58610438e-01 
 5.28168234e+00  3.85773919e+01 -1.62267933e-01 
 5.40347650e+00  3.85773902e+01 -1.66009767e-01 
 5.52807921e+00  3.85773885e+01 -1.69837886e-01 
 5.65555523e+00  3.85773868e+01 -1.73754278e-01 
 5.78597080e+00  3.85773849e+01 -1.77760980e-01 
 5.91939372e+00  3.85773830e+01 -1.81860073e-01 
 6.05589334e+00  3.85773810e+01 -1.86053688e-01 
 6.19554061e+00  3.85773789e+01 -1.90344005e-01 
 6.33840810e+00  3.85773766e+01 -1.94733253e-01 
 6.48457008e+00  3.85773743e+01 -1.99223714e-01 
 6.63410251e+00  3.85773719e+01 -2.03817721e-01 
 6.78708313e+00  3.85773693e+01 -2.08517662e-01 
 6.94359143e+00  3.85773667e+01 -2.13325980e-01 
 7.10370877e+00  3.85773639e+01 -2.18245173e-01 
 7.26751838e+00  3.85773610e+01 -2.23277798e-01 
 7.43510539e+00  3.85773579e+01 -2.28426470e-01 
 7.60655691e+00  3.85773547e+01 -2.33693866e-01 
 7.78196206e+00  3.85773514e+01 -2.39082722e-01 
 7.96141200e+00  3.85773479e+01 -2.44595839e-01 
 8.14500001e+00  3.85773442e+01 -2.50236083e-01 
 8.33282151e+00  3.85773404e+01 -2.56006385e-01 
 8.52497412e+00  3.85773363e+01 -2.61909742e-01 
 8.72155772e+00  3.85773321e+01 -2.67949224e-01 
 8.92267449e+00  3.85773277e+01 -2.74127969e-01 
 9.12842895e+00  3.85773231e+01 -2.80449187e-01 
 9.33892805e+00  3.85773183e+01 -2.86916164e-01 
 9.55428121e+00  3.85773133e+01 -2.93532260e-01 
 9.77460036e+00  3.85773080e+01 -3.00300913e-01 
 1.00000000e+01  3.85773025e+01 -3.07225641e-01 
 1.02305973e+01  3.85772967e+01 -3.14310042e-01 
 1.04665121e+01  3.85772906e+01 -3.21557798e-01 
 1.07078670e+01  3.85772843e+01 -3.28972675e-01 
 1.09547876e+01  3.85772777e+01 -3.36558525e-01 
 1.12074020e+01  3.85772707e+01 -3.44319291e-01 
 1.14658417e+01  3.85772635e+01 -3.52259005e-01 
 1.17302409e+01  3.85772559e+01 -3.60381793e-01 
 1.20007371e+01  3.85772479e+01 -3.68691876e-01 
 1.22774708e+01  3.85772396e+01 -3.77193571e-01 
 1.25605860e+01  3.85772309e+01 -3.85891295e-01 
 1.28502297e+01  3.85772218e+01 -3.94789569e-01 
 1.31465525e+01  3.85772122e+01 -4.03893015e-01 
 1.34497085e+01  3.85772022e+01 -4.13206363e-01 
 1.37598551e+01  3.85771918e+01 -4.22734452e-01 
 1.40771537e+01  3.85771808e+01 -4.32482232e-01 
 1.44017690e+01  3.85771693e+01 -4.42454768e-01 
 1.47338699e+01  3.85771574e+01 -4.52657240e-01 
 1.50736290e+01  3.85771448e+01 -4.63094949e-01 
 1.54212228e+01  3.85771317e+01 -4.73773318e-01 
 1.57768320e+01  3.85771179e+01 -4.84697893e-01 
 1.61406415e+01  3.85771035e+01 -4.95874350e-01 
 1.65128404e+01  3.85770885e+01 -5.07308494e-01 
 1.68936220e+01  3.85770727e+01 -5.19006265e-01 
 1.72831844e+01  3.85770562e+01 -5.30973739e-01 
 1.76817299e+01  3.85770389e+01 -5.43217133e-01 
 1.80894658e+01  3.85770208e+01 -5.55742805e-01 
 1.85066040e+01  3.85770019e+01 -5.68557261e-01 
 1.89333613e+01  3.85769821e+01 -5.81667157e-01 
 1.93699595e+01  3.85769614e+01 -5.95079301e-01 
 1.98166255e+01  3.85769397e+01 -6.08800659e-01 
 2.02735916e+01  3.85769170e+01 -6.22838357e-01 
 2.07410951e+01  3.85768932e+01 -6.37199683e-01 
 2.12193792e+01  3.85768684e+01 -6.51892096e-01 
 2.17086923e+01  3.85768423e+01 -6.66923224e-01 
 2.22092889e+01  3.85768151e+01 -6.82300871e-01 
 2.27214291e+01  3.85767866e+01 -6.98033023e-01 
 2.32453791e+01  3.85767567e+01 -7.14127846e-01 
 2.37814113e+01  3.85767255e+01 -7.30593696e-01 
 2.43298042e+01  3.85766928e+01 -7.47439120e-01 
 2.48908429e+01  3.85766586e+01 -7.64672863e-01 
 2.54648190e+01  3.85766227e+01 -7.82303870e-01 
 2.60520309e+01  3.85765852e+01 -8.00341291e-01 
 2.66527837e+01  3.85765460e+01 -8.18794488e-01 
 2.72673897e+01  3.85765049e+01 -8.37673037e-01 
 2.78961683e+01  3.85764620e+01 -8.56986734e-01 
 2.85394464e+01  3.85764170e+01 -8.76745600e-01 
 2.91975583e+01  3.85763699e+01 -8.96959887e-01 
 2.98708461e+01  3.85763206e+01 -9.17640082e-01 
 3.05596598e+01  3.85762690e+01 -9.38796911e-01 
 3.12643573e+01  3.85762150e+01 -9.60441349e-01 
 3.19853049e+01  3.85761585e+01 -9.82584621e-01 
 3.27228774e+01  3.85760994e+01 -1.00523821e+00 
 3.34774581e+01  3.85760375e+01 -1.02841386e+00 
 3.42494392e+01  3.85759727e+01 -1.05212360e+00 
 3.50392221e+01  3.85759049e+01 -1.07637970e+00 
 3.58472171e+01  3.85758339e+01 -1.10119475e+00 
 3.66738442e+01  3.85757596e+01 -1.12658161e+00 
 3.75195331e+01  3.85756819e+01 -1.15255342e+00 
 3.83847234e+01  3.85756005e+01 -1.17912365e+00 
 3.92698648e+01  3.85755154e+01 -1.20630607e+00 
 4.01754173e+01  3.85754262e+01 -1.23411475e+00 
 4.11018515e+01  3.85753330e+01 -1.26256410e+00 
 4.20496491e+01  3.85752353e+01 -1.29166884e+00 
 4.30193027e+01  3.85751331e+01 -1.32144405e+00 
 4.40113162e+01  3.85750262e+01 -1.35190513e+00 
 4.50262052e+01  3.85749142e+01 -1.38306786e+00 
 4.60644974e+01  3.85747971e+01 -1.41494835e+00 
 4.71267322e+01  3.85746744e+01 -1.44756310e+00 
 4.82134619e+01  3.85745461e+01 -1.48092898e+00 
 4.93252513e+01  3.85744118e+01 -1.51506324e+00 
 5.04626783e+01  3.85742712e+01 -1.54998352e+00 
 5.16263340e+01  3.85741240e+01 -1.58570788e+00 
 5.28168234e+01  3.85739701e+01 -1.62225477e+00 
 5.40347650e+01  3.85738089e+01 -1.65964307e+00 
 5.52807921e+01  3.85736402e+01 -1.69789209e+00 
 5.65555523e+01  3.85734636e+01 -1.73702157e+00 
 5.78597080e+01  3.85732789e+01 -1.77705170e+00 
 5.91939372e+01  3.85730855e+01 -1.81800314e+00 
 6.05589334e+01  3.85728831e+01 -1.85989701e+00 
 6.19554061e+01  3.85726712e+01 -1.90275491e+00 
 6.33840810e+01  3.85724495e+01 -1.94659892e+00 
 6.48457008e+01  3.85722175e+01 -1.99145162e+00 
 6.63410251e+01  3.85719746e+01 -2.03733611e+00 
 6.78708313e+01  3.85717204e+01 -2.08427602e+00 
 6.94359143e+01  3.85714544e+01 -2.13229548e+00 
 7.10370877e+01  3.85711760e+01 -2.18141918e+00 
 7.26751838e+01  3.85708847e+01 -2.23167239e+00 
 7.43510539e+01  3.85705797e+01 -2.28308090e+00 
 7.60655691e+01  3.85702606e+01 -2.33567112e+00 
 7.78196206e+01  3.85699266e+01 -2.38947002e+00 
 7.96141200e+01  3.85695770e+01 -2.44450519e+00 
 8.14500001e+01  3.85692112e+01 -2.50080484e+00 
 8.33282151e+01  3.85688283e+01 -2.55839780e+00 
 8.52497412e+01  3.85684276e+01 -2.61731354e+00 
 8.72155772e+01  3.85680083e+01 -2.67758220e+00 
 8.92267449e+01  3.85675694e+01 -2.73923456e+00 
 9.12842895e+01  3.85671101e+01 -2.80230212e+00 
 9.33892805e+01  3.85666294e+01 -2.86681704e+00 
 9.55428121e+01  3.85661264e+01 -2.93281221e+00 
 9.77460036e+01  3.85655999e+01 -3.00032124e+00 
 1.00000000e+02  3.85650490e+01 -3.06937847e+00 
 1.02305973e+02  3.85644724e+01 -3.14001901e+00 
 1.04665121e+02  3.85638691e+01 -3.21227873e+00 
