 v-sweep         v(r_hv_w_dummy_on) v(r_lv_w_dummy_on) v(r_lv_wo_dummy_on) v(r_hv_wo_dummy_on)
 0.00000000e+00  3.56023550e+03  1.41934201e+03  1.41936514e+03  3.56023552e+03 
 1.00000000e-02  3.60582339e+03  1.42738438e+03  1.42740607e+03  3.60582340e+03 
 2.00000000e-02  3.65288180e+03  1.43566824e+03  1.43568865e+03  3.65288182e+03 
 3.00000000e-02  3.70138406e+03  1.44415170e+03  1.44417092e+03  3.70138407e+03 
 4.00000000e-02  3.75139773e+03  1.45284131e+03  1.45285942e+03  3.75139775e+03 
 5.00000000e-02  3.80299464e+03  1.46174389e+03  1.46176097e+03  3.80299465e+03 
 6.00000000e-02  3.85625111e+03  1.47086655e+03  1.47088267e+03  3.85625112e+03 
 7.00000000e-02  3.91124836e+03  1.48021668e+03  1.48023192e+03  3.91124837e+03 
 8.00000000e-02  3.96807292e+03  1.48980202e+03  1.48981643e+03  3.96807293e+03 
 9.00000000e-02  4.02681701e+03  1.49963062e+03  1.49964427e+03  4.02681702e+03 
 1.00000000e-01  4.08757908e+03  1.50971087e+03  1.50972381e+03  4.08757909e+03 
 1.10000000e-01  4.15046430e+03  1.52005155e+03  1.52006384e+03  4.15046431e+03 
 1.20000000e-01  4.21558514e+03  1.53066182e+03  1.53067351e+03  4.21558515e+03 
 1.30000000e-01  4.28306202e+03  1.54155124e+03  1.54156238e+03  4.28306203e+03 
 1.40000000e-01  4.35302402e+03  1.55272983e+03  1.55274046e+03  4.35302403e+03 
 1.50000000e-01  4.42560966e+03  1.56420806e+03  1.56421821e+03  4.42560967e+03 
 1.60000000e-01  4.50096776e+03  1.57599685e+03  1.57600658e+03  4.50096777e+03 
 1.70000000e-01  4.57925841e+03  1.58810769e+03  1.58811702e+03  4.57925842e+03 
 1.80000000e-01  4.66065407e+03  1.60055257e+03  1.60056154e+03  4.66065408e+03 
 1.90000000e-01  4.74534073e+03  1.61334408e+03  1.61335271e+03  4.74534074e+03 
 2.00000000e-01  4.83351930e+03  1.62649539e+03  1.62650372e+03  4.83351931e+03 
 2.10000000e-01  4.92540706e+03  1.64002034e+03  1.64002839e+03  4.92540707e+03 
 2.20000000e-01  5.02123939e+03  1.65393345e+03  1.65394124e+03  5.02123940e+03 
 2.30000000e-01  5.12127163e+03  1.66824994e+03  1.66825750e+03  5.12127165e+03 
 2.40000000e-01  5.22578127e+03  1.68298581e+03  1.68299316e+03  5.22578128e+03 
 2.50000000e-01  5.33507029e+03  1.69815786e+03  1.69816503e+03  5.33507030e+03 
 2.60000000e-01  5.44946794e+03  1.71378375e+03  1.71379074e+03  5.44946795e+03 
 2.70000000e-01  5.56933386e+03  1.72988202e+03  1.72988886e+03  5.56933387e+03 
 2.80000000e-01  5.69506154e+03  1.74647215e+03  1.74647885e+03  5.69506155e+03 
 2.90000000e-01  5.82708242e+03  1.76357460e+03  1.76358118e+03  5.82708243e+03 
 3.00000000e-01  5.96587044e+03  1.78121083e+03  1.78121730e+03  5.96587045e+03 
 3.10000000e-01  6.11194735e+03  1.79940330e+03  1.79940967e+03  6.11194736e+03 
 3.20000000e-01  6.26588877e+03  1.81817549e+03  1.81818178e+03  6.26588878e+03 
 3.30000000e-01  6.42833125e+03  1.83755185e+03  1.83755805e+03  6.42833126e+03 
 3.40000000e-01  6.59998032e+03  1.85755764e+03  1.85756378e+03  6.59998033e+03 
 3.50000000e-01  6.78161998e+03  1.87821881e+03  1.87822489e+03  6.78161999e+03 
 3.60000000e-01  6.97412370e+03  1.89956165e+03  1.89956768e+03  6.97412371e+03 
 3.70000000e-01  7.17846725e+03  1.92161225e+03  1.92161824e+03  7.17846727e+03 
 3.80000000e-01  7.39574389e+03  1.94439579e+03  1.94440174e+03  7.39574390e+03 
 3.90000000e-01  7.62718213e+03  1.96793535e+03  1.96794127e+03  7.62718214e+03 
 4.00000000e-01  7.87416688e+03  1.99225035e+03  1.99225625e+03  7.87416690e+03 
 4.10000000e-01  8.13826459e+03  2.01735446e+03  2.01736034e+03  8.13826460e+03 
 4.20000000e-01  8.42125320e+03  2.04325288e+03  2.04325874e+03  8.42125321e+03 
 4.30000000e-01  8.72515826e+03  2.06993941e+03  2.06994525e+03  8.72515827e+03 
 4.40000000e-01  9.05229635e+03  2.09739378e+03  2.09739961e+03  9.05229636e+03 
 4.50000000e-01  9.40532790e+03  2.12558032e+03  2.12558615e+03  9.40532791e+03 
 4.60000000e-01  9.78732157e+03  2.15444945e+03  2.15445527e+03  9.78732158e+03 
 4.70000000e-01  1.02018333e+04  2.18394316e+03  2.18394898e+03  1.02018333e+04 
 4.80000000e-01  1.06530038e+04  2.21400445e+03  2.21401026e+03  1.06530038e+04 
 4.90000000e-01  1.11456800e+04  2.24458834e+03  2.24459414e+03  1.11456800e+04 
 5.00000000e-01  1.16855673e+04  2.27567109e+03  2.27567689e+03  1.16855673e+04 
 5.10000000e-01  1.22794203e+04  2.30725447e+03  2.30726025e+03  1.22794203e+04 
 5.20000000e-01  1.29352874e+04  2.33936459e+03  2.33937035e+03  1.29352874e+04 
 5.30000000e-01  1.36628218e+04  2.37204724e+03  2.37205299e+03  1.36628218e+04 
 5.40000000e-01  1.44736857e+04  2.40536218e+03  2.40536792e+03  1.44736857e+04 
 5.50000000e-01  1.53820757e+04  2.43937817e+03  2.43938388e+03  1.53820757e+04 
 5.60000000e-01  1.64054164e+04  2.47416935e+03  2.47417504e+03  1.64054164e+04 
 5.70000000e-01  1.75652819e+04  2.50981305e+03  2.50981870e+03  1.75652819e+04 
 5.80000000e-01  1.88886364e+04  2.54638859e+03  2.54639421e+03  1.88886364e+04 
 5.90000000e-01  2.04095211e+04  2.58397680e+03  2.58398238e+03  2.04095211e+04 
 6.00000000e-01  2.21713764e+04  2.62265994e+03  2.62266548e+03  2.21713763e+04 
 6.10000000e-01  2.42302776e+04  2.66252190e+03  2.66252739e+03  2.42302776e+04 
 6.20000000e-01  2.66595015e+04  2.70364847e+03  2.70365391e+03  2.66595015e+04 
 6.30000000e-01  2.95167962e+04  2.74616178e+03  2.74616716e+03  2.95167961e+04 
 6.40000000e-01  3.29926542e+04  2.79009654e+03  2.79010185e+03  3.29926541e+04 
 6.50000000e-01  3.72334167e+04  2.83556726e+03  2.83557250e+03  3.72334166e+04 
 6.60000000e-01  4.24777279e+04  2.88267139e+03  2.88267654e+03  4.24777277e+04 
 6.70000000e-01  4.90582331e+04  2.93151024e+03  2.93151530e+03  4.90582328e+04 
 6.80000000e-01  5.74446344e+04  2.98218945e+03  2.98219441e+03  5.74446339e+04 
 6.90000000e-01  6.83078221e+04  3.03481932e+03  3.03482416e+03  6.83078214e+04 
 7.00000000e-01  8.26147091e+04  3.08951518e+03  3.08951990e+03  8.26147080e+04 
 7.10000000e-01  1.01765920e+05  3.14639777e+03  3.14640235e+03  1.01765918e+05 
 7.20000000e-01  1.27788427e+05  3.20559355e+03  3.20559797e+03  1.27788424e+05 
 7.30000000e-01  1.63585628e+05  3.26723503e+03  3.26723927e+03  1.63585622e+05 
 7.40000000e-01  2.13209117e+05  3.33146102e+03  3.33146507e+03  2.13209107e+05 
 7.50000000e-01  2.81998378e+05  3.39841692e+03  3.39842074e+03  2.81998360e+05 
 7.60000000e-01  3.76115705e+05  3.46825481e+03  3.46825840e+03  3.76115672e+05 
 7.70000000e-01  5.00289013e+05  3.54113365e+03  3.54113696e+03  5.00288951e+05 
 7.80000000e-01  6.51621574e+05  3.61721921e+03  3.61722221e+03  6.51621463e+05 
 7.90000000e-01  8.08636939e+05  3.69668397e+03  3.69668663e+03  8.08636761e+05 
 8.00000000e-01  9.25074522e+05  3.77970685e+03  3.77970913e+03  9.25074280e+05 
 8.10000000e-01  9.51757590e+05  3.86647269e+03  3.86647455e+03  9.51757323e+05 
 8.20000000e-01  8.80906893e+05  3.95717147e+03  3.95717286e+03  8.80906655e+05 
 8.30000000e-01  7.52639239e+05  4.05199725e+03  4.05199810e+03  7.52639059e+05 
 8.40000000e-01  6.14404727e+05  4.15114658e+03  4.15114683e+03  6.14404602e+05 
 8.50000000e-01  4.92908813e+05  4.25481645e+03  4.25481602e+03  4.92908730e+05 
 8.60000000e-01  3.95582752e+05  4.36320152e+03  4.36320034e+03  3.95582696e+05 
 8.70000000e-01  3.20588776e+05  4.47649059e+03  4.47648856e+03  3.20588739e+05 
 8.80000000e-01  2.63446272e+05  4.59486188e+03  4.59485891e+03  2.63446246e+05 
 8.90000000e-01  2.19777591e+05  4.71847723e+03  4.71847319e+03  2.19777572e+05 
 9.00000000e-01  1.86072881e+05  4.84747454e+03  4.84746931e+03  1.86072867e+05 
 9.10000000e-01  1.59716823e+05  4.98195840e+03  4.98195183e+03  1.59716812e+05 
 9.20000000e-01  1.38814325e+05  5.12198842e+03  5.12198035e+03  1.38814317e+05 
 9.30000000e-01  1.22002186e+05  5.26756464e+03  5.26755490e+03  1.22002179e+05 
 9.40000000e-01  1.08296857e+05  5.41860983e+03  5.41859821e+03  1.08296851e+05 
 9.50000000e-01  9.69827957e+04  5.57494776e+03  5.57493405e+03  9.69827913e+04 
 9.60000000e-01  8.75337022e+04  5.73627719e+03  5.73626114e+03  8.75336986e+04 
 9.70000000e-01  7.95577399e+04  5.90214089e+03  5.90212225e+03  7.95577368e+04 
 9.80000000e-01  7.28340239e+04  6.07499138e+03  6.07496986e+03  7.28340212e+04 
 9.90000000e-01  6.69706123e+04  6.24828847e+03  6.24826377e+03  6.69706100e+04 
 1.00000000e+00  6.18899715e+04  6.42351376e+03  6.42348557e+03  6.18899695e+04 
 1.01000000e+00  5.74546897e+04  6.59919153e+03  6.59915953e+03  5.74546880e+04 
 1.02000000e+00  5.35564018e+04  6.77347450e+03  6.77343836e+03  5.35564003e+04 
 1.03000000e+00  5.01087561e+04  6.94410623e+03  6.94406564e+03  5.01087547e+04 
 1.04000000e+00  4.70248365e+04  7.10058610e+03  7.10054083e+03  4.70248352e+04 
 1.05000000e+00  4.42864687e+04  7.25432938e+03  7.25427915e+03  4.42864675e+04 
 1.06000000e+00  4.18259343e+04  7.39517334e+03  7.39511796e+03  4.18259332e+04 
 1.07000000e+00  3.96052669e+04  7.51958310e+03  7.51952248e+03  3.96052660e+04 
 1.08000000e+00  3.75928822e+04  7.62414124e+03  7.62407538e+03  3.75928813e+04 
 1.09000000e+00  3.57623247e+04  7.70590938e+03  7.70583841e+03  3.57623239e+04 
 1.10000000e+00  3.40912930e+04  7.76284259e+03  7.76276671e+03  3.40912922e+04 
 1.11000000e+00  3.25608742e+04  7.79416324e+03  7.79408276e+03  3.25608735e+04 
 1.12000000e+00  3.11549386e+04  7.80056906e+03  7.80048437e+03  3.11549379e+04 
 1.13000000e+00  2.98596571e+04  7.78417449e+03  7.78408598e+03  2.98596565e+04 
 1.14000000e+00  2.86631140e+04  7.74817545e+03  7.74808353e+03  2.86631135e+04 
 1.15000000e+00  2.75567970e+04  7.70386489e+03  7.70376978e+03  2.75567965e+04 
 1.16000000e+00  2.65277713e+04  7.63832086e+03  7.63822303e+03  2.65277708e+04 
 1.17000000e+00  2.55704262e+04  7.56445042e+03  7.56435011e+03  2.55704257e+04 
 1.18000000e+00  2.46778862e+04  7.48523208e+03  7.48512948e+03  2.46778857e+04 
 1.19000000e+00  2.38441022e+04  7.40296775e+03  7.40286300e+03  2.38441017e+04 
 1.20000000e+00  2.30637335e+04  7.31935076e+03  7.31924395e+03  2.30637331e+04 
 1.21000000e+00  2.23320490e+04  7.23557938e+03  7.23547056e+03  2.23320486e+04 
 1.22000000e+00  2.16448437e+04  7.15247381e+03  7.15236304e+03  2.16448433e+04 
 1.23000000e+00  2.09983695e+04  7.07057750e+03  7.07046477e+03  2.09983691e+04 
 1.24000000e+00  2.03892755e+04  6.99023683e+03  6.99012216e+03  2.03892752e+04 
 1.25000000e+00  1.98145578e+04  6.91166087e+03  6.91154424e+03  1.98145575e+04 
 1.26000000e+00  1.92715166e+04  6.83496440e+03  6.83484579e+03  1.92715163e+04 
 1.27000000e+00  1.87577190e+04  6.76019845e+03  6.76007784e+03  1.87577187e+04 
 1.28000000e+00  1.82709678e+04  6.68737154e+03  6.68724890e+03  1.82709675e+04 
 1.29000000e+00  1.78092739e+04  6.61646439e+03  6.61633966e+03  1.78092736e+04 
 1.30000000e+00  1.73708327e+04  6.54743988e+03  6.54731303e+03  1.73708324e+04 
 1.31000000e+00  1.69540035e+04  6.48024997e+03  6.48012093e+03  1.69540032e+04 
 1.32000000e+00  1.65572918e+04  6.41484021e+03  6.41470893e+03  1.65572915e+04 
 1.33000000e+00  1.61793334e+04  6.35115291e+03  6.35101933e+03  1.61793332e+04 
 1.34000000e+00  1.58188812e+04  6.28912912e+03  6.28899316e+03  1.58188809e+04 
 1.35000000e+00  1.54747924e+04  6.22871003e+03  6.22857161e+03  1.54747921e+04 
 1.36000000e+00  1.51460186e+04  6.16983777e+03  6.16969680e+03  1.51460184e+04 
 1.37000000e+00  1.48315965e+04  6.11245598e+03  6.11231237e+03  1.48315962e+04 
 1.38000000e+00  1.45306389e+04  6.05651012e+03  6.05636375e+03  1.45306386e+04 
 1.39000000e+00  1.42423281e+04  6.00194764e+03  6.00179839e+03  1.42423279e+04 
 1.40000000e+00  1.39659091e+04  5.94871806e+03  5.94856580e+03  1.39659089e+04 
 1.41000000e+00  1.37006840e+04  5.89677297e+03  5.89661754e+03  1.37006838e+04 
 1.42000000e+00  1.34460064e+04  5.84606601e+03  5.84590724e+03  1.34460062e+04 
 1.43000000e+00  1.32012773e+04  5.79655279e+03  5.79639051e+03  1.32012771e+04 
 1.44000000e+00  1.29659404e+04  5.74819087e+03  5.74802488e+03  1.29659402e+04 
 1.45000000e+00  1.27394789e+04  5.70093961e+03  5.70076973e+03  1.27394787e+04 
 1.46000000e+00  1.25214119e+04  5.65476014e+03  5.65458618e+03  1.25214117e+04 
 1.47000000e+00  1.23112914e+04  5.60961529e+03  5.60943705e+03  1.23112912e+04 
 1.48000000e+00  1.21086996e+04  5.56546947e+03  5.56528673e+03  1.21086994e+04 
 1.49000000e+00  1.19132463e+04  5.52228860e+03  5.52210115e+03  1.19132461e+04 
 1.50000000e+00  1.17245671e+04  5.48004008e+03  5.47984767e+03  1.17245670e+04 
