 v-sweep         v(r_hv_w_dummy_on) v(r_lv_w_dummy_on) v(r_lv_wo_dummy_on) v(r_hv_wo_dummy_on)
 0.00000000e+00  1.69888162e+03  6.97220045e+02  6.97231383e+02  1.69888162e+03 
 1.00000000e-02  1.72029997e+03  7.01091631e+02  7.01102259e+02  1.72029998e+03 
 2.00000000e-02  1.74241169e+03  7.05079446e+02  7.05089444e+02  1.74241169e+03 
 3.00000000e-02  1.76520061e+03  7.09163004e+02  7.09172415e+02  1.76520061e+03 
 4.00000000e-02  1.78869838e+03  7.13345427e+02  7.13354293e+02  1.78869839e+03 
 5.00000000e-02  1.81293863e+03  7.17629964e+02  7.17638323e+02  1.81293863e+03 
 6.00000000e-02  1.83795708e+03  7.22019998e+02  7.22027888e+02  1.83795708e+03 
 7.00000000e-02  1.86379176e+03  7.26519056e+02  7.26526508e+02  1.86379176e+03 
 8.00000000e-02  1.89048316e+03  7.31130810e+02  7.31137858e+02  1.89048317e+03 
 9.00000000e-02  1.91807446e+03  7.35859092e+02  7.35865766e+02  1.91807447e+03 
 1.00000000e-01  1.94661173e+03  7.40707898e+02  7.40714226e+02  1.94661173e+03 
 1.10000000e-01  1.97614417e+03  7.45681400e+02  7.45687407e+02  1.97614417e+03 
 1.20000000e-01  2.00672440e+03  7.50783951e+02  7.50789663e+02  2.00672441e+03 
 1.30000000e-01  2.03840878e+03  7.56020102e+02  7.56025541e+02  2.03840879e+03 
 1.40000000e-01  2.07125768e+03  7.61394605e+02  7.61399793e+02  2.07125768e+03 
 1.50000000e-01  2.10533587e+03  7.66912432e+02  7.66917389e+02  2.10533588e+03 
 1.60000000e-01  2.14071298e+03  7.72578782e+02  7.72583527e+02  2.14071298e+03 
 1.70000000e-01  2.17746385e+03  7.78399096e+02  7.78403646e+02  2.17746385e+03 
 1.80000000e-01  2.21566911e+03  7.84379072e+02  7.84383444e+02  2.21566912e+03 
 1.90000000e-01  2.25541573e+03  7.90524678e+02  7.90528886e+02  2.25541573e+03 
 2.00000000e-01  2.29679760e+03  7.96842170e+02  7.96846229e+02  2.29679760e+03 
 2.10000000e-01  2.33991626e+03  8.03338105e+02  8.03342028e+02  2.33991627e+03 
 2.20000000e-01  2.38488172e+03  8.10019365e+02  8.10023163e+02  2.38488172e+03 
 2.30000000e-01  2.43181327e+03  8.16893169e+02  8.16896855e+02  2.43181327e+03 
 2.40000000e-01  2.48084051e+03  8.23967098e+02  8.23970681e+02  2.48084052e+03 
 2.50000000e-01  2.53210451e+03  8.31249112e+02  8.31252601e+02  2.53210452e+03 
 2.60000000e-01  2.58575901e+03  8.38747572e+02  8.38750977e+02  2.58575902e+03 
 2.70000000e-01  2.64197191e+03  8.46471264e+02  8.46474593e+02  2.64197192e+03 
 2.80000000e-01  2.70092690e+03  8.54429413e+02  8.54432674e+02  2.70092691e+03 
 2.90000000e-01  2.76282532e+03  8.62631709e+02  8.62634908e+02  2.76282533e+03 
 3.00000000e-01  2.82788832e+03  8.71088316e+02  8.71091460e+02  2.82788833e+03 
 3.10000000e-01  2.89635929e+03  8.79809885e+02  8.79812980e+02  2.89635929e+03 
 3.20000000e-01  2.96850669e+03  8.88807550e+02  8.88810602e+02  2.96850670e+03 
 3.30000000e-01  3.04462734e+03  8.98092916e+02  8.98095929e+02  3.04462734e+03 
 3.40000000e-01  3.12505012e+03  9.07678009e+02  9.07680988e+02  3.12505012e+03 
 3.50000000e-01  3.21014041e+03  9.17575207e+02  9.17578157e+02  3.21014041e+03 
 3.60000000e-01  3.30030517e+03  9.27797097e+02  9.27800021e+02  3.30030518e+03 
 3.70000000e-01  3.39599890e+03  9.38356266e+02  9.38359168e+02  3.39599891e+03 
 3.80000000e-01  3.49773065e+03  9.49264967e+02  9.49267850e+02  3.49773065e+03 
 3.90000000e-01  3.60607228e+03  9.60534637e+02  9.60537504e+02  3.60607228e+03 
 4.00000000e-01  3.72166822e+03  9.72175204e+02  9.72178058e+02  3.72166823e+03 
 4.10000000e-01  3.84524715e+03  9.84194154e+02  9.84196997e+02  3.84524715e+03 
 4.20000000e-01  3.97763578e+03  9.96595352e+02  9.96598186e+02  3.97763579e+03 
 4.30000000e-01  4.11977561e+03  1.00937770e+03  1.00938052e+03  4.11977561e+03 
 4.40000000e-01  4.27274294e+03  1.02253387e+03  1.02253669e+03  4.27274295e+03 
 4.50000000e-01  4.43777331e+03  1.03604960e+03  1.03605242e+03  4.43777331e+03 
 4.60000000e-01  4.61629113e+03  1.04990423e+03  1.04990704e+03  4.61629114e+03 
 4.70000000e-01  4.80994620e+03  1.06407294e+03  1.06407575e+03  4.80994621e+03 
 4.80000000e-01  5.02065863e+03  1.07853098e+03  1.07853379e+03  5.02065863e+03 
 4.90000000e-01  5.25067472e+03  1.09325873e+03  1.09326153e+03  5.25067473e+03 
 5.00000000e-01  5.50263692e+03  1.10824610e+03  1.10824889e+03  5.50263693e+03 
 5.10000000e-01  5.77967182e+03  1.12349475e+03  1.12349754e+03  5.77967183e+03 
 5.20000000e-01  6.08550206e+03  1.13901776e+03  1.13902054e+03  6.08550206e+03 
 5.30000000e-01  6.42458947e+03  1.15483755e+03  1.15484033e+03  6.42458947e+03 
 5.40000000e-01  6.80231998e+03  1.17098328e+03  1.17098605e+03  6.80231998e+03 
 5.50000000e-01  7.22524456e+03  1.18748848e+03  1.18749123e+03  7.22524456e+03 
 5.60000000e-01  7.70139618e+03  1.20438934e+03  1.20439209e+03  7.70139617e+03 
 5.70000000e-01  8.24071106e+03  1.22172374e+03  1.22172647e+03  8.24071105e+03 
 5.80000000e-01  8.85559465e+03  1.23953063e+03  1.23953335e+03  8.85559465e+03 
 5.90000000e-01  9.56169041e+03  1.25784985e+03  1.25785255e+03  9.56169040e+03 
 6.00000000e-01  1.03789365e+04  1.27672209e+03  1.27672477e+03  1.03789365e+04 
 6.10000000e-01  1.13330361e+04  1.29618901e+03  1.29619166e+03  1.13330361e+04 
 6.20000000e-01  1.24575293e+04  1.31629341e+03  1.31629604e+03  1.24575292e+04 
 6.30000000e-01  1.37792191e+04  1.33710484e+03  1.33710744e+03  1.37792191e+04 
 6.40000000e-01  1.53844068e+04  1.35862399e+03  1.35862656e+03  1.53844068e+04 
 6.50000000e-01  1.73400585e+04  1.38091727e+03  1.38091982e+03  1.73400585e+04 
 6.60000000e-01  1.97547535e+04  1.40403417e+03  1.40403668e+03  1.97547534e+04 
 6.70000000e-01  2.27795952e+04  1.42802640e+03  1.42802886e+03  2.27795950e+04 
 6.80000000e-01  2.66276193e+04  1.45294809e+03  1.45295051e+03  2.66276191e+04 
 6.90000000e-01  3.16027118e+04  1.47885610e+03  1.47885846e+03  3.16027115e+04 
 7.00000000e-01  3.81424404e+04  1.50581014e+03  1.50581245e+03  3.81424399e+04 
 7.10000000e-01  4.68804908e+04  1.53387309e+03  1.53387533e+03  4.68804900e+04 
 7.20000000e-01  5.87347760e+04  1.56311116e+03  1.56311334e+03  5.87347747e+04 
 7.30000000e-01  7.50240710e+04  1.59359417e+03  1.59359626e+03  7.50240687e+04 
 7.40000000e-01  9.76017759e+04  1.62539570e+03  1.62539771e+03  9.76017717e+04 
 7.50000000e-01  1.28949990e+05  1.65859336e+03  1.65859526e+03  1.28949983e+05 
 7.60000000e-01  1.72050812e+05  1.69326892e+03  1.69327071e+03  1.72050798e+05 
 7.70000000e-01  2.29553287e+05  1.72950853e+03  1.72951020e+03  2.29553261e+05 
 7.80000000e-01  3.01277603e+05  1.76740284e+03  1.76740437e+03  3.01277556e+05 
 7.90000000e-01  3.79271199e+05  1.80704707e+03  1.80704844e+03  3.79271121e+05 
 8.00000000e-01  4.43420744e+05  1.84854108e+03  1.84854227e+03  4.43420633e+05 
 8.10000000e-01  4.68223303e+05  1.89198927e+03  1.89199026e+03  4.68223174e+05 
 8.20000000e-01  4.43878361e+05  1.93750046e+03  1.93750123e+03  4.43878241e+05 
 8.30000000e-01  3.85851277e+05  1.98518758e+03  1.98518810e+03  3.85851183e+05 
 8.40000000e-01  3.18164406e+05  2.03516717e+03  2.03516741e+03  3.18164340e+05 
 8.50000000e-01  2.56458582e+05  2.08755868e+03  2.08755859e+03  2.56458538e+05 
 8.60000000e-01  2.06134598e+05  2.14248341e+03  2.14248297e+03  2.06134569e+05 
 8.70000000e-01  1.67027484e+05  2.20006314e+03  2.20006230e+03  1.67027464e+05 
 8.80000000e-01  1.37123133e+05  2.26041819e+03  2.26041690e+03  1.37123119e+05 
 8.90000000e-01  1.14247530e+05  2.32366491e+03  2.32366311e+03  1.14247520e+05 
 9.00000000e-01  9.65975921e+04  2.38991236e+03  2.38990998e+03  9.65975848e+04 
 9.10000000e-01  8.28097241e+04  2.45925804e+03  2.45925502e+03  8.28097185e+04 
 9.20000000e-01  7.18890200e+04  2.53178246e+03  2.53177870e+03  7.18890157e+04 
 9.30000000e-01  6.31176269e+04  2.60754209e+03  2.60753752e+03  6.31176235e+04 
 9.40000000e-01  5.59770852e+04  2.68656072e+03  2.68655522e+03  5.59770825e+04 
 9.50000000e-01  5.00902384e+04  2.76881845e+03  2.76881191e+03  5.00902361e+04 
 9.60000000e-01  4.51798666e+04  2.85423828e+03  2.85423058e+03  4.51798647e+04 
 9.70000000e-01  4.10397850e+04  2.94266968e+03  2.94266068e+03  4.10397834e+04 
 9.80000000e-01  3.75533199e+04  3.03536524e+03  3.03535479e+03  3.75533185e+04 
 9.90000000e-01  3.45158029e+04  3.12925003e+03  3.12923795e+03  3.45158018e+04 
 1.00000000e+00  3.18861221e+04  3.22508573e+03  3.22507186e+03  3.18861211e+04 
 1.01000000e+00  2.95923100e+04  3.32220306e+03  3.32218720e+03  2.95923091e+04 
 1.02000000e+00  2.75776811e+04  3.41972975e+03  3.41971172e+03  2.75776803e+04 
 1.03000000e+00  2.57971171e+04  3.51656137e+03  3.51654097e+03  2.57971164e+04 
 1.04000000e+00  2.42055254e+04  3.60736242e+03  3.60733950e+03  2.42055248e+04 
 1.05000000e+00  2.27928830e+04  3.69784467e+03  3.69781905e+03  2.27928825e+04 
 1.06000000e+00  2.15241914e+04  3.78274844e+03  3.78271997e+03  2.15241908e+04 
 1.07000000e+00  2.03796924e+04  3.86006190e+03  3.86003050e+03  2.03796919e+04 
 1.08000000e+00  1.93429631e+04  3.92772976e+03  3.92769538e+03  1.93429626e+04 
 1.09000000e+00  1.84002580e+04  3.98383751e+03  3.98380017e+03  1.84002576e+04 
 1.10000000e+00  1.75399987e+04  4.02684521e+03  4.02680501e+03  1.75399983e+04 
 1.11000000e+00  1.67523725e+04  4.05582982e+03  4.05578690e+03  1.67523721e+04 
 1.12000000e+00  1.60290162e+04  4.07066801e+03  4.07062255e+03  1.60290159e+04 
 1.13000000e+00  1.53627641e+04  4.07208787e+03  4.07204012e+03  1.53627638e+04 
 1.14000000e+00  1.47474451e+04  4.06155440e+03  4.06150459e+03  1.47474448e+04 
 1.15000000e+00  1.41777199e+04  4.04101837e+03  4.04096671e+03  1.41777197e+04 
 1.16000000e+00  1.36496243e+04  4.01634298e+03  4.01628960e+03  1.36496240e+04 
 1.17000000e+00  1.31576075e+04  3.98121878e+03  3.98116394e+03  1.31576073e+04 
 1.18000000e+00  1.26989709e+04  3.94219975e+03  3.94214357e+03  1.26989706e+04 
 1.19000000e+00  1.22705893e+04  3.90075517e+03  3.90069773e+03  1.22705891e+04 
 1.20000000e+00  1.18697047e+04  3.85799370e+03  3.85793508e+03  1.18697045e+04 
 1.21000000e+00  1.14938748e+04  3.81471696e+03  3.81465721e+03  1.14938746e+04 
 1.22000000e+00  1.11409297e+04  3.77148500e+03  3.77142415e+03  1.11409296e+04 
 1.23000000e+00  1.08089360e+04  3.72867731e+03  3.72861536e+03  1.08089359e+04 
 1.24000000e+00  1.04961657e+04  3.68654287e+03  3.68647983e+03  1.04961655e+04 
 1.25000000e+00  1.02010702e+04  3.64523861e+03  3.64517448e+03  1.02010700e+04 
 1.26000000e+00  9.92225808e+03  3.60485763e+03  3.60479240e+03  9.92225792e+03 
 1.27000000e+00  9.65847592e+03  3.56544938e+03  3.56538305e+03  9.65847576e+03 
 1.28000000e+00  9.40859195e+03  3.52703390e+03  3.52696644e+03  9.40859180e+03 
 1.29000000e+00  9.17158189e+03  3.48961166e+03  3.48954305e+03  9.17158175e+03 
 1.30000000e+00  8.94651668e+03  3.45317038e+03  3.45310059e+03  8.94651654e+03 
 1.31000000e+00  8.73255188e+03  3.41768965e+03  3.41761866e+03  8.73255174e+03 
 1.32000000e+00  8.52891840e+03  3.38314412e+03  3.38307189e+03  8.52891827e+03 
 1.33000000e+00  8.33491444e+03  3.34950559e+03  3.34943208e+03  8.33491431e+03 
 1.34000000e+00  8.14989840e+03  3.31674446e+03  3.31666965e+03  8.14989828e+03 
 1.35000000e+00  7.97328270e+03  3.28483070e+03  3.28475453e+03  7.97328258e+03 
 1.36000000e+00  7.80452826e+03  3.25373440e+03  3.25365682e+03  7.80452814e+03 
 1.37000000e+00  7.64313973e+03  3.22342622e+03  3.22334718e+03  7.64313962e+03 
 1.38000000e+00  7.48866121e+03  3.19387761e+03  3.19379706e+03  7.48866110e+03 
 1.39000000e+00  7.34067245e+03  3.16506098e+03  3.16497883e+03  7.34067234e+03 
 1.40000000e+00  7.19878550e+03  3.13694972e+03  3.13686591e+03  7.19878540e+03 
 1.41000000e+00  7.06264175e+03  3.10951830e+03  3.10943275e+03  7.06264165e+03 
 1.42000000e+00  6.93190920e+03  3.08274223e+03  3.08265484e+03  6.93190910e+03 
 1.43000000e+00  6.80628013e+03  3.05659804e+03  3.05650871e+03  6.80628003e+03 
 1.44000000e+00  6.68546893e+03  3.03106325e+03  3.03097188e+03  6.68546883e+03 
 1.45000000e+00  6.56921020e+03  3.00611637e+03  3.00602285e+03  6.56921011e+03 
 1.46000000e+00  6.45725703e+03  2.98173680e+03  2.98164103e+03  6.45725693e+03 
 1.47000000e+00  6.34937941e+03  2.95790485e+03  2.95780672e+03  6.34937932e+03 
 1.48000000e+00  6.24536287e+03  2.93460168e+03  2.93450107e+03  6.24536279e+03 
 1.49000000e+00  6.14500722e+03  2.91180922e+03  2.91170602e+03  6.14500714e+03 
 1.50000000e+00  6.04812537e+03  2.88951021e+03  2.88940427e+03  6.04812528e+03 
