 time            v(vin_tg)       v(vout_tg_lv_on) v(vout_tg_hv_on) v(vout_tg_lv_off) v(vout_tg_hv_off)
 0.00000000e+00  7.50000000e-01  7.50000022e-01  7.50000000e-01  8.42710513e-01  7.06344957e-01 
 1.00000000e-07  7.50471239e-01  7.50402669e-01  7.50030781e-01  8.42710513e-01  7.06344957e-01 
 2.00000000e-07  7.50942478e-01  7.50863813e-01  7.50089723e-01  8.42710513e-01  7.06344957e-01 
 4.00000000e-07  7.51884954e-01  7.51803206e-01  7.50258885e-01  8.42710513e-01  7.06344957e-01 
 8.00000000e-07  7.53769895e-01  7.53690076e-01  7.50859989e-01  8.42710513e-01  7.06344957e-01 
 1.60000000e-06  7.57539695e-01  7.57457283e-01  7.52770947e-01  8.42710513e-01  7.06344957e-01 
 3.20000000e-06  7.65078629e-01  7.64996816e-01  7.57936710e-01  8.42710513e-01  7.06344957e-01 
 6.40000000e-06  7.80151162e-01  7.80064862e-01  7.69542034e-01  8.42710513e-01  7.06344957e-01 
 1.28000000e-05  8.10253575e-01  8.10163477e-01  7.93062377e-01  8.42710514e-01  7.06344957e-01 
 2.28000000e-05  8.57075348e-01  8.56972971e-01  8.42012440e-01  8.42710514e-01  7.06344958e-01 
 3.28000000e-05  9.03474544e-01  9.03362596e-01  8.98725290e-01  8.42710514e-01  7.06344958e-01 
 4.28000000e-05  9.49268046e-01  9.49139919e-01  9.47094211e-01  8.42710515e-01  7.06344959e-01 
 5.28000000e-05  9.94275128e-01  9.94135508e-01  9.92754939e-01  8.42710516e-01  7.06344960e-01 
 6.28000000e-05  1.03831817e+00  1.03816216e+00  1.03731491e+00  8.42710517e-01  7.06344961e-01 
 7.28000000e-05  1.08122335e+00  1.08106337e+00  1.08040209e+00  8.42710518e-01  7.06344962e-01 
 8.28000000e-05  1.12282134e+00  1.12265973e+00  1.12221128e+00  8.42710520e-01  7.06344964e-01 
 9.28000000e-05  1.16294798e+00  1.16279973e+00  1.16241359e+00  8.42710521e-01  7.06344965e-01 
 1.02800000e-04  1.20144490e+00  1.20130497e+00  1.20104233e+00  8.42710523e-01  7.06344967e-01 
 1.12800000e-04  1.23816017e+00  1.23803668e+00  1.23778413e+00  8.42710525e-01  7.06344969e-01 
 1.22800000e-04  1.27294890e+00  1.27283363e+00  1.27265143e+00  8.42710528e-01  7.06344971e-01 
 1.32800000e-04  1.30567378e+00  1.30557241e+00  1.30539506e+00  8.42710533e-01  7.06344973e-01 
 1.42800000e-04  1.33620568e+00  1.33611150e+00  1.33598272e+00  8.42710544e-01  7.06344975e-01 
 1.52800000e-04  1.36442409e+00  1.36434243e+00  1.36421480e+00  8.42710572e-01  7.06344978e-01 
 1.62800000e-04  1.39021765e+00  1.39014262e+00  1.39005156e+00  8.42710646e-01  7.06344981e-01 
 1.72800000e-04  1.41348456e+00  1.41342113e+00  1.41332926e+00  8.42710831e-01  7.06344985e-01 
 1.82800000e-04  1.43413301e+00  1.43407586e+00  1.43401339e+00  8.42711254e-01  7.06344992e-01 
 1.92800000e-04  1.45208149e+00  1.45203533e+00  1.45197108e+00  8.42712137e-01  7.06345004e-01 
 2.02800000e-04  1.46725918e+00  1.46721911e+00  1.46717978e+00  8.42713803e-01  7.06345023e-01 
 2.12800000e-04  1.47960617e+00  1.47957668e+00  1.47953524e+00  8.42716635e-01  7.06345056e-01 
 2.22800000e-04  1.48907374e+00  1.48905025e+00  1.48903092e+00  8.42720962e-01  7.06345104e-01 
 2.32800000e-04  1.49562453e+00  1.49561135e+00  1.49558999e+00  8.42726888e-01  7.06345171e-01 
 2.42800000e-04  1.49923267e+00  1.49922549e+00  1.49922459e+00  8.42734146e-01  7.06345253e-01 
 2.52800000e-04  1.49988394e+00  1.49988694e+00  1.49988443e+00  8.42742075e-01  7.06345343e-01 
 2.62800000e-04  1.49757575e+00  1.49758482e+00  1.49760203e+00  8.42749788e-01  7.06345430e-01 
 2.72800000e-04  1.49231723e+00  1.49233646e+00  1.49235285e+00  8.42756454e-01  7.06345505e-01 
 2.82800000e-04  1.48412912e+00  1.48415454e+00  1.48419074e+00  8.42761558e-01  7.06345563e-01 
 2.92800000e-04  1.47304374e+00  1.47307942e+00  1.47311604e+00  8.42765011e-01  7.06345602e-01 
 3.02800000e-04  1.45910483e+00  1.45914692e+00  1.45920435e+00  8.42767064e-01  7.06345626e-01 
 3.12800000e-04  1.44236741e+00  1.44241999e+00  1.44247975e+00  8.42768129e-01  7.06345639e-01 
 3.22800000e-04  1.42289754e+00  1.42295685e+00  1.42303958e+00  8.42768606e-01  7.06345646e-01 
 3.32800000e-04  1.40077204e+00  1.40084225e+00  1.40093026e+00  8.42768785e-01  7.06345650e-01 
 3.42800000e-04  1.37607825e+00  1.37615568e+00  1.37627055e+00  8.42768839e-01  7.06345653e-01 
 3.52800000e-04  1.34891360e+00  1.34900258e+00  1.34912752e+00  8.42768850e-01  7.06345656e-01 
 3.62800000e-04  1.31938533e+00  1.31948226e+00  1.31964085e+00  8.42768850e-01  7.06345658e-01 
 3.72800000e-04  1.28760994e+00  1.28771940e+00  1.28789635e+00  8.42768850e-01  7.06345660e-01 
 3.82800000e-04  1.25371286e+00  1.25383137e+00  1.25405422e+00  8.42768851e-01  7.06345662e-01 
 3.92800000e-04  1.21782785e+00  1.21796032e+00  1.21821714e+00  8.42768852e-01  7.06345664e-01 
 4.02800000e-04  1.18009654e+00  1.18023943e+00  1.18056637e+00  8.42768853e-01  7.06345666e-01 
 4.12800000e-04  1.14066784e+00  1.14082478e+00  1.14123298e+00  8.42768855e-01  7.06345668e-01 
 4.22800000e-04  1.09969734e+00  1.09985808e+00  1.10041175e+00  8.42768856e-01  7.06345669e-01 
 4.32800000e-04  1.05734676e+00  1.05750638e+00  1.05824119e+00  8.42768857e-01  7.06345670e-01 
 4.42800000e-04  1.01378321e+00  1.01392955e+00  1.01500730e+00  8.42768858e-01  7.06345671e-01 
 4.52800000e-04  9.69178632e-01  9.69312619e-01  9.70922679e-01  8.42768859e-01  7.06345672e-01 
 4.62800000e-04  9.23709057e-01  9.23827326e-01  9.26587342e-01  8.42768859e-01  7.06345673e-01 
 4.72800000e-04  8.77553931e-01  8.77660949e-01  8.83068988e-01  8.42768860e-01  7.06345674e-01 
 4.82800000e-04  8.30895409e-01  8.30990263e-01  8.43106692e-01  8.42768860e-01  7.06345674e-01 
 4.92800000e-04  7.83917629e-01  7.84004296e-01  8.02524365e-01  8.42768860e-01  7.06345674e-01 
 5.02800000e-04  7.36805991e-01  7.36883778e-01  7.44749054e-01  8.42768860e-01  7.06345674e-01 
 5.12800000e-04  6.89746425e-01  6.89818336e-01  6.90981596e-01  8.42768859e-01  7.06345674e-01 
 5.22800000e-04  6.42924652e-01  6.42989866e-01  6.43935065e-01  8.42768859e-01  7.06345674e-01 
 5.32800000e-04  5.96525456e-01  5.96586217e-01  5.96910301e-01  8.42768858e-01  7.06345673e-01 
 5.42800000e-04  5.50731954e-01  5.50787307e-01  5.51165884e-01  8.42768857e-01  7.06345673e-01 
 5.52800000e-04  5.05724872e-01  5.05776505e-01  5.05933299e-01  8.42768856e-01  7.06345672e-01 
 5.62800000e-04  4.61681832e-01  4.61728735e-01  4.61945777e-01  8.42768855e-01  7.06345671e-01 
 5.72800000e-04  4.18776653e-01  4.18820299e-01  4.18913912e-01  8.42768853e-01  7.06345670e-01 
 5.82800000e-04  3.77178661e-01  3.77218278e-01  3.77364025e-01  8.42768851e-01  7.06345668e-01 
 5.92800000e-04  3.37052024e-01  3.37088975e-01  3.37150392e-01  8.42768848e-01  7.06345667e-01 
 6.02800000e-04  2.98555104e-01  2.98588640e-01  2.98694856e-01  8.42768841e-01  7.06345665e-01 
 6.12800000e-04  2.61839831e-01  2.61871109e-01  2.61912821e-01  8.42768821e-01  7.06345663e-01 
 6.22800000e-04  2.27051103e-01  2.27079359e-01  2.27160400e-01  8.42768751e-01  7.06345661e-01 
 6.32800000e-04  1.94326216e-01  1.94352462e-01  1.94380566e-01  8.42768524e-01  7.06345659e-01 
 6.42800000e-04  1.63794319e-01  1.63817789e-01  1.63881210e-01  8.42767825e-01  7.06345656e-01 
 6.52800000e-04  1.35575908e-01  1.35597516e-01  1.35615345e-01  8.42765835e-01  7.06345654e-01 
 6.62800000e-04  1.09782348e-01  1.09801331e-01  1.09851524e-01  8.42760636e-01  7.06345651e-01 
 6.72800000e-04  8.65154352e-02  8.65326382e-02  8.65421438e-02  8.42748206e-01  7.06345648e-01 
 6.82800000e-04  6.58669925e-02  6.58816600e-02  6.59213483e-02  8.42721116e-01  7.06345643e-01 
 6.92800000e-04  4.79185103e-02  4.79314390e-02  4.79337933e-02  8.42667438e-01  7.06345636e-01 
 7.02800000e-04  3.27408229e-02  3.27512391e-02  3.27827439e-02  8.42577450e-01  7.06345627e-01 
 7.12800000e-04  2.03938299e-02  2.04025330e-02  2.03978200e-02  8.42434169e-01  7.06345613e-01 
 7.22800000e-04  1.09262590e-02  1.09324946e-02  1.09561483e-02  8.42217019e-01  7.06345593e-01 
 7.32800000e-04  4.37547462e-03  4.37999755e-03  4.36975478e-03  8.41917402e-01  7.06345567e-01 
 7.42800000e-04  7.67329559e-04  7.69381969e-04  7.85919988e-04  8.41552990e-01  7.06345536e-01 
 7.52800000e-04  1.16063554e-04  1.16380953e-04  1.00015282e-04  8.41160174e-01  7.06345502e-01 
 7.62800000e-04  2.42424686e-03  2.42209109e-03  2.43190642e-03  8.40777966e-01  7.06345469e-01 
 7.72800000e-04  7.68277012e-03  7.67885740e-03  7.65641354e-03  8.40446765e-01  7.06345440e-01 
 7.82800000e-04  1.58708804e-02  1.58644629e-02  1.58678797e-02  8.40185702e-01  7.06345417e-01 
 7.92800000e-04  2.69562628e-02  2.69480720e-02  2.69190230e-02  8.40005737e-01  7.06345401e-01 
 8.02800000e-04  4.08951686e-02  4.08844529e-02  4.08806943e-02  8.39901150e-01  7.06345390e-01 
 8.12800000e-04  5.76325872e-02  5.76200500e-02  5.75834979e-02  8.39846062e-01  7.06345383e-01 
 8.22800000e-04  7.71024637e-02  7.70873207e-02  7.70766468e-02  8.39816013e-01  7.06345378e-01 
 8.32800000e-04  9.92279593e-02  9.92109456e-02  9.91643472e-02  8.39798343e-01  7.06345374e-01 
 8.42800000e-04  1.23921755e-01  1.23902072e-01  1.23882866e-01  8.39790655e-01  7.06345371e-01 
 8.52800000e-04  1.51086395e-01  1.51064761e-01  1.51006635e-01  8.39787604e-01  7.06345369e-01 
 8.62800000e-04  1.80614674e-01  1.80590242e-01  1.80560541e-01  8.39786499e-01  7.06345366e-01 
 8.72800000e-04  2.12390056e-01  2.12363539e-01  2.12290256e-01  8.39786135e-01  7.06345364e-01 
 8.82800000e-04  2.46287140e-01  2.46257617e-01  2.46214080e-01  8.39786029e-01  7.06345362e-01 
 8.92800000e-04  2.82172148e-01  2.82140321e-01  2.82045760e-01  8.39786005e-01  7.06345360e-01 
 9.02800000e-04  3.19903458e-01  3.19868291e-01  3.19804897e-01  8.39786005e-01  7.06345358e-01 
 9.12800000e-04  3.59332164e-01  3.59294328e-01  3.59167236e-01  8.39786013e-01  7.06345357e-01 
 9.22800000e-04  4.00302656e-01  4.00260946e-01  4.00165694e-01  8.39786022e-01  7.06345355e-01 
 9.32800000e-04  4.42653245e-01  4.42608303e-01  4.42425003e-01  8.39786031e-01  7.06345354e-01 
 9.42800000e-04  4.86216790e-01  4.86167279e-01  4.86011805e-01  8.39786041e-01  7.06345353e-01 
 9.52800000e-04  5.30821368e-01  5.30768114e-01  5.30466708e-01  8.39786051e-01  7.06345352e-01 
 9.62800000e-04  5.76290943e-01  5.76232526e-01  5.75928448e-01  8.39786061e-01  7.06345351e-01 
 9.72800000e-04  6.22446069e-01  6.22383282e-01  6.21731742e-01  8.39786072e-01  7.06345350e-01 
 9.82800000e-04  6.69104591e-01  6.69035555e-01  6.68123071e-01  8.39786083e-01  7.06345350e-01 
 9.92800000e-04  7.16082371e-01  7.16007686e-01  7.13234853e-01  8.39786093e-01  7.06345350e-01 
 1.00280000e-03  7.63194009e-01  7.63111162e-01  7.56265338e-01  8.39786104e-01  7.06345350e-01 
 1.01280000e-03  8.10253575e-01  8.10162932e-01  7.92958359e-01  8.39786115e-01  7.06345350e-01 
 1.02280000e-03  8.57075348e-01  8.56973576e-01  8.42014184e-01  8.39786127e-01  7.06345350e-01 
 1.03280000e-03  9.03474544e-01  9.03361919e-01  8.98725117e-01  8.39786138e-01  7.06345351e-01 
 1.04280000e-03  9.49268046e-01  9.49140682e-01  9.47094280e-01  8.39786150e-01  7.06345351e-01 
 1.05280000e-03  9.94275128e-01  9.94134652e-01  9.92754902e-01  8.39786162e-01  7.06345352e-01 
 1.06280000e-03  1.03831817e+00  1.03816311e+00  1.03731493e+00  8.39786174e-01  7.06345353e-01 
 1.07280000e-03  1.08122335e+00  1.08106236e+00  1.08040207e+00  8.39786186e-01  7.06345355e-01 
 1.08280000e-03  1.12282134e+00  1.12266074e+00  1.12221130e+00  8.39786199e-01  7.06345356e-01 
 1.09280000e-03  1.16294798e+00  1.16279876e+00  1.16241358e+00  8.39786211e-01  7.06345357e-01 
 1.10280000e-03  1.20144490e+00  1.20130596e+00  1.20104234e+00  8.39786224e-01  7.06345359e-01 
 1.11280000e-03  1.23816017e+00  1.23803574e+00  1.23778412e+00  8.39786237e-01  7.06345361e-01 
 1.12280000e-03  1.27294890e+00  1.27283452e+00  1.27265144e+00  8.39786251e-01  7.06345363e-01 
 1.13280000e-03  1.30567378e+00  1.30557157e+00  1.30539505e+00  8.39786267e-01  7.06345365e-01 
 1.14280000e-03  1.33620568e+00  1.33611230e+00  1.33598273e+00  8.39786289e-01  7.06345368e-01 
 1.15280000e-03  1.36442409e+00  1.36434167e+00  1.36421479e+00  8.39786328e-01  7.06345370e-01 
 1.16280000e-03  1.39021765e+00  1.39014334e+00  1.39005156e+00  8.39786413e-01  7.06345373e-01 
 1.17280000e-03  1.41348456e+00  1.41342044e+00  1.41332926e+00  8.39786609e-01  7.06345378e-01 
 1.18280000e-03  1.43413301e+00  1.43407654e+00  1.43401339e+00  8.39787044e-01  7.06345384e-01 
 1.19280000e-03  1.45208149e+00  1.45203468e+00  1.45197108e+00  8.39787938e-01  7.06345396e-01 
 1.20280000e-03  1.46725918e+00  1.46721974e+00  1.46717979e+00  8.39789614e-01  7.06345416e-01 
 1.21280000e-03  1.47960617e+00  1.47957606e+00  1.47953523e+00  8.39792458e-01  7.06345448e-01 
 1.22280000e-03  1.48907374e+00  1.48905086e+00  1.48903093e+00  8.39796796e-01  7.06345497e-01 
 1.23280000e-03  1.49562453e+00  1.49561076e+00  1.49558999e+00  8.39802735e-01  7.06345564e-01 
 1.24280000e-03  1.49923267e+00  1.49922607e+00  1.49922459e+00  8.39810004e-01  7.06345646e-01 
 1.25280000e-03  1.49988394e+00  1.49988637e+00  1.49988443e+00  8.39817944e-01  7.06345735e-01 
 1.26280000e-03  1.49757575e+00  1.49758538e+00  1.49760203e+00  8.39825669e-01  7.06345822e-01 
 1.27280000e-03  1.49231723e+00  1.49233590e+00  1.49235284e+00  8.39832347e-01  7.06345898e-01 
 1.28280000e-03  1.48412912e+00  1.48415509e+00  1.48419074e+00  8.39837463e-01  7.06345955e-01 
 1.29280000e-03  1.47304374e+00  1.47307887e+00  1.47311604e+00  8.39840927e-01  7.06345994e-01 
 1.30280000e-03  1.45910483e+00  1.45914746e+00  1.45920436e+00  8.39842991e-01  7.06346018e-01 
 1.31280000e-03  1.44236741e+00  1.44241945e+00  1.44247974e+00  8.39844068e-01  7.06346031e-01 
 1.32280000e-03  1.42289754e+00  1.42295739e+00  1.42303958e+00  8.39844555e-01  7.06346038e-01 
 1.33280000e-03  1.40077204e+00  1.40084171e+00  1.40093025e+00  8.39844746e-01  7.06346042e-01 
 1.34280000e-03  1.37607825e+00  1.37615623e+00  1.37627055e+00  8.39844811e-01  7.06346045e-01 
 1.35280000e-03  1.34891360e+00  1.34900203e+00  1.34912752e+00  8.39844833e-01  7.06346048e-01 
 1.36280000e-03  1.31938533e+00  1.31948282e+00  1.31964086e+00  8.39844844e-01  7.06346050e-01 
 1.37280000e-03  1.28760994e+00  1.28771883e+00  1.28789635e+00  8.39844855e-01  7.06346052e-01 
 1.38280000e-03  1.25371286e+00  1.25383194e+00  1.25405423e+00  8.39844866e-01  7.06346054e-01 
 1.39280000e-03  1.21782785e+00  1.21795974e+00  1.21821713e+00  8.39844879e-01  7.06346056e-01 
 1.40280000e-03  1.18009654e+00  1.18024003e+00  1.18056637e+00  8.39844891e-01  7.06346058e-01 
 1.41280000e-03  1.14066784e+00  1.14082411e+00  1.14123297e+00  8.39844903e-01  7.06346060e-01 
 1.42280000e-03  1.09969734e+00  1.09985874e+00  1.10041175e+00  8.39844916e-01  7.06346061e-01 
 1.43280000e-03  1.05734676e+00  1.05750577e+00  1.05824119e+00  8.39844928e-01  7.06346063e-01 
 1.44280000e-03  1.01378321e+00  1.01393009e+00  1.01500731e+00  8.39844940e-01  7.06346064e-01 
 1.45280000e-03  9.69178632e-01  9.69312140e-01  9.70922671e-01  8.39844952e-01  7.06346065e-01 
 1.46280000e-03  9.23709057e-01  9.23827742e-01  9.26587352e-01  8.39844963e-01  7.06346066e-01 
 1.47280000e-03  8.77553931e-01  8.77660586e-01  8.83068973e-01  8.39844975e-01  7.06346066e-01 
 1.48280000e-03  8.30895409e-01  8.30990584e-01  8.43106709e-01  8.39844986e-01  7.06346067e-01 
 1.49280000e-03  7.83917629e-01  7.84004010e-01  8.02524359e-01  8.39844997e-01  7.06346067e-01 
 1.50280000e-03  7.36805991e-01  7.36884035e-01  7.44749054e-01  8.39845008e-01  7.06346067e-01 
 1.51280000e-03  6.89746425e-01  6.89818102e-01  6.90981596e-01  8.39845018e-01  7.06346067e-01 
 1.52280000e-03  6.42924652e-01  6.42990081e-01  6.43935065e-01  8.39845029e-01  7.06346066e-01 
 1.53280000e-03  5.96525456e-01  5.96586018e-01  5.96910301e-01  8.39845039e-01  7.06346066e-01 
 1.54280000e-03  5.50731954e-01  5.50787493e-01  5.51165884e-01  8.39845049e-01  7.06346065e-01 
 1.55280000e-03  5.05724872e-01  5.05776332e-01  5.05933299e-01  8.39845059e-01  7.06346064e-01 
 1.56280000e-03  4.61681832e-01  4.61728898e-01  4.61945777e-01  8.39845069e-01  7.06346063e-01 
 1.57280000e-03  4.18776653e-01  4.18820146e-01  4.18913912e-01  8.39845078e-01  7.06346062e-01 
 1.58280000e-03  3.77178661e-01  3.77218423e-01  3.77364025e-01  8.39845087e-01  7.06346060e-01 
 1.59280000e-03  3.37052024e-01  3.37088837e-01  3.37150392e-01  8.39845095e-01  7.06346059e-01 
 1.60280000e-03  2.98555104e-01  2.98588772e-01  2.98694856e-01  8.39845100e-01  7.06346057e-01 
 1.61280000e-03  2.61839831e-01  2.61870982e-01  2.61912821e-01  8.39845090e-01  7.06346055e-01 
 1.62280000e-03  2.27051103e-01  2.27079482e-01  2.27160400e-01  8.39845032e-01  7.06346053e-01 
 1.63280000e-03  1.94326216e-01  1.94352343e-01  1.94380566e-01  8.39844816e-01  7.06346051e-01 
 1.64280000e-03  1.63794319e-01  1.63817905e-01  1.63881210e-01  8.39844129e-01  7.06346049e-01 
 1.65280000e-03  1.35575908e-01  1.35597403e-01  1.35615345e-01  8.39842155e-01  7.06346046e-01 
 1.66280000e-03  1.09782348e-01  1.09801442e-01  1.09851524e-01  8.39836978e-01  7.06346043e-01 
 1.67280000e-03  8.65154352e-02  8.65325297e-02  8.65421438e-02  8.39824584e-01  7.06346040e-01 
 1.68280000e-03  6.58669925e-02  6.58817667e-02  6.59213483e-02  8.39797558e-01  7.06346035e-01 
 1.69280000e-03  4.79185103e-02  4.79313338e-02  4.79337933e-02  8.39743994e-01  7.06346029e-01 
 1.70280000e-03  3.27408229e-02  3.27513450e-02  3.27827439e-02  8.39654186e-01  7.06346019e-01 
 1.71280000e-03  2.03938299e-02  2.04024286e-02  2.03978200e-02  8.39511184e-01  7.06346005e-01 
 1.72280000e-03  1.09262590e-02  1.09325978e-02  1.09561483e-02  8.39294445e-01  7.06345986e-01 
 1.73280000e-03  4.37547462e-03  4.37989620e-03  4.36975478e-03  8.38995386e-01  7.06345960e-01 
 1.74280000e-03  7.67329559e-04  7.69483242e-04  7.85919988e-04  8.38631646e-01  7.06345928e-01 
 1.75280000e-03  1.16063554e-04  1.16280343e-04  1.00015282e-04  8.38239551e-01  7.06345894e-01 
 1.76280000e-03  2.42424686e-03  2.42219121e-03  2.43190642e-03  8.37858047e-01  7.06345862e-01 
 1.77280000e-03  7.68277012e-03  7.67875760e-03  7.65641354e-03  8.37527460e-01  7.06345833e-01 
 1.78280000e-03  1.58708804e-02  1.58645635e-02  1.58678797e-02  8.37266886e-01  7.06345810e-01 
 1.79280000e-03  2.69562628e-02  2.69479724e-02  2.69190230e-02  8.37087265e-01  7.06345793e-01 
 1.80280000e-03  4.08951686e-02  4.08845528e-02  4.08806943e-02  8.36982888e-01  7.06345782e-01 
 1.81280000e-03  5.76325872e-02  5.76199498e-02  5.75834979e-02  8.36927918e-01  7.06345776e-01 
 1.82280000e-03  7.71024637e-02  7.70874239e-02  7.70766468e-02  8.36897939e-01  7.06345771e-01 
 1.83280000e-03  9.92279593e-02  9.92108412e-02  9.91643472e-02  8.36880315e-01  7.06345767e-01 
 1.84280000e-03  1.23921755e-01  1.23902178e-01  1.23882866e-01  8.36872654e-01  7.06345764e-01 
 1.85280000e-03  1.51086395e-01  1.51064653e-01  1.51006635e-01  8.36869620e-01  7.06345761e-01 
 1.86280000e-03  1.80614674e-01  1.80590351e-01  1.80560541e-01  8.36868528e-01  7.06345759e-01 
 1.87280000e-03  2.12390056e-01  2.12363427e-01  2.12290256e-01  8.36868176e-01  7.06345756e-01 
 1.88280000e-03  2.46287140e-01  2.46257733e-01  2.46214080e-01  8.36868081e-01  7.06345754e-01 
 1.89280000e-03  2.82172148e-01  2.82140202e-01  2.82045760e-01  8.36868068e-01  7.06345752e-01 
 1.90280000e-03  3.19903458e-01  3.19868414e-01  3.19804897e-01  8.36868080e-01  7.06345751e-01 
 1.91280000e-03  3.59332164e-01  3.59294200e-01  3.59167236e-01  8.36868098e-01  7.06345749e-01 
 1.92280000e-03  4.00302656e-01  4.00261080e-01  4.00165694e-01  8.36868118e-01  7.06345747e-01 
 1.93280000e-03  4.42653245e-01  4.42608162e-01  4.42425003e-01  8.36868138e-01  7.06345746e-01 
 1.94280000e-03  4.86216790e-01  4.86167427e-01  4.86011805e-01  8.36868159e-01  7.06345745e-01 
 1.95280000e-03  5.30821368e-01  5.30767957e-01  5.30466708e-01  8.36868180e-01  7.06345744e-01 
 1.96280000e-03  5.76290943e-01  5.76232693e-01  5.75928448e-01  8.36868201e-01  7.06345743e-01 
 1.97280000e-03  6.22446069e-01  6.22383104e-01  6.21731742e-01  8.36868223e-01  7.06345743e-01 
