 v-sweep         v(Ileak_lv_w_dummy) v(Ileak_hv_w_dummy) v(Ileak_lv_wo_dummy) v(Ileak_hv_wo_dummy)
 0.00000000e+00 -4.65232594e-11 -2.18439789e-15 -4.38621345e-11 -1.72813234e-15 
 1.00000000e-02 -3.43195635e-11 -2.16439789e-15 -3.16584387e-11 -1.70813234e-15 
 2.00000000e-02 -2.54821571e-11 -2.14439789e-15 -2.28210323e-11 -1.68813234e-15 
 3.00000000e-02 -1.90832414e-11 -2.12439789e-15 -1.64221166e-11 -1.66813234e-15 
 4.00000000e-02 -1.44505304e-11 -2.10439789e-15 -1.17894055e-11 -1.64813234e-15 
 5.00000000e-02 -1.10969374e-11 -2.08439789e-15 -8.43581260e-12 -1.62813234e-15 
 6.00000000e-02 -8.25613672e-12 -2.06439789e-15 -5.59501190e-12 -1.60813234e-15 
 7.00000000e-02 -6.61355270e-12 -2.04439789e-15 -3.95242788e-12 -1.58813234e-15 
 8.00000000e-02 -5.42502360e-12 -2.02439789e-15 -2.76389878e-12 -1.56813234e-15 
 9.00000000e-02 -4.56515083e-12 -2.00439789e-15 -1.90402601e-12 -1.54813234e-15 
 1.00000000e-01 -3.94313731e-12 -1.98439789e-15 -1.28201249e-12 -1.52813234e-15 
 1.10000000e-01 -3.49324786e-12 -1.96439789e-15 -8.32123041e-13 -1.50813234e-15 
 1.20000000e-01 -3.16789715e-12 -1.94439789e-15 -5.06772337e-13 -1.48813234e-15 
 1.30000000e-01 -2.93264334e-12 -1.92439789e-15 -2.71518526e-13 -1.46813234e-15 
 1.40000000e-01 -2.76256033e-12 -1.90439789e-15 -1.01435512e-13 -1.44813234e-15 
 1.50000000e-01 -2.63961158e-12 -1.88439789e-15  2.15132387e-14 -1.42813234e-15 
 1.60000000e-01 -2.55074726e-12 -1.86439789e-15  1.10377556e-13 -1.40813234e-15 
 1.70000000e-01 -2.48652708e-12 -1.84439789e-15  1.74597739e-13 -1.38813234e-15 
 1.80000000e-01 -2.44012256e-12 -1.82439789e-15  2.21002255e-13 -1.36813234e-15 
 1.90000000e-01 -2.40659549e-12 -1.80439789e-15  2.54529330e-13 -1.34813234e-15 
 2.00000000e-01 -2.38237483e-12 -1.78439789e-15  2.78749992e-13 -1.32813234e-15 
 2.10000000e-01 -2.36487885e-12 -1.76439789e-15  2.96245969e-13 -1.30813234e-15 
 2.20000000e-01 -2.35224112e-12 -1.74439789e-15  3.08883693e-13 -1.28813234e-15 
 2.30000000e-01 -2.34311277e-12 -1.72439789e-15  3.18012050e-13 -1.26813234e-15 
 2.40000000e-01 -2.33651895e-12 -1.70439789e-15  3.24605872e-13 -1.24813234e-15 
 2.50000000e-01 -2.33175527e-12 -1.68439789e-15  3.29369551e-13 -1.22813234e-15 
 2.60000000e-01 -2.32831292e-12 -1.66439789e-15  3.32811896e-13 -1.20813234e-15 
 2.70000000e-01 -2.32582431e-12 -1.64439789e-15  3.35300507e-13 -1.18813234e-15 
 2.80000000e-01 -2.32402402e-12 -1.62439789e-15  3.37100793e-13 -1.16813234e-15 
 2.90000000e-01 -2.32272043e-12 -1.60439789e-15  3.38404391e-13 -1.14813234e-15 
 3.00000000e-01 -2.32177509e-12 -1.58439789e-15  3.39349724e-13 -1.12813234e-15 
 3.10000000e-01 -2.32108824e-12 -1.56439789e-15  3.40036573e-13 -1.10813234e-15 
 3.20000000e-01 -2.32058771e-12 -1.54439789e-15  3.40537107e-13 -1.08813234e-15 
 3.30000000e-01 -2.32022156e-12 -1.52439789e-15  3.40903256e-13 -1.06813234e-15 
 3.40000000e-01 -2.31995225e-12 -1.50439789e-15  3.41172565e-13 -1.04813234e-15 
 3.50000000e-01 -2.31975275e-12 -1.48439789e-15  3.41372073e-13 -1.02813234e-15 
 3.60000000e-01 -2.31960353e-12 -1.46439789e-15  3.41521288e-13 -1.00813234e-15 
 3.70000000e-01 -2.31949054e-12 -1.44439789e-15  3.41634279e-13 -9.88132339e-16 
 3.80000000e-01 -2.31940364e-12 -1.42439789e-15  3.41721182e-13 -9.68132339e-16 
 3.90000000e-01 -2.31933552e-12 -1.40439789e-15  3.41789301e-13 -9.48132339e-16 
 4.00000000e-01 -2.31928092e-12 -1.38439789e-15  3.41843901e-13 -9.28132339e-16 
 4.10000000e-01 -2.31923605e-12 -1.36439789e-15  3.41888770e-13 -9.08132339e-16 
 4.20000000e-01 -2.31919818e-12 -1.34439789e-15  3.41926640e-13 -8.88132339e-16 
 4.30000000e-01 -2.31916534e-12 -1.32439789e-15  3.41959475e-13 -8.68132339e-16 
 4.40000000e-01 -2.31913613e-12 -1.30439789e-15  3.41988689e-13 -8.48132339e-16 
 4.50000000e-01 -2.31910952e-12 -1.28439789e-15  3.42015302e-13 -8.28132339e-16 
 4.60000000e-01 -2.31908477e-12 -1.26439789e-15  3.42040044e-13 -8.08132339e-16 
 4.70000000e-01 -2.31906138e-12 -1.24439789e-15  3.42063442e-13 -7.88132339e-16 
 4.80000000e-01 -2.31903894e-12 -1.22439789e-15  3.42085875e-13 -7.68132339e-16 
 4.90000000e-01 -2.31901720e-12 -1.20439789e-15  3.42107616e-13 -7.48132339e-16 
 5.00000000e-01 -2.31899596e-12 -1.18439789e-15  3.42128859e-13 -7.28132339e-16 
 5.10000000e-01 -2.31897507e-12 -1.16439789e-15  3.42149746e-13 -7.08132339e-16 
 5.20000000e-01 -2.31895444e-12 -1.14439789e-15  3.42170377e-13 -6.88132339e-16 
 5.30000000e-01 -2.31893399e-12 -1.12439789e-15  3.42190824e-13 -6.68132339e-16 
 5.40000000e-01 -2.31891368e-12 -1.10439789e-15  3.42211140e-13 -6.48132339e-16 
 5.50000000e-01 -2.31889346e-12 -1.08439789e-15  3.42231363e-13 -6.28132339e-16 
 5.60000000e-01 -2.31887330e-12 -1.06439789e-15  3.42251517e-13 -6.08132339e-16 
 5.70000000e-01 -2.31885319e-12 -1.04439789e-15  3.42271624e-13 -5.88132339e-16 
 5.80000000e-01 -2.31883312e-12 -1.02439789e-15  3.42291697e-13 -5.68132339e-16 
 5.90000000e-01 -2.31881307e-12 -1.00439789e-15  3.42311745e-13 -5.48132339e-16 
 6.00000000e-01 -2.31879304e-12 -9.84397887e-16  3.42331775e-13 -5.28132339e-16 
 6.10000000e-01 -2.31877302e-12 -9.64397887e-16  3.42351794e-13 -5.08132339e-16 
 6.20000000e-01 -2.31875301e-12 -9.44397887e-16  3.42371804e-13 -4.88132339e-16 
 6.30000000e-01 -2.31873301e-12 -9.24397887e-16  3.42391807e-13 -4.68132339e-16 
 6.40000000e-01 -2.31871301e-12 -9.04397887e-16  3.42411807e-13 -4.48132339e-16 
 6.50000000e-01 -2.31869301e-12 -8.84397887e-16  3.42431804e-13 -4.28132339e-16 
 6.60000000e-01 -2.31867302e-12 -8.64397887e-16  3.42451800e-13 -4.08132339e-16 
 6.70000000e-01 -2.31865302e-12 -8.44397887e-16  3.42471794e-13 -3.88132339e-16 
 6.80000000e-01 -2.31863303e-12 -8.24397887e-16  3.42491788e-13 -3.68132339e-16 
 6.90000000e-01 -2.31861304e-12 -8.04397887e-16  3.42511782e-13 -3.48132339e-16 
 7.00000000e-01 -2.31859304e-12 -7.84397887e-16  3.42531777e-13 -3.28132339e-16 
 7.10000000e-01 -2.31857305e-12 -7.64397887e-16  3.42551772e-13 -3.08132339e-16 
 7.20000000e-01 -2.31855305e-12 -7.44397887e-16  3.42571768e-13 -2.88132339e-16 
 7.30000000e-01 -2.31853305e-12 -7.24397887e-16  3.42591765e-13 -2.68132339e-16 
 7.40000000e-01 -2.31851305e-12 -7.04397887e-16  3.42611764e-13 -2.48132339e-16 
 7.50000000e-01 -2.31849305e-12 -6.84397887e-16  3.42631764e-13 -2.28132339e-16 
 7.60000000e-01 -2.31847305e-12 -6.64397887e-16  3.42651765e-13 -2.08132339e-16 
 7.70000000e-01 -2.31845305e-12 -6.44397887e-16  3.42671769e-13 -1.88132339e-16 
 7.80000000e-01 -2.31843304e-12 -6.24397887e-16  3.42691773e-13 -1.68132339e-16 
 7.90000000e-01 -2.31841304e-12 -6.04397887e-16  3.42711780e-13 -1.48132339e-16 
 8.00000000e-01 -2.31839303e-12 -5.84397887e-16  3.42731788e-13 -1.28132339e-16 
 8.10000000e-01 -2.31837302e-12 -5.64397887e-16  3.42751798e-13 -1.08132339e-16 
 8.20000000e-01 -2.31835301e-12 -5.44397887e-16  3.42771809e-13 -8.81323393e-17 
 8.30000000e-01 -2.31833299e-12 -5.24397887e-16  3.42791823e-13 -6.81323393e-17 
 8.40000000e-01 -2.31831298e-12 -5.04397887e-16  3.42811840e-13 -4.81323393e-17 
 8.50000000e-01 -2.31829296e-12 -4.84397887e-16  3.42831861e-13 -2.81323393e-17 
 8.60000000e-01 -2.31827293e-12 -4.64397887e-16  3.42851886e-13 -8.13233935e-18 
 8.70000000e-01 -2.31825290e-12 -4.44397887e-16  3.42871917e-13  1.18676607e-17 
 8.80000000e-01 -2.31823286e-12 -4.24397887e-16  3.42891957e-13  3.18676607e-17 
 8.90000000e-01 -2.31821281e-12 -4.04397887e-16  3.42912007e-13  5.18676607e-17 
 9.00000000e-01 -2.31819274e-12 -3.84397887e-16  3.42932073e-13  7.18676607e-17 
 9.10000000e-01 -2.31817266e-12 -3.64397887e-16  3.42952161e-13  9.18676607e-17 
 9.20000000e-01 -2.31815254e-12 -3.44397887e-16  3.42972277e-13  1.11867661e-16 
 9.30000000e-01 -2.31813238e-12 -3.24397887e-16  3.42992433e-13  1.31867661e-16 
 9.40000000e-01 -2.31811217e-12 -3.04397887e-16  3.43012645e-13  1.51867661e-16 
 9.50000000e-01 -2.31809188e-12 -2.84397887e-16  3.43032934e-13  1.71867661e-16 
 9.60000000e-01 -2.31807149e-12 -2.64397887e-16  3.43053329e-13  1.91867661e-16 
 9.70000000e-01 -2.31805095e-12 -2.44397887e-16  3.43073871e-13  2.11867661e-16 
 9.80000000e-01 -2.31803020e-12 -2.24397887e-16  3.43094616e-13  2.31867661e-16 
 9.90000000e-01 -2.31800918e-12 -2.04397887e-16  3.43115641e-13  2.51867661e-16 
 1.00000000e+00 -2.31798776e-12 -1.84397887e-16  3.43137055e-13  2.71867661e-16 
 1.01000000e+00 -2.31796581e-12 -1.64397887e-16  3.43159007e-13  2.91867661e-16 
 1.02000000e+00 -2.31794312e-12 -1.44397887e-16  3.43181701e-13  3.11867661e-16 
 1.03000000e+00 -2.31791940e-12 -1.24397887e-16  3.43205422e-13  3.31867661e-16 
 1.04000000e+00 -2.31789426e-12 -1.04397887e-16  3.43230563e-13  3.51867661e-16 
 1.05000000e+00 -2.31786715e-12 -8.43978868e-17  3.43257667e-13  3.71867661e-16 
 1.06000000e+00 -2.31783733e-12 -6.43978868e-17  3.43287484e-13  3.91867661e-16 
 1.07000000e+00 -2.31780377e-12 -4.43978867e-17  3.43321051e-13  4.11867661e-16 
 1.08000000e+00 -2.31776502e-12 -2.43978865e-17  3.43359800e-13  4.31867661e-16 
 1.09000000e+00 -2.31771911e-12 -4.39788622e-18  3.43405708e-13  4.51867661e-16 
 1.10000000e+00 -2.31766331e-12  1.56021143e-17  3.43461509e-13  4.71867662e-16 
 1.11000000e+00 -2.31759384e-12  3.56021151e-17  3.43530975e-13  4.91867663e-16 
 1.12000000e+00 -2.31750550e-12  5.56021164e-17  3.43619317e-13  5.11867664e-16 
 1.13000000e+00 -2.31739109e-12  7.56021186e-17  3.43733729e-13  5.31867666e-16 
 1.14000000e+00 -2.31724067e-12  9.56021222e-17  3.43884149e-13  5.51867670e-16 
 1.15000000e+00 -2.31704055e-12  1.15602128e-16  3.44084270e-13  5.71867676e-16 
 1.16000000e+00 -2.31677180e-12  1.35602138e-16  3.44353021e-13  5.91867686e-16 
 1.17000000e+00 -2.31640828e-12  1.55602154e-16  3.44716534e-13  6.11867702e-16 
 1.18000000e+00 -2.31591399e-12  1.75602181e-16  3.45210827e-13  6.31867728e-16 
 1.19000000e+00 -2.31523918e-12  1.95602224e-16  3.45885642e-13  6.51867772e-16 
 1.20000000e+00 -2.31431526e-12  2.15602295e-16  3.46809558e-13  6.71867842e-16 
 1.21000000e+00 -2.31304758e-12  2.35602410e-16  3.48077235e-13  6.91867958e-16 
 1.22000000e+00 -2.31130563e-12  2.55602597e-16  3.49819187e-13  7.11868145e-16 
 1.23000000e+00 -2.30890936e-12  2.75602901e-16  3.52215455e-13  7.31868449e-16 
 1.24000000e+00 -2.30561052e-12  2.95603393e-16  3.55514300e-13  7.51868941e-16 
 1.25000000e+00 -2.30106679e-12  3.15604188e-16  3.60058030e-13  7.71869735e-16 
 1.26000000e+00 -2.29480618e-12  3.35605468e-16  3.66318637e-13  7.91871016e-16 
 1.27000000e+00 -2.28617808e-12  3.55607529e-16  3.74946742e-13  8.11873076e-16 
 1.28000000e+00 -2.27428562e-12  3.75610836e-16  3.86839201e-13  8.31876384e-16 
 1.29000000e+00 -2.25789272e-12  3.95616133e-16  4.03232098e-13  8.51881681e-16 
 1.30000000e+00 -2.23529592e-12  4.15624600e-16  4.25828899e-13  8.71890148e-16 
 1.31000000e+00 -2.20414790e-12  4.35638103e-16  4.56976922e-13  8.91903651e-16 
 1.32000000e+00 -2.16121453e-12  4.55659592e-16  4.99910291e-13  9.11925139e-16 
 1.33000000e+00 -2.10204031e-12  4.75693716e-16  5.59084504e-13  9.31959264e-16 
 1.34000000e+00 -2.02048779e-12  4.95747787e-16  6.40637032e-13  9.52013335e-16 
 1.35000000e+00 -1.90810351e-12  5.15833280e-16  7.53021312e-13  9.72098828e-16 
 1.36000000e+00 -1.75324544e-12  5.35968161e-16  9.07879380e-13  9.92233708e-16 
 1.37000000e+00 -1.53988196e-12  5.56180495e-16  1.12124286e-12  1.01244604e-15 
 1.38000000e+00 -1.24593922e-12  5.76514033e-16  1.41518560e-12  1.03277958e-15 
 1.39000000e+00 -8.41027257e-13  5.97036815e-16  1.82009756e-12  1.05330236e-15 
 1.40000000e+00 -2.83311529e-13  6.17854419e-16  2.37781329e-12  1.07411997e-15 
 1.41000000e+00  4.84790614e-13  6.39130313e-16  3.14591543e-12  1.09539586e-15 
 1.42000000e+00  1.54252940e-12  6.61117010e-16  4.20365421e-12  1.11738256e-15 
 1.43000000e+00  2.99896381e-12  6.84203704e-16  5.66008863e-12  1.14046925e-15 
 1.44000000e+00  5.00415713e-12  7.08988894e-16  7.66528195e-12  1.16525444e-15 
 1.45000000e+00  7.76457101e-12  7.36390864e-16  1.04256958e-11  1.19265641e-15 
 1.46000000e+00  1.21636811e-11  7.70281794e-16  1.48248059e-11  1.22654734e-15 
 1.47000000e+00  1.76185721e-11  8.09187405e-16  2.02796969e-11  1.26545295e-15 
 1.48000000e+00  2.51252828e-11  8.58218968e-16  2.77864076e-11  1.31448452e-15 
 1.49000000e+00  3.54544543e-11  9.22701477e-16  3.81155791e-11  1.37896702e-15 
 1.50000000e+00  4.96657421e-11  1.01070734e-15  5.23268669e-11  1.46697289e-15 
