 v-sweep         v(r_hv_w_dummy_on) v(r_lv_w_dummy_on) v(r_lv_wo_dummy_on) v(r_hv_wo_dummy_on)
 0.00000000e+00  4.06291462e+11  2.55118135e+02  2.55119653e+02  1.24882846e+12 
 1.00000000e-02  4.23335180e+11  2.57085882e+02  2.57087311e+02  1.29882247e+12 
 2.00000000e-02  4.38774597e+11  2.59126106e+02  2.59127456e+02  1.34384527e+12 
 3.00000000e-02  4.53906121e+11  2.61227778e+02  2.61229055e+02  1.38783607e+12 
 4.00000000e-02  4.68881035e+11  2.63393376e+02  2.63394585e+02  1.43128876e+12 
 5.00000000e-02  4.83841300e+11  2.65625504e+02  2.65626650e+02  1.47466022e+12 
 6.00000000e-02  4.98916275e+11  2.67926900e+02  2.67927987e+02  1.51836107e+12 
 7.00000000e-02  5.14221287e+11  2.70300445e+02  2.70301476e+02  1.56275220e+12 
 8.00000000e-02  5.29857673e+11  2.72749170e+02  2.72750151e+02  1.60814565e+12 
 9.00000000e-02  5.45913887e+11  2.75276272e+02  2.75277205e+02  1.65480836e+12 
 1.00000000e-01  5.62467291e+11  2.77885115e+02  2.77886006e+02  1.70296738e+12 
 1.10000000e-01  5.79586272e+11  2.80579252e+02  2.80580103e+02  1.75281516e+12 
 1.20000000e-01  5.97332374e+11  2.83362428e+02  2.83363242e+02  1.80451367e+12 
 1.30000000e-01  6.15762120e+11  2.86238598e+02  2.86239378e+02  1.85819567e+12 
 1.40000000e-01  6.34928262e+11  2.89211941e+02  2.89212690e+02  1.91396155e+12 
 1.50000000e-01  6.54880107e+11  2.92286874e+02  2.92287594e+02  1.97186907e+12 
 1.60000000e-01  6.75662517e+11  2.95468070e+02  2.95468764e+02  2.03191272e+12 
 1.70000000e-01  6.97312953e+11  2.98760473e+02  2.98761144e+02  2.09398713e+12 
 1.80000000e-01  7.19855611e+11  3.02169324e+02  3.02169973e+02  2.15782663e+12 
 1.90000000e-01  7.43291131e+11  3.05700173e+02  3.05700802e+02  2.22290875e+12 
 2.00000000e-01  7.67579515e+11  3.09358910e+02  3.09359522e+02  2.28830430e+12 
 2.10000000e-01  7.92612564e+11  3.13151786e+02  3.13152382e+02  2.35245079e+12 
 2.20000000e-01  8.18170360e+11  3.17085438e+02  3.17086020e+02  2.41282271e+12 
 2.30000000e-01  8.43853932e+11  3.21166922e+02  3.21167492e+02  2.46547933e+12 
 2.40000000e-01  8.68983898e+11  3.25403745e+02  3.25404304e+02  2.50450771e+12 
 2.50000000e-01  8.92454112e+11  3.29803894e+02  3.29804443e+02  2.52147907e+12 
 2.60000000e-01  9.12534778e+11  3.34375878e+02  3.34376420e+02  2.50524422e+12 
 2.70000000e-01  9.26640739e+11  3.39128768e+02  3.39129302e+02  2.44270570e+12 
 2.80000000e-01  9.31134405e+11  3.44072235e+02  3.44072764e+02  2.32142146e+12 
 2.90000000e-01  9.21335077e+11  3.49216607e+02  3.49217131e+02  2.13444933e+12 
 3.00000000e-01  8.92037928e+11  3.54572907e+02  3.54573428e+02  1.88608990e+12 
 3.10000000e-01  8.38874012e+11  3.60152916e+02  3.60153434e+02  1.59479683e+12 
 3.20000000e-01  7.60483659e+11  3.65969224e+02  3.65969741e+02  1.28952332e+12 
 3.30000000e-01  6.60576659e+11  3.72035289e+02  3.72035806e+02  1.00029965e+12 
 3.40000000e-01  5.48177415e+11  3.78365500e+02  3.78366017e+02  7.48930672e+11 
 3.50000000e-01  4.35092030e+11  3.84975229e+02  3.84975748e+02  5.45161100e+11 
 3.60000000e-01  3.31896207e+11  3.91880892e+02  3.91881414e+02  3.88544113e+11 
 3.70000000e-01  2.45043720e+11  3.99099992e+02  3.99100517e+02  2.72760628e+11 
 3.80000000e-01  1.76432604e+11  4.06651153e+02  4.06651682e+02  1.89478867e+11 
 3.90000000e-01  1.24726014e+11  4.14554124e+02  4.14554658e+02  1.30691593e+11 
 4.00000000e-01  8.70472134e+10  4.22829755e+02  4.22830295e+02  8.97167989e+10 
 4.10000000e-01  6.02213101e+10  4.31499910e+02  4.31500456e+02  6.13964506e+10 
 4.20000000e-01  4.14197652e+10  4.40587302e+02  4.40587856e+02  4.19302911e+10 
 4.30000000e-01  2.83789636e+10  4.50115235e+02  4.50115797e+02  2.85982563e+10 
 4.40000000e-01  1.93954917e+10  4.60107191e+02  4.60107763e+02  1.94886903e+10 
 4.50000000e-01  1.32344629e+10  4.70586277e+02  4.70586858e+02  1.32736425e+10 
 4.60000000e-01  9.02121906e+09  4.81574480e+02  4.81575072e+02  9.03749239e+09 
 4.70000000e-01  6.14526767e+09  4.93091798e+02  4.93092401e+02  6.15193158e+09 
 4.80000000e-01  4.18444699e+09  5.05155307e+02  5.05155922e+02  4.18712818e+09 
 4.90000000e-01  2.84855210e+09  5.17778361e+02  5.17778989e+02  2.84960633e+09 
 5.00000000e-01  1.93883911e+09  5.30970177e+02  5.30970819e+02  1.93924068e+09 
 5.10000000e-01  1.31952573e+09  5.44736079e+02  5.44736735e+02  1.31967167e+09 
 5.20000000e-01  8.97985645e+08  5.59078575e+02  5.59079246e+02  8.98034750e+08 
 5.30000000e-01  6.11092505e+08  5.73999166e+02  5.73999852e+02  6.11106711e+08 
 5.40000000e-01  4.15850410e+08  5.89500522e+02  5.89501223e+02  4.15853048e+08 
 5.50000000e-01  2.82985383e+08  6.05588440e+02  6.05589157e+02  2.82984785e+08 
 5.60000000e-01  1.92570654e+08  6.22273129e+02  6.22273862e+02  1.92569536e+08 
 5.70000000e-01  1.31043974e+08  6.39569628e+02  6.39570376e+02  1.31043068e+08 
 5.80000000e-01  8.91755821e+07  6.57497472e+02  6.57498237e+02  8.91749832e+07 
 5.90000000e-01  6.06844829e+07  6.76079906e+02  6.76080686e+02  6.06841227e+07 
 6.00000000e-01  3.89199290e+07  6.95143540e+02  6.95144334e+02  3.89197469e+07 
 6.10000000e-01  2.64858378e+07  7.15103906e+02  7.15104715e+02  2.64857377e+07 
 6.20000000e-01  1.80244391e+07  7.35800152e+02  7.35800975e+02  1.80243855e+07 
 6.30000000e-01  1.22664303e+07  7.57260252e+02  7.57261088e+02  1.22664021e+07 
 6.40000000e-01  8.34806795e+06  7.79511355e+02  7.79512203e+02  8.34805333e+06 
 6.50000000e-01  5.68158375e+06  8.02578947e+02  8.02579806e+02  5.68157626e+06 
 6.60000000e-01  3.86700609e+06  8.26485970e+02  8.26486838e+02  3.86700228e+06 
 6.70000000e-01  2.63215605e+06  8.51251852e+02  8.51252728e+02  2.63215413e+06 
 6.80000000e-01  1.79181622e+06  8.76891427e+02  8.76892308e+02  1.79181526e+06 
 6.90000000e-01  1.21994570e+06  9.03413696e+02  9.03414579e+02  1.21994522e+06 
 7.00000000e-01  8.30772955e+05  9.30820423e+02  9.30821306e+02  8.30772718e+05 
 7.10000000e-01  5.65929663e+05  9.59104529e+02  9.59105407e+02  5.65929546e+05 
 7.20000000e-01  3.85695448e+05  9.88248273e+02  9.88249141e+02  3.85695391e+05 
 7.30000000e-01  2.63039961e+05  1.01822121e+03  1.01822207e+03  2.63039933e+05 
 7.40000000e-01  1.79568527e+05  1.04897796e+03  1.04897880e+03  1.79568513e+05 
 7.50000000e-01  1.22763151e+05  1.08045570e+03  1.08045651e+03  1.22763144e+05 
 7.60000000e-01  8.41050145e+04  1.11257156e+03  1.11257233e+03  8.41050111e+04 
 7.70000000e-01  5.77968100e+04  1.14521986e+03  1.14522059e+03  5.77968083e+04 
 7.80000000e-01  3.98932819e+04  1.17826928e+03  1.17826996e+03  3.98932811e+04 
 7.90000000e-01  2.77095434e+04  1.21156016e+03  1.21156078e+03  2.77095430e+04 
 8.00000000e-01  1.94184251e+04  1.24490194e+03  1.24490248e+03  1.94184249e+04 
 8.10000000e-01  1.37764626e+04  1.27807106e+03  1.27807151e+03  1.37764625e+04 
 8.20000000e-01  9.93742247e+03  1.31080948e+03  1.31080983e+03  9.93742241e+03 
 8.30000000e-01  7.32540027e+03  1.34282412e+03  1.34282436e+03  7.32540023e+03 
 8.40000000e-01  5.54845859e+03  1.37378761e+03  1.37378772e+03  5.54845857e+03 
 8.50000000e-01  4.33985395e+03  1.40334056e+03  1.40334053e+03  4.33985394e+03 
 8.60000000e-01  3.51804097e+03  1.43109597e+03  1.43109577e+03  3.51804096e+03 
 8.70000000e-01  2.95945679e+03  1.45664597e+03  1.45664560e+03  2.95945678e+03 
 8.80000000e-01  2.58000306e+03  1.47957154e+03  1.47957099e+03  2.58000306e+03 
 8.90000000e-01  2.32244471e+03  1.49945531e+03  1.49945456e+03  2.32244470e+03 
 9.00000000e-01  2.14783270e+03  1.51589797e+03  1.51589701e+03  2.14783269e+03 
 9.10000000e-01  2.02966430e+03  1.52853826e+03  1.52853709e+03  2.02966430e+03 
 9.20000000e-01  1.94990686e+03  1.53707625e+03  1.53707487e+03  1.94990686e+03 
 9.30000000e-01  1.89629095e+03  1.54129903e+03  1.54129743e+03  1.89629094e+03 
 9.40000000e-01  1.86046823e+03  1.54110663e+03  1.54110482e+03  1.86046823e+03 
 9.50000000e-01  1.83675810e+03  1.53653488e+03  1.53653287e+03  1.83675810e+03 
 9.60000000e-01  1.82129502e+03  1.52777000e+03  1.52776779e+03  1.82129502e+03 
 9.70000000e-01  1.81144844e+03  1.51514946e+03  1.51514708e+03  1.81144844e+03 
 9.80000000e-01  1.80542819e+03  1.49914475e+03  1.49914220e+03  1.80542819e+03 
 9.90000000e-01  1.80201596e+03  1.48032569e+03  1.48032298e+03  1.80201596e+03 
 1.00000000e+00  1.79960915e+03  1.46057161e+03  1.46056877e+03  1.79960914e+03 
 1.01000000e+00  1.79943384e+03  1.43773217e+03  1.43772920e+03  1.79943384e+03 
 1.02000000e+00  1.80001275e+03  1.41390114e+03  1.41389806e+03  1.80001274e+03 
 1.03000000e+00  1.80110820e+03  1.38958006e+03  1.38957687e+03  1.80110820e+03 
 1.04000000e+00  1.80255887e+03  1.36517227e+03  1.36516899e+03  1.80255886e+03 
 1.05000000e+00  1.80425514e+03  1.34098410e+03  1.34098074e+03  1.80425514e+03 
 1.06000000e+00  1.80612253e+03  1.31723588e+03  1.31723243e+03  1.80612253e+03 
 1.07000000e+00  1.80811041e+03  1.29407731e+03  1.29407379e+03  1.80811041e+03 
 1.08000000e+00  1.81018437e+03  1.27160326e+03  1.27159966e+03  1.81018436e+03 
 1.09000000e+00  1.81230993e+03  1.24986774e+03  1.24986407e+03  1.81230992e+03 
 1.10000000e+00  1.81453835e+03  1.22889540e+03  1.22889166e+03  1.81453834e+03 
 1.11000000e+00  1.81671382e+03  1.20869039e+03  1.20868658e+03  1.81671382e+03 
 1.12000000e+00  1.81898328e+03  1.18924295e+03  1.18923907e+03  1.81898328e+03 
 1.13000000e+00  1.82123976e+03  1.17053429e+03  1.17053035e+03  1.82123976e+03 
 1.14000000e+00  1.82354188e+03  1.15253995e+03  1.15253594e+03  1.82354187e+03 
 1.15000000e+00  1.82585530e+03  1.13523225e+03  1.13522817e+03  1.82585529e+03 
 1.16000000e+00  1.82817156e+03  1.11858189e+03  1.11857775e+03  1.82817156e+03 
 1.17000000e+00  1.83052104e+03  1.10255911e+03  1.10255491e+03  1.83052103e+03 
 1.18000000e+00  1.83287413e+03  1.08713442e+03  1.08713014e+03  1.83287413e+03 
 1.19000000e+00  1.83524882e+03  1.07227903e+03  1.07227469e+03  1.83524881e+03 
 1.20000000e+00  1.83763758e+03  1.05796522e+03  1.05796082e+03  1.83763757e+03 
 1.21000000e+00  1.84003925e+03  1.04416646e+03  1.04416198e+03  1.84003924e+03 
 1.22000000e+00  1.84245647e+03  1.03085747e+03  1.03085292e+03  1.84245646e+03 
 1.23000000e+00  1.84488673e+03  1.01801431e+03  1.01800969e+03  1.84488672e+03 
 1.24000000e+00  1.84733248e+03  1.00561432e+03  1.00560963e+03  1.84733247e+03 
 1.25000000e+00  1.84979239e+03  9.93636091e+02  9.93631327e+02  1.84979239e+03 
 1.26000000e+00  1.85226737e+03  9.82059442e+02  9.82054601e+02  1.85226736e+03 
 1.27000000e+00  1.85475699e+03  9.70865330e+02  9.70860412e+02  1.85475699e+03 
 1.28000000e+00  1.85726198e+03  9.60035806e+02  9.60030808e+02  1.85726198e+03 
 1.29000000e+00  1.85978259e+03  9.49553949e+02  9.49548869e+02  1.85978258e+03 
 1.30000000e+00  1.86231924e+03  9.39403802e+02  9.39398637e+02  1.86231923e+03 
 1.31000000e+00  1.86487271e+03  9.29570316e+02  9.29565064e+02  1.86487270e+03 
 1.32000000e+00  1.86744386e+03  9.20039289e+02  9.20033947e+02  1.86744386e+03 
 1.33000000e+00  1.87003408e+03  9.10797314e+02  9.10791879e+02  1.87003408e+03 
 1.34000000e+00  1.87264526e+03  9.01831727e+02  9.01826195e+02  1.87264525e+03 
 1.35000000e+00  1.87528017e+03  8.93130559e+02  8.93124928e+02  1.87528017e+03 
 1.36000000e+00  1.87794282e+03  8.84682494e+02  8.84676758e+02  1.87794281e+03 
 1.37000000e+00  1.88063906e+03  8.76476822e+02  8.76470978e+02  1.88063905e+03 
 1.38000000e+00  1.88337746e+03  8.68503406e+02  8.68497449e+02  1.88337746e+03 
 1.39000000e+00  1.88617057e+03  8.60752641e+02  8.60746566e+02  1.88617057e+03 
 1.40000000e+00  1.88903678e+03  8.53215426e+02  8.53209226e+02  1.88903677e+03 
 1.41000000e+00  1.89200302e+03  8.45883126e+02  8.45876795e+02  1.89200301e+03 
 1.42000000e+00  1.89510872e+03  8.38747549e+02  8.38741079e+02  1.89510871e+03 
 1.43000000e+00  1.89841142e+03  8.31800914e+02  8.31794299e+02  1.89841141e+03 
 1.44000000e+00  1.90199484e+03  8.25035831e+02  8.25029061e+02  1.90199484e+03 
 1.45000000e+00  1.90598001e+03  8.18445272e+02  8.18438340e+02  1.90598000e+03 
 1.46000000e+00  1.91054037e+03  8.12022555e+02  8.12015452e+02  1.91054036e+03 
 1.47000000e+00  1.91592118e+03  8.05761319e+02  8.05754037e+02  1.91592118e+03 
 1.48000000e+00  1.92246260e+03  7.99655508e+02  7.99648038e+02  1.92246259e+03 
 1.49000000e+00  1.93062281e+03  7.93699354e+02  7.93691686e+02  1.93062280e+03 
 1.50000000e+00  1.94099328e+03  7.87887358e+02  7.87879482e+02  1.94099327e+03 
