 v-sweep         v(r_hv_w_dummy_on) v(r_lv_w_dummy_on) v(r_lv_wo_dummy_on) v(r_hv_wo_dummy_on)
 0.00000000e+00  7.78626438e+11  5.33227626e+02  5.33230891e+02  2.38702308e+12 
 1.00000000e-02  8.09992816e+11  5.37599818e+02  5.37602895e+02  2.47857147e+12 
 2.00000000e-02  8.38387664e+11  5.42132945e+02  5.42135856e+02  2.56097382e+12 
 3.00000000e-02  8.66180314e+11  5.46804031e+02  5.46806786e+02  2.64139026e+12 
 4.00000000e-02  8.93651591e+11  5.51618698e+02  5.51621309e+02  2.72073155e+12 
 5.00000000e-02  9.21062773e+11  5.56582861e+02  5.56585337e+02  2.79983297e+12 
 6.00000000e-02  9.48650104e+11  5.61702739e+02  5.61705091e+02  2.87943918e+12 
 7.00000000e-02  9.76622615e+11  5.66984883e+02  5.66987118e+02  2.96019925e+12 
 8.00000000e-02  1.00516251e+12  5.72436188e+02  5.72438315e+02  3.04266921e+12 
 9.00000000e-02  1.03442742e+12  5.78063923e+02  5.78065951e+02  3.12731920e+12 
 1.00000000e-01  1.06455375e+12  5.83875752e+02  5.83877688e+02  3.21454298e+12 
 1.10000000e-01  1.09566060e+12  5.89879761e+02  5.89881611e+02  3.30466702e+12 
 1.20000000e-01  1.12785348e+12  5.96084485e+02  5.96086258e+02  3.39795667e+12 
 1.30000000e-01  1.16122742e+12  6.02498943e+02  6.02500644e+02  3.49461655e+12 
 1.40000000e-01  1.19586883e+12  6.09132665e+02  6.09134300e+02  3.59478142e+12 
 1.50000000e-01  1.23185541e+12  6.15995732e+02  6.15997307e+02  3.69849278e+12 
 1.60000000e-01  1.26925339e+12  6.23098813e+02  6.23100332e+02  3.80565396e+12 
 1.70000000e-01  1.30811071e+12  6.30453206e+02  6.30454675e+02  3.91595300e+12 
 1.80000000e-01  1.34844421e+12  6.38070885e+02  6.38072310e+02  4.02873722e+12 
 1.90000000e-01  1.39021779e+12  6.45964550e+02  6.45965934e+02  4.14281578e+12 
 2.00000000e-01  1.43330677e+12  6.54147677e+02  6.54149024e+02  4.25615723e+12 
 2.10000000e-01  1.47744123e+12  6.62634577e+02  6.62635891e+02  4.36543979e+12 
 2.20000000e-01  1.52211761e+12  6.71440459e+02  6.71441744e+02  4.46541094e+12 
 2.30000000e-01  1.56646401e+12  6.80581500e+02  6.80582759e+02  4.54803820e+12 
 2.40000000e-01  1.60904107e+12  6.90074914e+02  6.90076151e+02  4.60152393e+12 
 2.50000000e-01  1.64756159e+12  6.99939038e+02  6.99940256e+02  4.60947937e+12 
 2.60000000e-01  1.67852817e+12  7.10193413e+02  7.10194615e+02  4.55097097e+12 
 2.70000000e-01  1.69683820e+12  7.20858884e+02  7.20860072e+02  4.40269098e+12 
 2.80000000e-01  1.69552042e+12  7.31957697e+02  7.31958875e+02  4.14466293e+12 
 2.90000000e-01  1.66596323e+12  7.43513612e+02  7.43514782e+02  3.76955307e+12 
 3.00000000e-01  1.59919882e+12  7.55552019e+02  7.55553183e+02  3.29206336e+12 
 3.10000000e-01  1.48871796e+12  7.68100064e+02  7.68101225e+02  2.75129559e+12 
 3.20000000e-01  1.33441143e+12  7.81186782e+02  7.81187942e+02  2.20105549e+12 
 3.30000000e-01  1.14557615e+12  7.94843236e+02  7.94844397e+02  1.69221957e+12 
 3.40000000e-01  9.40080746e+11  8.09102657e+02  8.09103822e+02  1.25827142e+12 
 3.50000000e-01  7.38917591e+11  8.24000586e+02  8.24001756e+02  9.11387092e+11 
 3.60000000e-01  5.59293780e+11  8.39575008e+02  8.39576186e+02  6.47384664e+11 
 3.70000000e-01  4.10571384e+11  8.55866467e+02  8.55867655e+02  4.53500829e+11 
 3.80000000e-01  2.94448341e+11  8.72918154e+02  8.72919353e+02  3.14636167e+11 
 3.90000000e-01  2.07626539e+11  8.90775936e+02  8.90777149e+02  2.16871873e+11 
 4.00000000e-01  1.44683362e+11  9.09488313e+02  9.09489541e+02  1.48835192e+11 
 4.10000000e-01  1.00012629e+11  9.29106249e+02  9.29107495e+02  1.01849689e+11 
 4.20000000e-01  6.87626461e+10  9.49682833e+02  9.49684099e+02  6.95660350e+10 
 4.30000000e-01  4.71095640e+10  9.71272704e+02  9.71273992e+02  4.74574496e+10 
 4.40000000e-01  3.22003332e+10  9.93931172e+02  9.93932483e+02  3.23496174e+10 
 4.50000000e-01  2.19766499e+10  1.01771296e+03  1.01771429e+03  2.20401356e+10 
 4.60000000e-01  1.49846017e+10  1.04267052e+03  1.04267188e+03  1.50113404e+10 
 4.70000000e-01  1.02108729e+10  1.06885199e+03  1.06885339e+03  1.02220114e+10 
 4.80000000e-01  6.95524321e+09  1.09629890e+03  1.09630032e+03  6.95982253e+09 
 4.90000000e-01  4.73648799e+09  1.12504393e+03  1.12504539e+03  4.73834004e+09 
 5.00000000e-01  3.22504265e+09  1.15510946e+03  1.15511095e+03  3.22577587e+09 
 5.10000000e-01  2.19571012e+09  1.18650720e+03  1.18650872e+03  2.19599205e+09 
 5.20000000e-01  1.49482826e+09  1.21923977e+03  1.21924134e+03  1.49493215e+09 
 5.30000000e-01  1.01764100e+09  1.25330405e+03  1.25330566e+03  1.01767677e+09 
 5.40000000e-01  6.92773617e+08  1.28869569e+03  1.28869733e+03  6.92784472e+08 
 5.50000000e-01  4.71612800e+08  1.32541378e+03  1.32541546e+03  4.71615184e+08 
 5.60000000e-01  3.21055343e+08  1.36346432e+03  1.36346605e+03  3.21055223e+08 
 5.70000000e-01  2.18562664e+08  1.40286192e+03  1.40286369e+03  2.18562042e+08 
 5.80000000e-01  1.48790425e+08  1.44362958e+03  1.44363138e+03  1.48789875e+08 
 5.90000000e-01  1.01292637e+08  1.48579710e+03  1.48579895e+03  1.01292260e+08 
 6.00000000e-01  6.89581449e+07  1.52939887e+03  1.52940075e+03  6.89579144e+07 
 6.10000000e-01  4.42495506e+07  1.57389033e+03  1.57389225e+03  4.42494326e+07 
 6.20000000e-01  3.01253810e+07  1.62043606e+03  1.62043801e+03  3.01253157e+07 
 6.30000000e-01  2.05100348e+07  1.66851850e+03  1.66852049e+03  2.05099996e+07 
 6.40000000e-01  1.39641239e+07  1.71816434e+03  1.71816635e+03  1.39641052e+07 
 6.50000000e-01  9.50778227e+06  1.76939280e+03  1.76939484e+03  9.50777257e+06 
 6.60000000e-01  6.47396036e+06  1.82221324e+03  1.82221530e+03  6.47395537e+06 
 6.70000000e-01  4.40855687e+06  1.87662261e+03  1.87662468e+03  4.40855433e+06 
 6.80000000e-01  3.00243517e+06  1.93260268e+03  1.93260476e+03  3.00243389e+06 
 6.90000000e-01  2.04514404e+06  1.99011708e+03  1.99011917e+03  2.04514340e+06 
 7.00000000e-01  1.39341333e+06  2.04910802e+03  2.04911010e+03  1.39341301e+06 
 7.10000000e-01  9.49707419e+05  2.10949275e+03  2.10949481e+03  9.49707259e+05 
 7.20000000e-01  6.47625379e+05  2.17115975e+03  2.17116178e+03  6.47625300e+05 
 7.30000000e-01  4.41962025e+05  2.23396472e+03  2.23396671e+03  4.41961986e+05 
 7.40000000e-01  3.01941812e+05  2.29772640e+03  2.29772832e+03  3.01941793e+05 
 7.50000000e-01  2.06612690e+05  2.36222233e+03  2.36222418e+03  2.06612680e+05 
 7.60000000e-01  1.41710354e+05  2.42718478e+03  2.42718654e+03  1.41710350e+05 
 7.70000000e-01  9.75234940e+04  2.49229691e+03  2.49229855e+03  9.75234916e+04 
 7.80000000e-01  6.74404817e+04  2.55718951e+03  2.55719101e+03  6.74404805e+04 
 7.90000000e-01  4.69599772e+04  2.62143861e+03  2.62143996e+03  4.69599766e+04 
 8.00000000e-01  3.30173492e+04  2.68456427e+03  2.68456543e+03  3.30173489e+04 
 8.10000000e-01  2.35261014e+04  2.74603090e+03  2.74603184e+03  2.35261012e+04 
 8.20000000e-01  1.70656696e+04  2.80524968e+03  2.80525038e+03  1.70656696e+04 
 8.30000000e-01  1.26688664e+04  2.86158341e+03  2.86158383e+03  1.26688663e+04 
 8.40000000e-01  9.67716540e+03  2.91435421e+03  2.91435433e+03  9.67716537e+03 
 8.50000000e-01  7.64217677e+03  2.96285465e+03  2.96285445e+03  7.64217675e+03 
 8.60000000e-01  6.25857523e+03  3.00636254e+03  3.00636198e+03  6.25857522e+03 
 8.70000000e-01  5.31844716e+03  3.04415977e+03  3.04415884e+03  5.31844715e+03 
 8.80000000e-01  4.68021765e+03  3.07555560e+03  3.07555426e+03  4.68021764e+03 
 8.90000000e-01  4.24749573e+03  3.09991422e+03  3.09991248e+03  4.24749572e+03 
 9.00000000e-01  3.95466473e+03  3.11668695e+03  3.11668479e+03  3.95466472e+03 
 9.10000000e-01  3.75706353e+03  3.12544819e+03  3.12544561e+03  3.75706352e+03 
 9.20000000e-01  3.62429632e+03  3.12593415e+03  3.12593114e+03  3.62429632e+03 
 9.30000000e-01  3.53567601e+03  3.11808133e+03  3.11807792e+03  3.53567600e+03 
 9.40000000e-01  3.47712234e+03  3.10206026e+03  3.10205645e+03  3.47712233e+03 
 9.50000000e-01  3.43905114e+03  3.07829688e+03  3.07829270e+03  3.43905114e+03 
 9.60000000e-01  3.41493812e+03  3.04747306e+03  3.04746853e+03  3.41493811e+03 
 9.70000000e-01  3.40034164e+03  3.01049848e+03  3.01049363e+03  3.40034163e+03 
 9.80000000e-01  3.38943782e+03  2.97131462e+03  2.97130947e+03  3.38943782e+03 
 9.90000000e-01  3.38664009e+03  2.92490362e+03  2.92489821e+03  3.38664008e+03 
 1.00000000e+00  3.38660552e+03  2.87574382e+03  2.87573817e+03  3.38660551e+03 
 1.01000000e+00  3.38846061e+03  2.82493967e+03  2.82493381e+03  3.38846060e+03 
 1.02000000e+00  3.39161331e+03  2.77344234e+03  2.77343628e+03  3.39161330e+03 
 1.03000000e+00  3.39566183e+03  2.72201941e+03  2.72201317e+03  3.39566183e+03 
 1.04000000e+00  3.40033330e+03  2.67125402e+03  2.67124761e+03  3.40033329e+03 
 1.05000000e+00  3.40544227e+03  2.62156387e+03  2.62155732e+03  3.40544227e+03 
 1.06000000e+00  3.41086275e+03  2.57322971e+03  2.57322300e+03  3.41086274e+03 
 1.07000000e+00  3.41650911e+03  2.52642531e+03  2.52641848e+03  3.41650910e+03 
 1.08000000e+00  3.42232321e+03  2.48124477e+03  2.48123780e+03  3.42232320e+03 
 1.09000000e+00  3.42842158e+03  2.43772488e+03  2.43771778e+03  3.42842157e+03 
 1.10000000e+00  3.43424149e+03  2.39586263e+03  2.39585541e+03  3.43424148e+03 
 1.11000000e+00  3.44045911e+03  2.35562835e+03  2.35562101e+03  3.44045910e+03 
 1.12000000e+00  3.44663676e+03  2.31697515e+03  2.31696768e+03  3.44663675e+03 
 1.13000000e+00  3.45288723e+03  2.27984571e+03  2.27983812e+03  3.45288722e+03 
 1.14000000e+00  3.45921674e+03  2.24417701e+03  2.24416931e+03  3.45921673e+03 
 1.15000000e+00  3.46559565e+03  2.20990354e+03  2.20989571e+03  3.46559564e+03 
 1.16000000e+00  3.47201779e+03  2.17695945e+03  2.17695150e+03  3.47201778e+03 
 1.17000000e+00  3.47849636e+03  2.14527999e+03  2.14527192e+03  3.47849635e+03 
 1.18000000e+00  3.48502292e+03  2.11480239e+03  2.11479420e+03  3.48502291e+03 
 1.19000000e+00  3.49159914e+03  2.08546640e+03  2.08545809e+03  3.49159913e+03 
 1.20000000e+00  3.49822452e+03  2.05721458e+03  2.05720614e+03  3.49822451e+03 
 1.21000000e+00  3.50490213e+03  2.02999242e+03  2.02998385e+03  3.50490212e+03 
 1.22000000e+00  3.51162662e+03  2.00374835e+03  2.00373966e+03  3.51162661e+03 
 1.23000000e+00  3.51840305e+03  1.97843371e+03  1.97842488e+03  3.51840304e+03 
 1.24000000e+00  3.52522961e+03  1.95400261e+03  1.95399365e+03  3.52522960e+03 
 1.25000000e+00  3.53210762e+03  1.93041184e+03  1.93040274e+03  3.53210761e+03 
 1.26000000e+00  3.53903730e+03  1.90762073e+03  1.90761149e+03  3.53903729e+03 
 1.27000000e+00  3.54602011e+03  1.88559097e+03  1.88558159e+03  3.54602010e+03 
 1.28000000e+00  3.55305656e+03  1.86428651e+03  1.86427698e+03  3.55305655e+03 
 1.29000000e+00  3.56014765e+03  1.84367341e+03  1.84366372e+03  3.56014764e+03 
 1.30000000e+00  3.56729517e+03  1.82371966e+03  1.82370982e+03  3.56729516e+03 
 1.31000000e+00  3.57450085e+03  1.80439514e+03  1.80438513e+03  3.57450084e+03 
 1.32000000e+00  3.58176734e+03  1.78567140e+03  1.78566123e+03  3.58176733e+03 
 1.33000000e+00  3.58909824e+03  1.76752164e+03  1.76751130e+03  3.58909823e+03 
 1.34000000e+00  3.59649848e+03  1.74992053e+03  1.74991000e+03  3.59649847e+03 
 1.35000000e+00  3.60397515e+03  1.73284414e+03  1.73283343e+03  3.60397513e+03 
 1.36000000e+00  3.61153838e+03  1.71626987e+03  1.71625897e+03  3.61153836e+03 
 1.37000000e+00  3.61920288e+03  1.70017634e+03  1.70016523e+03  3.61920287e+03 
 1.38000000e+00  3.62699003e+03  1.68454332e+03  1.68453199e+03  3.62699002e+03 
 1.39000000e+00  3.63493098e+03  1.66935162e+03  1.66934008e+03  3.63493096e+03 
 1.40000000e+00  3.64307125e+03  1.65458311e+03  1.65457133e+03  3.64307124e+03 
 1.41000000e+00  3.65147742e+03  1.64022056e+03  1.64020853e+03  3.65147740e+03 
 1.42000000e+00  3.66024662e+03  1.62624763e+03  1.62623535e+03  3.66024661e+03 
 1.43000000e+00  3.66952034e+03  1.61264884e+03  1.61263628e+03  3.66952033e+03 
 1.44000000e+00  3.67950363e+03  1.59940944e+03  1.59939659e+03  3.67950361e+03 
 1.45000000e+00  3.69049147e+03  1.58651546e+03  1.58650230e+03  3.69049146e+03 
 1.46000000e+00  3.70290354e+03  1.57395357e+03  1.57394009e+03  3.70290352e+03 
 1.47000000e+00  3.71732688e+03  1.56171112e+03  1.56169731e+03  3.71732687e+03 
 1.48000000e+00  3.73456249e+03  1.54977606e+03  1.54976190e+03  3.73456247e+03 
 1.49000000e+00  3.75566369e+03  1.53813692e+03  1.53812238e+03  3.75566367e+03 
 1.50000000e+00  3.78194187e+03  1.52678275e+03  1.52676782e+03  3.78194186e+03 
